(1785000236.184482) can0 05F8021C#31FC6B140000FFFF
(1785000236.194594) can0 05F8021C#31FC6B140000FFFF
(1785000236.202454) can0 18FF50E0#00008000800080B6
(1785000236.204712) can0 05F8021C#31FC6B140000FFFF
(1785000236.214863) can0 05F8021C#31FC6B140000FFFF
(1785000236.220073) can0 1DEFFFF8#C00CE5986C070202
(1785000236.221011) can0 1DEFFFF8#C1410089000000FF
(1785000236.222183) can0 1DEFFFF8#E00CE5986C070202
(1785000236.223221) can0 1DEFFFF8#E1430001000000FF
(1785000236.224089) can0 1DEFFFF8#0009E5986C070202
(1785000236.224913) can0 05F8021C#31FC6B140000FFFF
(1785000236.225489) can0 1DEFFFF8#01280000FFFFFFFF
(1785000236.226090) can0 1DEFFFF8#2009E5986C070202
(1785000236.227287) can0 1DEFFFF8#21340000FFFFFFFF
(1785000236.229908) can0 1DEFFFF8#4009E5986C070202
(1785000236.230593) can0 1DEFFFF8#411B00FFFFFFFFFF
(1785000236.232496) can0 1DEFFFF8#6009E5986C070202
(1785000236.233203) can0 1DEFFFF8#611D00FFFFFFFFFF
(1785000236.235029) can0 05F8021C#31FC6B140000FFFF
(1785000236.238715) can0 09F80219#C0FC56140200FFFF
(1785000236.239360) can0 09F80119#B56B2618586C5BC1
(1785000236.245169) can0 05F8021C#31FC6B140000FFFF
(1785000236.253991) can0 18F01D21#B8811680FFFFFFFF
(1785000236.255326) can0 05F8021C#31FC6B140000FFFF
(1785000236.265380) can0 05F8021C#31FC6B140000FFFF
(1785000236.275510) can0 05F8021C#31FC6B140000FFFF
(1785000236.282592) can0 09F8011C#B86C2618086B5BC1
(1785000236.283527) can0 09F11219#C0FEFFFF7FFF7FFC
(1785000236.284091) can0 19FA031C#32D20F013001F500
(1785000236.285795) can0 05F8021C#32FC6B140000FFFF
(1785000236.286675) can0 0DF0101C#32F0B350C07E5525
(1785000236.287717) can0 18FEE81C#FA0E0000A8635A7E
(1785000236.288719) can0 19FA041C#806F32FF090A141E
(1785000236.289704) can0 19FA041C#81F0B95C12FFFFFF
(1785000236.290744) can0 19FA041C#82FFFF0F00000000
(1785000236.291778) can0 19FA041C#830000FFFFFFFFFF
(1785000236.292761) can0 19FA041C#84122B2FA041F811
(1785000236.293785) can0 19FA041C#85FFFFFFFFFF17DA
(1785000236.294760) can0 19FA041C#862F1EDC0410FFFF
(1785000236.295743) can0 05F8021C#32FC6B140000FFFF
(1785000236.296840) can0 19FA041C#87FFFFFF1B3115D0
(1785000236.297356) can0 09F112F8#FFF1750000FF7FFD
(1785000236.297955) can0 19FA041C#88CFA00FFFFFFFFF
(1785000236.298782) can0 19FA041C#89FF1D92093674E4
(1785000236.299797) can0 19FA041C#8A0CFFFFFFFFFF20
(1785000236.300857) can0 19FA041C#8B000000000000FF
(1785000236.301842) can0 19FA041C#8CFFFFFFFF2CB61C
(1785000236.302841) can0 19FA041C#8DFC850000FFFFFF
(1785000236.303202) can0 18FF50E0#00008000800080B7
(1785000236.303840) can0 19FA041C#8EFFFF30A91A308E
(1785000236.305008) can0 19FA041C#8F0410FFFFFFFFFF
(1785000236.305822) can0 05F8021C#32FC6B140000FFFF
(1785000236.315985) can0 05F8021C#32FC6B140000FFFF
(1785000236.326066) can0 05F8021C#32FC6B140000FFFF
(1785000236.336174) can0 05F8021C#32FC6B140000FFFF
(1785000236.337508) can0 09F80219#C1FC56140200FFFF
(1785000236.338366) can0 09F80119#B56B2618586C5BC1
(1785000236.346279) can0 05F8021C#32FC6B140000FFFF
(1785000236.354381) can0 18F01D21#B8811680FFFFFFFF
(1785000236.356393) can0 05F8021C#32FC6B140000FFFF
(1785000236.366526) can0 05F8021C#32FC6B140000FFFF
(1785000236.376619) can0 05F8021C#32FC6B140000FFFF
(1785000236.383426) can0 0DF11919#C1FE7FFE7FFE7FFF
(1785000236.384181) can0 09F11219#C1FEFFFF7FFF7FFC
(1785000236.386718) can0 05F8021C#32FC6B140000FFFF
(1785000236.396846) can0 05F8021C#32FC6B140000FFFF
(1785000236.404380) can0 18FF50E0#00008000800080B8
(1785000236.406969) can0 05F8021C#32FC6B140000FFFF
(1785000236.417069) can0 05F8021C#32FC6B140000FFFF
(1785000236.427185) can0 05F8021C#32FC6B140000FFFF
(1785000236.437282) can0 05F8021C#32FC6B140000FFFF
(1785000236.437833) can0 09F80219#C2FC56140100FFFF
(1785000236.438680) can0 09F80119#B56B2618586C5BC1
(1785000236.447435) can0 05F8021C#32FC6B140000FFFF
(1785000236.447970) can0 09F112F8#FFED750000FF7FFD
(1785000236.454764) can0 18F01D21#B8811680FFFFFFFF
(1785000236.457528) can0 05F8021C#32FC6B140000FFFF
(1785000236.467678) can0 05F8021C#32FC6B140000FFFF
(1785000236.477735) can0 05F8021C#32FC6B140000FFFF
(1785000236.483495) can0 09F11219#C2FEFFFF7FFF7FFC
(1785000236.487848) can0 05F8021C#32FC6B140000FFFF
(1785000236.497976) can0 05F8021C#32FC6B140000FFFF
(1785000236.505475) can0 18FF50E0#00008000800080B9
(1785000236.508098) can0 05F8021C#32FC6B140000FFFF
(1785000236.518186) can0 05F8021C#32FC6B140000FFFF
(1785000236.528292) can0 05F8021C#32FC6B140000FFFF
(1785000236.537269) can0 09F80219#C3FC56140100FFFF
(1785000236.537936) can0 09F80119#B56B2618586C5BC1
(1785000236.538482) can0 05F8021C#32FC6B140000FFFF
(1785000236.548489) can0 05F8021C#32FC6B140000FFFF
(1785000236.554126) can0 18F01D21#B8811680FFFFFFFF
(1785000236.558589) can0 05F8021C#32FC6B140000FFFF
(1785000236.568723) can0 05F8021C#32FC6B140000FFFF
(1785000236.578854) can0 05F8021C#32FC6B140000FFFF
(1785000236.583472) can0 09F11219#C3FEFFFF7FFF7FFC
(1785000236.588958) can0 05F8021C#32FC6B140000FFFF
(1785000236.597278) can0 09F112F8#FFEA750000FF7FFD
(1785000236.599085) can0 05F8021C#32FC6B140000FFFF
(1785000236.606399) can0 18FF50E0#00008000800080BA
(1785000236.609167) can0 05F8021C#32FC6B140000FFFF
(1785000236.619329) can0 05F8021C#32FC6B140000FFFF
(1785000236.629460) can0 05F8021C#32FC6B140000FFFF
(1785000236.633553) can0 0DF11919#C3FE7FFE7FFE7FFF
(1785000236.637756) can0 09F80219#C4FC56140000FFFF
(1785000236.638435) can0 09F80119#B56B2618586C5BC1
(1785000236.639481) can0 05F8021C#32FC6B140000FFFF
(1785000236.649623) can0 05F8021C#32FC6B140000FFFF
(1785000236.652454) can0 18FF2D21#00C385C385000040
(1785000236.654435) can0 18F01D21#B8811680FFFFFFFF
(1785000236.659775) can0 05F8021C#32FC6B140000FFFF
(1785000236.669842) can0 05F8021C#32FC6B140000FFFF
(1785000236.679998) can0 05F8021C#32FC6B140000FFFF
(1785000236.683458) can0 09F11219#C4FEFFFF7FFF7FFC
(1785000236.690084) can0 05F8021C#32FC6B140000FFFF
(1785000236.700166) can0 05F8021C#32FC6B140000FFFF
(1785000236.707876) can0 18FF50E0#00008000800080BB
(1785000236.710256) can0 05F8021C#32FC6B140000FFFF
(1785000236.720098) can0 1DEFFFF8#800CE5986C070202
(1785000236.720634) can0 05F8021C#32FC6B140000FFFF
(1785000236.721191) can0 1DEFFFF8#81410089000000FF
(1785000236.722235) can0 1DEFFFF8#A00CE5986C070202
(1785000236.723235) can0 1DEFFFF8#A1430001000000FF
(1785000236.724096) can0 1DEFFFF8#C009E5986C070202
(1785000236.725257) can0 1DEFFFF8#C1280000FFFFFFFF
(1785000236.725877) can0 1DEFFFF8#E009E5986C070202
(1785000236.727282) can0 1DEFFFF8#E1340000FFFFFFFF
(1785000236.729945) can0 1DEFFFF8#0009E5986C070202
(1785000236.730489) can0 05F8021C#32FC6B140000FFFF
(1785000236.731127) can0 1DEFFFF8#011B00FFFFFFFFFF
(1785000236.732277) can0 1DEFFFF8#2009E5986C070202
(1785000236.733249) can0 1DEFFFF8#211D00FFFFFFFFFF
(1785000236.738694) can0 09F80219#C5FC56140200FFFF
(1785000236.739438) can0 09F80119#B56B2618586C5BC1
(1785000236.740578) can0 05F8021C#32FC6B140000FFFF
(1785000236.743277) can0 09F112F8#FFE7750000FF7FFD
(1785000236.750721) can0 05F8021C#32FC6B140000FFFF
(1785000236.754815) can0 18F01D21#B8811680FFFFFFFF
(1785000236.760898) can0 05F8021C#32FC6B140000FFFF
(1785000236.770950) can0 05F8021C#32FC6B140000FFFF
(1785000236.781082) can0 05F8021C#32FC6B140000FFFF
(1785000236.783469) can0 09F11219#C5FEFFFF7FFF7FFC
(1785000236.785094) can0 09F8011C#B66C2618086B5BC1
(1785000236.786136) can0 19FA031C#33D20F013001F500
(1785000236.787097) can0 0DF0101C#33F0B350C07E5525
(1785000236.788114) can0 18FEE81C#FA0E0000AC63597E
(1785000236.789215) can0 19FA041C#A06F33FF090A141E
(1785000236.790198) can0 19FA041C#A1F0B95C12FFFFFF
(1785000236.791165) can0 05F8021C#33FC6B140000FFFF
(1785000236.792233) can0 19FA041C#A2FFFF0F00000000
(1785000236.793223) can0 19FA041C#A30000FFFFFFFFFF
(1785000236.794272) can0 19FA041C#A4122B2FA041F811
(1785000236.795281) can0 19FA041C#A5FFFFFFFFFF17DA
(1785000236.796328) can0 19FA041C#A62F1EDC0410FFFF
(1785000236.797369) can0 19FA041C#A7FFFFFF1B3115D0
(1785000236.798368) can0 19FA041C#A8CFA00FFFFFFFFF
(1785000236.799258) can0 19FA041C#A9FF1D9209367448
(1785000236.800336) can0 19FA041C#AA0DFFFFFFFFFF20
(1785000236.801339) can0 05F8021C#33FC6B140000FFFF
(1785000236.802399) can0 19FA041C#AB000000000000FF
(1785000236.803383) can0 19FA041C#ACFFFFFFFF2CB61C
(1785000236.804368) can0 19FA041C#ADFC850410FFFFFF
(1785000236.805395) can0 19FA041C#AEFFFF30A91A308E
(1785000236.806394) can0 19FA041C#AFA00FFFFFFFFFFF
(1785000236.808878) can0 18FF50E0#00008000800080BC
(1785000236.811373) can0 05F8021C#33FC6B140000FFFF
(1785000236.821495) can0 05F8021C#33FC6B140000FFFF
(1785000236.831588) can0 05F8021C#33FC6B140000FFFF
(1785000236.837078) can0 09F80219#C6FC56140200FFFF
(1785000236.837716) can0 09F80119#B56B2618596C5BC1
(1785000236.841780) can0 05F8021C#33FC6B140000FFFF
(1785000236.851885) can0 05F8021C#33FC6B140000FFFF
(1785000236.854140) can0 18F01D21#B8811680FFFFFFFF
(1785000236.861990) can0 05F8021C#33FC6B140000FFFF
(1785000236.872072) can0 05F8021C#33FC6B140000FFFF
(1785000236.882198) can0 05F8021C#33FC6B140000FFFF
(1785000236.883431) can0 0DF11919#C6FE7FFE7FFE7FFF
(1785000236.884240) can0 09F11219#C6FEFFFF7FFF7FFC
(1785000236.891127) can0 09F112F8#FFE5750000FF7FFD
(1785000236.892244) can0 1DEFFFF8#400AE598EE040404
(1785000236.892817) can0 05F8021C#33FC6B140000FFFF
(1785000236.893386) can0 1DEFFFF8#4103000000FFFFFF
(1785000236.902400) can0 05F8021C#33FC6B140000FFFF
(1785000236.911732) can0 18FF50E0#00008000800080BD
(1785000236.912498) can0 05F8021C#33FC6B140000FFFF
(1785000236.922604) can0 05F8021C#33FC6B140000FFFF
(1785000236.932756) can0 05F8021C#33FC6B140000FFFF
(1785000236.939724) can0 09F80219#C7FC56140000FFFF
(1785000236.940463) can0 09F80119#B56B2618596C5BC1
(1785000236.942851) can0 05F8021C#33FC6B140000FFFF
(1785000236.952953) can0 05F8021C#33FC6B140000FFFF
(1785000236.954495) can0 18F01D21#B8811680FFFFFFFF
(1785000236.963114) can0 05F8021C#33FC6B140000FFFF
(1785000236.973144) can0 05F8021C#33FC6B140000FFFF
(1785000236.983278) can0 05F8021C#33FC6B140000FFFF
(1785000236.983821) can0 09F11219#C7FEFFFF7FFF7FFC
(1785000236.993405) can0 05F8021C#33FC6B140000FFFF
(1785000237.003538) can0 05F8021C#33FC6B140000FFFF
(1785000237.012366) can0 18FF50E0#00008000800080BE
(1785000237.013956) can0 05F8021C#33FC6B140000FFFF
(1785000237.023718) can0 05F8021C#33FC6B140000FFFF
(1785000237.033839) can0 05F8021C#33FC6B140000FFFF
(1785000237.037306) can0 19FA0419#807BC8FD0A0A0000
(1785000237.038028) can0 19FA0419#810000F00DFFFFFF
(1785000237.038705) can0 19FA0419#827FF10F501D7323
(1785000237.039516) can0 19FA0419#83EA0DFFFFFF7FF2
(1785000237.040102) can0 09F112F8#FFE2750000FF7FFD
(1785000237.040640) can0 19FA0419#84120A2F2142A610
(1785000237.041515) can0 19FA0419#85FFFFFF7FF514E8
(1785000237.042220) can0 19FA0419#860AA21C730DFFFF
(1785000237.042970) can0 19FA0419#87FF7FF217B92F36
(1785000237.043738) can0 19FA0419#88DCDE0FFFFFFF7F
(1785000237.044374) can0 05F8021C#33FC6B140000FFFF
(1785000237.044901) can0 19FA0419#89F5180000000060
(1785000237.045797) can0 19FA0419#8A09FFFFFF7FF11B
(1785000237.046522) can0 19FA0419#8B00000000290EFF
(1785000237.047291) can0 19FA0419#8CFFFF7FF11D8B09
(1785000237.048010) can0 19FA0419#8DE6731C0FFFFFFF
(1785000237.048745) can0 19FA0419#8E7FF5207F07718C
(1785000237.049495) can0 19FA0419#8F4810FFFFFF7FF2
(1785000237.050241) can0 19FA0419#9054C504B85C540C
(1785000237.051001) can0 19FA0419#91FFFFFF7FF1FFFF
(1785000237.051697) can0 0DF01019#C8F0B350D0A55525
(1785000237.052491) can0 09F80219#C8FC56140200FFFF
(1785000237.053197) can0 09F80119#B56B2618596C5BC1
(1785000237.053938) can0 0DF80519#802BC8B350D0A555
(1785000237.054527) can0 05F8021C#33FC6B140000FFFF
(1785000237.055086) can0 0DF80519#8125008F5182FD74
(1785000237.055629) can0 18F01D21#B8811680FFFFFFFF
(1785000237.056166) can0 0DF80519#829F05002990DE8A
(1785000237.056973) can0 0DF80519#83316AF100F65A5C
(1785000237.057742) can0 0DF80519#840000000024FC14
(1785000237.058481) can0 0DF80519#8565008B0006F9FF
(1785000237.059228) can0 0DF80519#86FF00FFFFFFFFFF
(1785000237.059951) can0 19FA0319#C8D365005F004700
(1785000237.060703) can0 19F11A19#C8F2B3507005FFFF
(1785000237.061470) can0 1DEFFF19#803EE59817000404
(1785000237.062195) can0 1DEFFF19#810A2C8A40D8E428
(1785000237.062976) can0 1DEFFF19#82403FEFA1403FEF
(1785000237.063723) can0 1DEFFF19#8321403FEF21400A
(1785000237.064348) can0 05F8021C#33FC6B140000FFFF
(1785000237.064842) can0 1DEFFF19#84D7A33CCDCCCC3D
(1785000237.065470) can0 1DEFFF19#850AD7A33CCDCCCC
(1785000237.066220) can0 1DEFFF19#863D27EF813FC23F
(1785000237.066986) can0 1DEFFF19#87733FD4F9B13FED
(1785000237.067749) can0 1DEFFF19#88DA373F00000000
(1785000237.074293) can0 05F8021C#33FC6B140000FFFF
(1785000237.083495) can0 09F11219#C8FEFFFF7FFF7FFC
(1785000237.084397) can0 05F8021C#33FC6B140000FFFF
(1785000237.094520) can0 05F8021C#33FC6B140000FFFF
(1785000237.104641) can0 05F8021C#33FC6B140000FFFF
(1785000237.112869) can0 18FF50E0#00008000800080BF
(1785000237.114708) can0 05F8021C#33FC6B140000FFFF
(1785000237.124881) can0 05F8021C#33FC6B140000FFFF
(1785000237.133584) can0 0DF11919#C8FE7FFE7FFE7FFF
(1785000237.134949) can0 05F8021C#33FC6B140000FFFF
(1785000237.138023) can0 09F80219#C9FC56140800FFFF
(1785000237.138793) can0 09F80119#B56B2618596C5BC1
(1785000237.145055) can0 05F8021C#33FC6B140000FFFF
(1785000237.154290) can0 18F01D21#B8811680FFFFFFFF
(1785000237.155134) can0 05F8021C#33FC6B140000FFFF
(1785000237.165334) can0 05F8021C#33FC6B140000FFFF
(1785000237.175394) can0 05F8021C#33FC6B140000FFFF
(1785000237.183462) can0 09F11219#C9FEFFFF7FFF7FFC
(1785000237.185512) can0 05F8021C#33FC6B140000FFFF
(1785000237.190944) can0 09F112F8#FFE0750000FF7FFD
(1785000237.195598) can0 05F8021C#33FC6B140000FFFF
(1785000237.205812) can0 05F8021C#33FC6B140000FFFF
(1785000237.213355) can0 18FF50E0#00008000800080C0
(1785000237.215823) can0 05F8021C#33FC6B140000FFFF
(1785000237.220107) can0 1DEFFFF8#600CE5986C070202
(1785000237.221032) can0 1DEFFFF8#61410089000000FF
(1785000237.222244) can0 1DEFFFF8#800CE5986C070202
(1785000237.223345) can0 1DEFFFF8#81430001000000FF
(1785000237.224140) can0 1DEFFFF8#A009E5986C070202
(1785000237.225304) can0 1DEFFFF8#A1280000FFFFFFFF
(1785000237.225939) can0 05F8021C#33FC6B140000FFFF
(1785000237.226504) can0 1DEFFFF8#C009E5986C070202
(1785000237.227295) can0 1DEFFFF8#C1340000FFFFFFFF
(1785000237.229953) can0 1DEFFFF8#E009E5986C070202
(1785000237.230678) can0 1DEFFFF8#E11B00FFFFFFFFFF
(1785000237.232525) can0 1DEFFFF8#0009E5986C070202
(1785000237.233271) can0 1DEFFFF8#011D00FFFFFFFFFF
(1785000237.236072) can0 05F8021C#33FC6B140000FFFF
(1785000237.238625) can0 09F80219#CAFC56140500FFFF
(1785000237.239260) can0 09F80119#B56B2618596C5BC1
(1785000237.246179) can0 05F8021C#33FC6B140000FFFF
(1785000237.254573) can0 18F01D21#B8811680FFFFFFFF
(1785000237.256292) can0 05F8021C#33FC6B140000FFFF
(1785000237.266410) can0 05F8021C#33FC6B140000FFFF
(1785000237.276537) can0 05F8021C#33FC6B140000FFFF
(1785000237.283403) can0 09F11219#CAFEFFFF7FFF7FFC
(1785000237.286621) can0 05F8021C#34FC6B140000FFFF
(1785000237.287644) can0 09F8011C#B46C2618066B5BC1
(1785000237.288650) can0 19FA031C#34D20F013001F500
(1785000237.289653) can0 0DF0101C#34F0B350D0A55525
(1785000237.290676) can0 18FEE81C#FA0E0000AF63587E
(1785000237.291702) can0 19FA041C#C06F34FF090A141E
(1785000237.292731) can0 19FA041C#C1F0B95C12FFFFFF
(1785000237.293752) can0 19FA041C#C2FFFF0F00000000
(1785000237.294775) can0 19FA041C#C30000FFFFFFFFFF
(1785000237.295808) can0 19FA041C#C4122B2FA041F811
(1785000237.296781) can0 05F8021C#34FC6B140000FFFF
(1785000237.297855) can0 19FA041C#C5FFFFFFFFFF17DA
(1785000237.298832) can0 19FA041C#C62F1EDC0410FFFF
(1785000237.299776) can0 19FA041C#C7FFFFFF1B3115D0
(1785000237.300801) can0 19FA041C#C8CF0410FFFFFFFF
(1785000237.301799) can0 19FA041C#C9FF1D9209367448
(1785000237.302820) can0 19FA041C#CA0DFFFFFFFFFF20
(1785000237.303837) can0 19FA041C#CB000000000000FF
(1785000237.304845) can0 19FA041C#CCFFFFFFFF2CB61C
(1785000237.305863) can0 19FA041C#CDFC850410FFFFFF
(1785000237.306836) can0 05F8021C#34FC6B140000FFFF
(1785000237.307879) can0 19FA041C#CEFFFF30A91A308E
(1785000237.308930) can0 19FA041C#CF0410FFFFFFFFFF
(1785000237.314778) can0 18FF50E0#00008000800080C1
(1785000237.316957) can0 05F8021C#34FC6B140000FFFF
(1785000237.327138) can0 05F8021C#34FC6B140000FFFF
(1785000237.336274) can0 09F112F8#FFE0750000FF7FFD
(1785000237.337161) can0 05F8021C#34FC6B140000FFFF
(1785000237.338462) can0 09F80219#CBFC56140200FFFF
(1785000237.339336) can0 09F80119#B56B2618596C5BC1
(1785000237.347307) can0 05F8021C#34FC6B140000FFFF
(1785000237.354972) can0 18F01D21#B8811680FFFFFFFF
(1785000237.357393) can0 05F8021C#34FC6B140000FFFF
(1785000237.367608) can0 05F8021C#34FC6B140000FFFF
(1785000237.377621) can0 05F8021C#34FC6B140000FFFF
(1785000237.383415) can0 0DF11919#CBFE7FFE7FFE7FFF
(1785000237.384076) can0 09F11219#CBFEFFFF7FFF7FFC
(1785000237.387719) can0 05F8021C#34FC6B140000FFFF
(1785000237.397840) can0 05F8021C#34FC6B140000FFFF
(1785000237.407939) can0 05F8021C#34FC6B140000FFFF
(1785000237.415696) can0 18FF50E0#00008000800080C2
(1785000237.418084) can0 05F8021C#34FC6B140000FFFF
(1785000237.428208) can0 05F8021C#34FC6B140000FFFF
(1785000237.438307) can0 05F8021C#34FC6B140000FFFF
(1785000237.439143) can0 09F80219#CCFC56140100FFFF
(1785000237.439805) can0 09F80119#B56B2618596C5BC1
(1785000237.448416) can0 05F8021C#34FC6B140000FFFF
(1785000237.454436) can0 18F01D21#B8811680FFFFFFFF
(1785000237.458516) can0 05F8021C#34FC6B140000FFFF
(1785000237.468613) can0 05F8021C#34FC6B140000FFFF
(1785000237.478740) can0 05F8021C#34FC6B140000FFFF
(1785000237.483492) can0 09F11219#CCFEFFFF7FFF7FFC
(1785000237.484264) can0 09F112F8#FFDD750000FF7FFD
(1785000237.488873) can0 05F8021C#34FC6B140000FFFF
(1785000237.498965) can0 05F8021C#34FC6B140000FFFF
(1785000237.509067) can0 05F8021C#34FC6B140000FFFF
(1785000237.516576) can0 18FF50E0#00008000800080C3
(1785000237.519166) can0 05F8021C#34FC6B140000FFFF
(1785000237.529266) can0 05F8021C#34FC6B140000FFFF
(1785000237.538142) can0 09F80219#CDFC56140000FFFF
(1785000237.538836) can0 09F80119#B56B2618596C5BC1
(1785000237.539401) can0 05F8021C#34FC6B140000FFFF
(1785000237.549505) can0 05F8021C#34FC6B140000FFFF
(1785000237.554701) can0 18F01D21#B8811680FFFFFFFF
(1785000237.559625) can0 05F8021C#34FC6B140000FFFF
(1785000237.569722) can0 05F8021C#34FC6B140000FFFF
(1785000237.579848) can0 05F8021C#34FC6B140000FFFF
(1785000237.583495) can0 09F11219#CDFEFFFF7FFF7FFC
(1785000237.589951) can0 05F8021C#34FC6B140000FFFF
(1785000237.600071) can0 05F8021C#34FC6B140000FFFF
(1785000237.610171) can0 05F8021C#34FC6B140000FFFF
(1785000237.617979) can0 18FF50E0#00008000800080C4
(1785000237.620267) can0 05F8021C#34FC6B140000FFFF
(1785000237.630401) can0 05F8021C#34FC6B140000FFFF
(1785000237.630956) can0 09F112F8#FFDD750000FF7FFD
(1785000237.633595) can0 0DF11919#CDFE7FFE7FFE7FFF
(1785000237.638191) can0 09F80219#CEFC56140100FFFF
(1785000237.638844) can0 09F80119#B56B2618596C5BC1
(1785000237.640504) can0 05F8021C#34FC6B140000FFFF
(1785000237.650617) can0 05F8021C#34FC6B140000FFFF
(1785000237.652965) can0 18FF2D21#00C385C385000040
(1785000237.654006) can0 18F01D21#B8811680FFFFFFFF
(1785000237.660792) can0 05F8021C#34FC6B140000FFFF
(1785000237.670847) can0 05F8021C#34FC6B140000FFFF
(1785000237.680962) can0 05F8021C#34FC6B140000FFFF
(1785000237.683496) can0 09F11219#CEFEFFFF7FFF7FFC
(1785000237.691072) can0 05F8021C#34FC6B140000FFFF
(1785000237.701177) can0 05F8021C#34FC6B140000FFFF
(1785000237.711259) can0 05F8021C#34FC6B140000FFFF
(1785000237.720112) can0 1DEFFFF8#200CE5986C070202
(1785000237.720784) can0 1DEFFFF8#21410089000000FF
(1785000237.721376) can0 05F8021C#34FC6B140000FFFF
(1785000237.721658) can0 18FF50E0#00008000800080C5
(1785000237.722260) can0 1DEFFFF8#400CE5986C070202
(1785000237.723421) can0 1DEFFFF8#41430001000000FF
(1785000237.724128) can0 1DEFFFF8#6009E5986C070202
(1785000237.725333) can0 1DEFFFF8#61280000FFFFFFFF
(1785000237.726156) can0 1DEFFFF8#8009E5986C070202
(1785000237.727591) can0 1DEFFFF8#81340000FFFFFFFF
(1785000237.729960) can0 1DEFFFF8#A009E5986C070202
(1785000237.730647) can0 1DEFFFF8#A11B00FFFFFFFFFF
(1785000237.731473) can0 05F8021C#34FC6B140000FFFF
(1785000237.732233) can0 1DEFFFF8#C009E5986C070202
(1785000237.733260) can0 1DEFFFF8#C11D00FFFFFFFFFF
(1785000237.739788) can0 09F80219#CFFC57140100FFFF
(1785000237.740594) can0 09F80119#B56B2618596C5BC1
(1785000237.741597) can0 05F8021C#34FC6B140000FFFF
(1785000237.751745) can0 05F8021C#34FC6B140000FFFF
(1785000237.754372) can0 18F01D21#B8811680FFFFFFFF
(1785000237.761896) can0 05F8021C#34FC6B140000FFFF
(1785000237.771961) can0 05F8021C#34FC6B140000FFFF
(1785000237.777182) can0 09F112F8#FFDC750000FF7FFD
(1785000237.782061) can0 05F8021C#34FC6B140000FFFF
(1785000237.783468) can0 09F11219#CFFEFFFF7FFF7FFC
(1785000237.789102) can0 09F8011C#B46C2618066B5BC1
(1785000237.790165) can0 19FA031C#35D20F013001F500
(1785000237.791141) can0 0DF0101C#35F0B350D0A55525
(1785000237.792163) can0 05F8021C#35FC6B140000FFFF
(1785000237.793163) can0 18FEE81C#FA0E0000B163577E
(1785000237.794235) can0 19FA041C#E06F35FF090A141E
(1785000237.795277) can0 19FA041C#E1F0B95C12FFFFFF
(1785000237.796279) can0 19FA041C#E2FFFF0F00000000
(1785000237.797273) can0 19FA041C#E30000FFFFFFFFFF
(1785000237.798289) can0 19FA041C#E4122B2FA041F811
(1785000237.799262) can0 19FA041C#E5FFFFFFFFFF17DA
(1785000237.800257) can0 19FA041C#E62F1EDCA00FFFFF
(1785000237.801432) can0 19FA041C#E7FFFFFF1B3115D0
(1785000237.802328) can0 05F8021C#35FC6B140000FFFF
(1785000237.803394) can0 19FA041C#E8CF0410FFFFFFFF
(1785000237.804390) can0 19FA041C#E9FF1D92093674E4
(1785000237.805411) can0 19FA041C#EA0CFFFFFFFFFF20
(1785000237.806385) can0 19FA041C#EB000000000000FF
(1785000237.807364) can0 19FA041C#ECFFFFFFFF2CB61C
(1785000237.808389) can0 19FA041C#EDFC850410FFFFFF
(1785000237.809385) can0 19FA041C#EEFFFF30A91A308E
(1785000237.810440) can0 19FA041C#EF0410FFFFFFFFFF
(1785000237.812402) can0 05F8021C#35FC6B140000FFFF
(1785000237.822532) can0 05F8021C#35FC6B140000FFFF
(1785000237.823608) can0 18FF50E0#00008000800080C6
(1785000237.832635) can0 05F8021C#35FC6B140000FFFF
(1785000237.837636) can0 09F80219#D0FC57140100FFFF
(1785000237.838355) can0 09F80119#B56B2618596C5BC1
(1785000237.842765) can0 05F8021C#35FC6B140000FFFF
(1785000237.852847) can0 05F8021C#35FC6B140000FFFF
(1785000237.854780) can0 18F01D21#B8811680FFFFFFFF
(1785000237.862960) can0 05F8021C#35FC6B140000FFFF
(1785000237.873096) can0 05F8021C#35FC6B140000FFFF
(1785000237.883165) can0 05F8021C#35FC6B140000FFFF
(1785000237.883731) can0 0DF11919#D0FE7FFE7FFE7FFF
(1785000237.884422) can0 09F11219#D0FEFFFF7FFF7FFC
(1785000237.893319) can0 05F8021C#35FC6B140000FFFF
(1785000237.903427) can0 05F8021C#35FC6B140000FFFF
(1785000237.913508) can0 05F8021C#35FC6B140000FFFF
(1785000237.923677) can0 05F8021C#35FC6B140000FFFF
(1785000237.925122) can0 18FF50E0#00008000800080C7
(1785000237.926637) can0 09F112F8#FFD5750000FF7FFD
(1785000237.933736) can0 05F8021C#35FC6B140000FFFF
(1785000237.938785) can0 09F80219#D1FC57140100FFFF
(1785000237.939623) can0 09F80119#B56B2618596C5BC1
(1785000237.943867) can0 05F8021C#35FC6B140000FFFF
(1785000237.953963) can0 05F8021C#35FC6B140000FFFF
(1785000237.954486) can0 18F01D21#B8811680FFFFFFFF
(1785000237.964059) can0 05F8021C#35FC6B140000FFFF
(1785000237.974154) can0 05F8021C#35FC6B140000FFFF
(1785000237.974793) can0 1DEFFF19#A00CE5986C070202
(1785000237.975397) can0 1DEFFF19#A1410089000000FF
(1785000237.976127) can0 1DEFFF19#C00CE5986C070202
(1785000237.976871) can0 1DEFFF19#C1430001000000FF
(1785000237.978181) can0 1DEFFF19#E009E5986C070202
(1785000237.978871) can0 1DEFFF19#E11B0001FFFFFFFF
(1785000237.979609) can0 1DEFFF19#0009E5986C070202
(1785000237.980370) can0 1DEFFF19#011D0000FFFFFFFF
(1785000237.983488) can0 09F11219#D1FEFFFF7FFF7FFC
(1785000237.984257) can0 05F8021C#35FC6B140000FFFF
(1785000237.994370) can0 05F8021C#35FC6B140000FFFF
(1785000238.004500) can0 05F8021C#35FC6B140000FFFF
(1785000238.014622) can0 05F8021C#35FC6B140000FFFF
(1785000238.024721) can0 05F8021C#35FC6B140000FFFF
(1785000238.025796) can0 18FF50E0#00008000800080C8
(1785000238.034829) can0 05F8021C#35FC6B140000FFFF
(1785000238.038713) can0 19FA0419#A087D2FD0B0A0000
(1785000238.039439) can0 19FA0419#A10000220DFFFFFF
(1785000238.040155) can0 19FA0419#A27FF10F501D7323
(1785000238.040916) can0 19FA0419#A3FD0DFFFFFF7FF2
(1785000238.041658) can0 19FA0419#A4120A2F2142CC10
(1785000238.042446) can0 19FA0419#A5FFFFFF7FF514E8
(1785000238.043154) can0 19FA0419#A60AA21C930DFFFF
(1785000238.043863) can0 19FA0419#A7FF7FF217B92F36
(1785000238.044664) can0 19FA0419#A8DC6211FFFFFF7F
(1785000238.045206) can0 05F8021C#35FC6B140000FFFF
(1785000238.045793) can0 19FA0419#A9F51B0000000016
(1785000238.046691) can0 19FA0419#AA0EFFFFFF7FF11D
(1785000238.047414) can0 19FA0419#AB8B09E6730A0FFF
(1785000238.048183) can0 19FA0419#ACFFFF7FF5207F07
(1785000238.048899) can0 19FA0419#AD718C480DFFFFFF
(1785000238.049644) can0 19FA0419#AE7FF254C504B85C
(1785000238.050379) can0 19FA0419#AF6D0CFFFFFF7FF1
(1785000238.051128) can0 19FA0419#B05700000000670C
(1785000238.051926) can0 19FA0419#B1FFFFFF7FF11800
(1785000238.052663) can0 19FA0419#B20000004009FFFF
(1785000238.053413) can0 19FA0419#B3FF7FF1FFFFFFFF
(1785000238.054110) can0 0DF01019#D2F0B350E0CC5525
(1785000238.054691) can0 18F01D21#B8811680FFFFFFFF
(1785000238.055232) can0 05F8021C#35FC6B140000FFFF
(1785000238.055795) can0 09F80219#D2FC57140400FFFF
(1785000238.056647) can0 09F80119#B56B2618596C5BC1
(1785000238.057390) can0 0DF80519#A02BD2B350E0CC55
(1785000238.058127) can0 0DF80519#A12540DB4288FD74
(1785000238.058866) can0 0DF80519#A29F05008C64E78A
(1785000238.059623) can0 0DF80519#A3316AF180E75A5C
(1785000238.060396) can0 0DF80519#A40000000024FC14
(1785000238.061141) can0 0DF80519#A565008B0006F9FF
(1785000238.061892) can0 0DF80519#A6FF00FFFFFFFFFF
(1785000238.062617) can0 19FA0319#D2D365005F004700
(1785000238.063391) can0 19F11A19#D2F2B3507005FFFF
(1785000238.064133) can0 1DEFFF19#203EE59817000404
(1785000238.064890) can0 1DEFFF19#21F39F8940C04C28
(1785000238.065454) can0 05F8021C#35FC6B140000FFFF
(1785000238.066014) can0 1DEFFF19#22400E50A1400E50
(1785000238.066667) can0 1DEFFF19#2321400E5021400A
(1785000238.067366) can0 1DEFFF19#24D7A33CCDCCCC3D
(1785000238.068108) can0 1DEFFF19#250AD7A33CCDCCCC
(1785000238.068895) can0 1DEFFF19#263DF0EF813F303D
(1785000238.069614) can0 1DEFFF19#27733F86F9B13F71
(1785000238.070394) can0 1DEFFF19#28D8373F00000000
(1785000238.075318) can0 05F8021C#35FC6B140000FFFF
(1785000238.076280) can0 09F112F8#FFCB750000FF7FFD
(1785000238.083544) can0 09F11219#D2FEFFFF7FFF7FFC
(1785000238.085403) can0 05F8021C#35FC6B140000FFFF
(1785000238.095560) can0 05F8021C#35FC6B140000FFFF
(1785000238.105629) can0 05F8021C#35FC6B140000FFFF
(1785000238.115717) can0 05F8021C#35FC6B140000FFFF
(1785000238.125884) can0 05F8021C#35FC6B140000FFFF
(1785000238.128199) can0 18FF50E0#00008000800080C9
(1785000238.133698) can0 0DF11919#D2FE7FFE7FFE7FFF
(1785000238.135952) can0 05F8021C#35FC6B140000FFFF
(1785000238.138074) can0 09F80219#D3FC57140400FFFF
(1785000238.138915) can0 09F80119#B56B2618596C5BC1
(1785000238.146093) can0 05F8021C#35FC6B140000FFFF
(1785000238.154858) can0 18F01D21#B8811680FFFFFFFF
(1785000238.156161) can0 05F8021C#35FC6B140000FFFF
(1785000238.166297) can0 05F8021C#35FC6B140000FFFF
(1785000238.176372) can0 05F8021C#35FC6B140000FFFF
(1785000238.183780) can0 09F11219#D3FEFFFF7FFF7FFC
(1785000238.186491) can0 05F8021C#35FC6B140000FFFF
(1785000238.196658) can0 05F8021C#35FC6B140000FFFF
(1785000238.206726) can0 05F8021C#35FC6B140000FFFF
(1785000238.216860) can0 05F8021C#35FC6B140000FFFF
(1785000238.220122) can0 09F112F8#FFC5750000FF7FFD
(1785000238.221093) can0 1DEFFFF8#E00CE5986C070202
(1785000238.222322) can0 1DEFFFF8#E1410089000000FF
(1785000238.223398) can0 1DEFFFF8#000CE5986C070202
(1785000238.224402) can0 1DEFFFF8#01430001000000FF
(1785000238.225176) can0 1DEFFFF8#2009E5986C070202
(1785000238.226326) can0 1DEFFFF8#21280000FFFFFFFF
(1785000238.226965) can0 05F8021C#35FC6B140000FFFF
(1785000238.227515) can0 1DEFFFF8#4009E5986C070202
(1785000238.229744) can0 18FF50E0#00008000800080CA
(1785000238.229994) can0 1DEFFFF8#41340000FFFFFFFF
(1785000238.230671) can0 1DEFFFF8#6009E5986C070202
(1785000238.232634) can0 1DEFFFF8#611B00FFFFFFFFFF
(1785000238.233261) can0 1DEFFFF8#8009E5986C070202
(1785000238.234391) can0 1DEFFFF8#811D00FFFFFFFFFF
(1785000238.237092) can0 05F8021C#35FC6B140000FFFF
(1785000238.240738) can0 09F80219#D4FC57140300FFFF
(1785000238.241425) can0 09F80119#B56B2618596C5BC1
(1785000238.247174) can0 05F8021C#35FC6B140000FFFF
(1785000238.254192) can0 18F01D21#B8811680FFFFFFFF
(1785000238.257270) can0 05F8021C#35FC6B140000FFFF
(1785000238.267434) can0 05F8021C#35FC6B140000FFFF
(1785000238.277532) can0 05F8021C#35FC6B140000FFFF
(1785000238.283588) can0 09F11219#D4FEFFFF7FFF7FFC
(1785000238.287689) can0 05F8021C#35FC6B140000FFFF
(1785000238.290664) can0 09F8011C#B46C2618066B5BC1
(1785000238.291689) can0 19FA031C#36D20F013001F500
(1785000238.292685) can0 0DF0101C#36F0B350E0CC5525
(1785000238.293701) can0 18FEE81C#FA0E0000B363567E
(1785000238.294752) can0 19FA041C#006F36FF090A141E
(1785000238.295778) can0 19FA041C#01F0B95C12FFFFFF
(1785000238.296801) can0 19FA041C#02FFFF0F00000000
(1785000238.297750) can0 05F8021C#36FC6B140000FFFF
(1785000238.298823) can0 19FA041C#030000FFFFFFFFFF
(1785000238.299824) can0 19FA041C#04122B2FA041F811
(1785000238.300813) can0 19FA041C#05FFFFFFFFFF17DA
(1785000238.301806) can0 19FA041C#062F1EDCA00FFFFF
(1785000238.302824) can0 19FA041C#07FFFFFF1B3115D0
(1785000238.303871) can0 19FA041C#08CF0410FFFFFFFF
(1785000238.304852) can0 19FA041C#09FF1D92093674E4
(1785000238.305877) can0 19FA041C#0A0CFFFFFFFFFF20
(1785000238.306911) can0 19FA041C#0B000000000000FF
(1785000238.307825) can0 05F8021C#36FC6B140000FFFF
(1785000238.308895) can0 19FA041C#0CFFFFFFFF2CB61C
(1785000238.309885) can0 19FA041C#0DFC850410FFFFFF
(1785000238.310897) can0 19FA041C#0EFFFF30A91A308E
(1785000238.311942) can0 19FA041C#0F0410FFFFFFFFFF
(1785000238.317967) can0 05F8021C#36FC6B140000FFFF
(1785000238.328076) can0 05F8021C#36FC6B140000FFFF
(1785000238.330448) can0 18FF50E0#00008000800080CB
(1785000238.338116) can0 09F80219#D5FC57140100FFFF
(1785000238.338623) can0 05F8021C#36FC6B140000FFFF
(1785000238.339174) can0 09F80119#B56B2618596C5BC1
(1785000238.348312) can0 05F8021C#36FC6B140000FFFF
(1785000238.354587) can0 18F01D21#B8811680FFFFFFFF
(1785000238.358411) can0 05F8021C#36FC6B140000FFFF
(1785000238.368557) can0 05F8021C#36FC6B140000FFFF
(1785000238.370018) can0 09F112F8#FFC2750000FF7FFD
(1785000238.370656) can0 1DEFFFF8#A00AE598EE040404
(1785000238.372617) can0 1DEFFFF8#A103000000FFFFFF
(1785000238.378618) can0 05F8021C#36FC6B140000FFFF
(1785000238.383463) can0 0DF11919#D5FE7FFE7FFE7FFF
(1785000238.384206) can0 09F11219#D5FEFFFF7FFF7FFC
(1785000238.388814) can0 05F8021C#36FC6B140000FFFF
(1785000238.398828) can0 05F8021C#36FC6B140000FFFF
(1785000238.408960) can0 05F8021C#36FC6B140000FFFF
(1785000238.419108) can0 05F8021C#36FC6B140000FFFF
(1785000238.429186) can0 05F8021C#36FC6B140000FFFF
(1785000238.431815) can0 18FF50E0#00008000800080CC
(1785000238.438388) can0 09F80219#D6FC57140100FFFF
(1785000238.439225) can0 09F80119#D36B2618796C5BC1
(1785000238.439807) can0 05F8021C#36FC6B140000FFFF
(1785000238.449426) can0 05F8021C#36FC6B140000FFFF
(1785000238.454920) can0 18F01D21#B8811680FFFFFFFF
(1785000238.459516) can0 05F8021C#36FC6B140000FFFF
(1785000238.469652) can0 05F8021C#36FC6B140000FFFF
(1785000238.479739) can0 05F8021C#36FC6B140000FFFF
(1785000238.483505) can0 09F11219#D6FEFFFF7FFF7FFC
(1785000238.489861) can0 05F8021C#36FC6B140000FFFF
(1785000238.499981) can0 05F8021C#36FC6B140000FFFF
(1785000238.510081) can0 05F8021C#36FC6B140000FFFF
(1785000238.513321) can0 09F112F8#FFBF750000FF7FFD
(1785000238.520167) can0 05F8021C#36FC6B140000FFFF
(1785000238.530292) can0 05F8021C#36FC6B140000FFFF
(1785000238.533101) can0 18FF50E0#00008000800080CD
(1785000238.538691) can0 09F80219#D7FC57140200FFFF
(1785000238.539479) can0 09F80119#D36B2618796C5BC1
(1785000238.540419) can0 05F8021C#36FC6B140000FFFF
(1785000238.550513) can0 05F8021C#36FC6B140000FFFF
(1785000238.554243) can0 18F01D21#B8811680FFFFFFFF
(1785000238.560615) can0 05F8021C#36FC6B140000FFFF
(1785000238.570738) can0 05F8021C#36FC6B140000FFFF
(1785000238.580845) can0 05F8021C#36FC6B140000FFFF
(1785000238.583512) can0 09F11219#D7FEFFFF7FFF7FFC
(1785000238.590963) can0 05F8021C#36FC6B140000FFFF
(1785000238.601084) can0 05F8021C#36FC6B140000FFFF
(1785000238.611195) can0 05F8021C#36FC6B140000FFFF
(1785000238.621279) can0 05F8021C#36FC6B140000FFFF
(1785000238.631388) can0 05F8021C#36FC6B140000FFFF
(1785000238.633724) can0 0DF11919#D7FE7FFE7FFE7FFF
(1785000238.634985) can0 18FF50E0#00008000800080CE
(1785000238.640121) can0 09F80219#D8FC57140200FFFF
(1785000238.640723) can0 09F80119#D36B2618796C5BC1
(1785000238.641502) can0 05F8021C#36FC6B140000FFFF
(1785000238.651647) can0 05F8021C#36FC6B140000FFFF
(1785000238.652554) can0 18FF2D21#00C385C385000040
(1785000238.654639) can0 18F01D21#B8811680FFFFFFFF
(1785000238.661742) can0 05F8021C#36FC6B140000FFFF
(1785000238.665393) can0 09F112F8#FFC1750000FF7FFD
(1785000238.671835) can0 05F8021C#36FC6B140000FFFF
(1785000238.681962) can0 05F8021C#36FC6B140000FFFF
(1785000238.683514) can0 09F11219#D8FEFFFF7FFF7FFC
(1785000238.692082) can0 05F8021C#36FC6B140000FFFF
(1785000238.702162) can0 05F8021C#36FC6B140000FFFF
(1785000238.712278) can0 05F8021C#36FC6B140000FFFF
(1785000238.720130) can0 1DEFFFF8#C00CE5986C070202
(1785000238.720814) can0 1DEFFFF8#C1410089000000FF
(1785000238.722276) can0 1DEFFFF8#E00CE5986C070202
(1785000238.722861) can0 05F8021C#36FC6B140000FFFF
(1785000238.723423) can0 1DEFFFF8#E1430001000000FF
(1785000238.724292) can0 1DEFFFF8#0009E5986C070202
(1785000238.725160) can0 1DEFFFF8#01280000FFFFFFFF
(1785000238.726577) can0 1DEFFFF8#2009E5986C070202
(1785000238.727160) can0 1DEFFFF8#21340000FFFFFFFF
(1785000238.729992) can0 1DEFFFF8#4009E5986C070202
(1785000238.730692) can0 1DEFFFF8#411B00FFFFFFFFFF
(1785000238.732337) can0 1DEFFFF8#6009E5986C070202
(1785000238.732869) can0 05F8021C#36FC6B140000FFFF
(1785000238.733453) can0 1DEFFFF8#611D00FFFFFFFFFF
(1785000238.737204) can0 18FF50E0#00008000800080CF
(1785000238.740392) can0 09F80219#D9FC57140200FFFF
(1785000238.740999) can0 09F80119#D36B2618796C5BC1
(1785000238.742610) can0 05F8021C#36FC6B140000FFFF
(1785000238.752743) can0 05F8021C#36FC6B140000FFFF
(1785000238.754946) can0 18F01D21#B8811680FFFFFFFF
(1785000238.762827) can0 05F8021C#36FC6B140000FFFF
(1785000238.772959) can0 05F8021C#36FC6B140000FFFF
(1785000238.783063) can0 05F8021C#36FC6B140000FFFF
(1785000238.783631) can0 09F11219#D9FEFFFF7FFF7FFC
(1785000238.792144) can0 09F8011C#B46C2618046B5BC1
(1785000238.793201) can0 05F8021C#37FC6B140000FFFF
(1785000238.794182) can0 19FA031C#37D20F013001F500
(1785000238.795157) can0 0DF0101C#37F0B350E0CC5525
(1785000238.796232) can0 18FEE81C#FA0E0000B763567E
(1785000238.797239) can0 19FA041C#206F37FF090A141E
(1785000238.798262) can0 19FA041C#21F0B95C12FFFFFF
(1785000238.799292) can0 19FA041C#22FFFF0F00000000
(1785000238.800290) can0 19FA041C#230000FFFFFFFFFF
(1785000238.801287) can0 19FA041C#24122B2FA041F811
(1785000238.802385) can0 19FA041C#25FFFFFFFFFF17DA
(1785000238.803285) can0 05F8021C#37FC6B140000FFFF
(1785000238.804396) can0 19FA041C#262F1EDCA00FFFFF
(1785000238.805402) can0 19FA041C#27FFFFFF1B3115D0
(1785000238.806402) can0 19FA041C#28CF0410FFFFFFFF
(1785000238.807381) can0 19FA041C#29FF1D92093674E4
(1785000238.808385) can0 19FA041C#2A0CFFFFFFFFFF20
(1785000238.809408) can0 19FA041C#2B000000000000FF
(1785000238.810409) can0 19FA041C#2CFFFFFFFF2CB61C
(1785000238.811415) can0 19FA041C#2DFC850410FFFFFF
(1785000238.812415) can0 19FA041C#2EFFFF30A91A308E
(1785000238.813389) can0 05F8021C#37FC6B140000FFFF
(1785000238.814466) can0 19FA041C#2F0410FFFFFFFFFF
(1785000238.816479) can0 09F112F8#FFC2750000FF7FFD
(1785000238.823531) can0 05F8021C#37FC6B140000FFFF
(1785000238.833631) can0 05F8021C#37FC6B140000FFFF
(1785000238.838025) can0 18FF50E0#00008000800080D0
(1785000238.840122) can0 09F80219#DAFC56140100FFFF
(1785000238.840779) can0 09F80119#D36B2618796C5BC1
(1785000238.843715) can0 05F8021C#37FC6B140000FFFF
(1785000238.853864) can0 05F8021C#37FC6B140000FFFF
(1785000238.854414) can0 18F01D21#B8811680FFFFFFFF
(1785000238.863980) can0 05F8021C#37FC6B140000FFFF
(1785000238.874113) can0 05F8021C#37FC6B140000FFFF
(1785000238.883553) can0 0DF11919#DAFE7FFE7FFE7FFF
(1785000238.884183) can0 05F8021C#37FC6B140000FFFF
(1785000238.884722) can0 09F11219#DAFEFFFF7FFF7FFC
(1785000238.894296) can0 05F8021C#37FC6B140000FFFF
(1785000238.904426) can0 05F8021C#37FC6B140000FFFF
(1785000238.914488) can0 05F8021C#37FC6B140000FFFF
(1785000238.924625) can0 05F8021C#37FC6B140000FFFF
(1785000238.934733) can0 05F8021C#37FC6B140000FFFF
(1785000238.937818) can0 09F80219#DBFC56140200FFFF
(1785000238.938567) can0 09F80119#D36B2618796C5BC1
(1785000238.939201) can0 18FF50E0#00008000800080D1
(1785000238.944841) can0 05F8021C#37FC6B140000FFFF
(1785000238.954646) can0 18F01D21#B8811680FFFFFFFF
(1785000238.955222) can0 05F8021C#37FC6B140000FFFF
(1785000238.960059) can0 09F112F8#FFBF750000FF7FFD
(1785000238.965060) can0 05F8021C#37FC6B140000FFFF
(1785000238.975181) can0 05F8021C#37FC6B140000FFFF
(1785000238.983556) can0 09F11219#DBFEFFFF7FFF7FFC
(1785000238.985288) can0 05F8021C#37FC6B140000FFFF
(1785000238.995405) can0 05F8021C#37FC6B140000FFFF
(1785000239.005559) can0 05F8021C#37FC6B140000FFFF
(1785000239.015625) can0 05F8021C#37FC6B140000FFFF
(1785000239.025725) can0 05F8021C#37FC6B140000FFFF
(1785000239.035852) can0 05F8021C#37FC6B140000FFFF
(1785000239.039244) can0 19FA0419#C087DCFD0B0A501D
(1785000239.040103) can0 19FA0419#C11FBA160DFFFFFF
(1785000239.040834) can0 19FA0419#C27FF50F501D7323
(1785000239.041386) can0 18FF50E0#00008000800080D2
(1785000239.041436) can0 05F8021C#37FC6B140000FFFF
(1785000239.041956) can0 19FA0419#C3030EFFFFFF7FF2
(1785000239.043102) can0 05F8021C#37FC6B140000FFFF
(1785000239.043658) can0 19FA0419#C4120A2F2142C510
(1785000239.044216) can0 05F8021C#37FC6B140000FFFF
(1785000239.044761) can0 19FA0419#C5FFFFFF7FF514E8
(1785000239.045615) can0 19FA0419#C60AA21C9F0DFFFF
(1785000239.046119) can0 09F8011C#B46C2618046B5BC1
(1785000239.046637) can0 19FA0419#C7FF7FF217B92F36
(1785000239.047234) can0 19FA031C#38D20F013001F500
(1785000239.047789) can0 19FA0419#C8DC6211FFFFFF7F
(1785000239.048385) can0 0DF0101C#38F0B350E0CC5525
(1785000239.048874) can0 19FA0419#C9F51B221542CF09
(1785000239.049460) can0 18FEE81C#FA0E0000B763557E
(1785000239.050001) can0 19FA0419#CA0EFFFFFF7FF21D
(1785000239.050812) can0 19FA0419#CB8B09E673FD0EFF
(1785000239.051392) can0 05F8021C#38FC6B140000FFFF
(1785000239.051951) can0 19FA0419#CCFFFF7FF5207F07
(1785000239.052535) can0 18FEE81C#FA0E0000B763557E
(1785000239.053100) can0 19FA0419#CD718C4E0DFFFFFF
(1785000239.053787) can0 19FA0419#CE7FF254C504B85C
(1785000239.054536) can0 19FA0419#CF730CFFFFFF7FF1
(1785000239.055103) can0 18F01D21#B8811680FFFFFFFF
(1785000239.055660) can0 19FA0419#D05700000000540C
(1785000239.056639) can0 19FA0419#D1FFFFFF7FF118AE
(1785000239.057298) can0 19FA0419#D20FA1490E09FFFF
(1785000239.058112) can0 19FA0419#D3FF7FF2FFFFFFFF
(1785000239.058762) can0 0DF01019#DCF0B350F0F35525
(1785000239.059542) can0 09F80219#DCFC56140300FFFF
(1785000239.060097) can0 05F8021C#38FC6B140000FFFF
(1785000239.060631) can0 09F80119#D36B2618796C5BC1
(1785000239.061275) can0 0DF80519#C02BDCB350F0F355
(1785000239.062008) can0 0DF80519#C12540D463730475
(1785000239.062744) can0 0DF80519#C29F0580715A8392
(1785000239.063540) can0 0DF80519#C3316AF100FA505C
(1785000239.064295) can0 0DF80519#C40000000024FC19
(1785000239.065062) can0 0DF80519#C540006F0006F9FF
(1785000239.065806) can0 0DF80519#C6FF00FFFFFFFFFF
(1785000239.066557) can0 19FA0319#DCD340005A003C00
(1785000239.067273) can0 19F11A19#DCF2B3507005FFFF
(1785000239.068081) can0 1DEFFF19#403EE59817000404
(1785000239.068759) can0 1DEFFF19#41E7D88340AE2127
(1785000239.069531) can0 1DEFFF19#424062199C406219
(1785000239.070228) can0 05F8021C#38FC6B140000FFFF
(1785000239.070757) can0 1DEFFF19#431C4062191C400A
(1785000239.071500) can0 1DEFFF19#44D7A33CCDCCCC3D
(1785000239.072294) can0 1DEFFF19#450AD7A33CCDCCCC
(1785000239.073014) can0 1DEFFF19#463DA13D253F85E5
(1785000239.073774) can0 1DEFFF19#47673F8A5F8E3FC0
(1785000239.074543) can0 1DEFFF19#48011A3F00000000
(1785000239.075301) can0 19FA041C#406F38FF090A141E
(1785000239.076388) can0 19FA041C#41F0B9F811FFFFFF
(1785000239.077385) can0 19FA041C#42FFFF0F00000000
(1785000239.078387) can0 19FA041C#430000FFFFFFFFFF
(1785000239.079392) can0 19FA041C#44122B2FA041F811
(1785000239.080386) can0 05F8021C#38FC6B140000FFFF
(1785000239.081410) can0 19FA041C#45FFFFFFFFFF17DA
(1785000239.082408) can0 19FA041C#462F1EDCA00FFFFF
(1785000239.083414) can0 19FA041C#47FFFFFF1B3115D0
(1785000239.083982) can0 09F11219#DCFEFFFF7FFF7FFC
(1785000239.084595) can0 19FA041C#48CF0410FFFFFFFF
(1785000239.085422) can0 19FA041C#49FF1D92093674E4
(1785000239.086493) can0 19FA041C#4A0CFFFFFFFFFF20
(1785000239.087493) can0 19FA041C#4B000000000000FF
(1785000239.088470) can0 19FA041C#4CFFFFFFFF2CB61C
(1785000239.089524) can0 19FA041C#4DFC850410FFFFFF
(1785000239.090494) can0 05F8021C#38FC6B140000FFFF
(1785000239.091505) can0 19FA041C#4EFFFF30A91A308E
(1785000239.092592) can0 19FA041C#4F0410FFFFFFFFFF
(1785000239.100576) can0 05F8021C#38FC6B140000FFFF
(1785000239.110332) can0 09F112F8#FFBD750000FF7FFD
(1785000239.110902) can0 05F8021C#38FC6B140000FFFF
(1785000239.120788) can0 05F8021C#38FC6B140000FFFF
(1785000239.130871) can0 05F8021C#38FC6B140000FFFF
(1785000239.133668) can0 0DF11919#DCFE7FFE7FFE7FFF
(1785000239.139947) can0 09F80219#DDFC57140900FFFF
(1785000239.140599) can0 09F80119#D36B2618796C5BC1
(1785000239.141193) can0 05F8021C#38FC6B140000FFFF
(1785000239.142518) can0 18FF50E0#00008000800080D3
(1785000239.151119) can0 05F8021C#38FC6B140000FFFF
(1785000239.154472) can0 18F01D21#B8811680FFFFFFFF
(1785000239.161194) can0 05F8021C#38FC6B140000FFFF
(1785000239.171334) can0 05F8021C#38FC6B140000FFFF
(1785000239.181452) can0 05F8021C#38FC6B140000FFFF
(1785000239.183528) can0 09F11219#DDFEFFFF7FFF7FFC
(1785000239.191566) can0 05F8021C#38FC6B140000FFFF
(1785000239.201679) can0 05F8021C#38FC6B140000FFFF
(1785000239.211777) can0 05F8021C#38FC6B140000FFFF
(1785000239.220154) can0 1DEFFFF8#800CE5986C070202
(1785000239.221118) can0 1DEFFFF8#81410089000000FF
(1785000239.221889) can0 05F8021C#38FC6B140000FFFF
(1785000239.222431) can0 1DEFFFF8#A00CE5986C070202
(1785000239.223392) can0 1DEFFFF8#A1430001000000FF
(1785000239.224313) can0 1DEFFFF8#C009E5986C070202
(1785000239.225200) can0 1DEFFFF8#C1280000FFFFFFFF
(1785000239.226318) can0 1DEFFFF8#E009E5986C070202
(1785000239.227206) can0 1DEFFFF8#E1340000FFFFFFFF
(1785000239.230014) can0 1DEFFFF8#0009E5986C070202
(1785000239.230686) can0 1DEFFFF8#011B00FFFFFFFFFF
(1785000239.231966) can0 05F8021C#38FC6B140000FFFF
(1785000239.232564) can0 1DEFFFF8#2009E5986C070202
(1785000239.233646) can0 1DEFFFF8#211D00FFFFFFFFFF
(1785000239.240533) can0 09F80219#DEFC57140500FFFF
(1785000239.241387) can0 09F80119#D36B2618796C5BC1
(1785000239.242097) can0 05F8021C#38FC6B140000FFFF
(1785000239.243116) can0 18FF50E0#00008000800080D4
(1785000239.252232) can0 05F8021C#38FC6B140000FFFF
(1785000239.252769) can0 09F112F8#FFBD750000FF7FFD
(1785000239.254722) can0 18F01D21#B8811680FFFFFFFF
(1785000239.262443) can0 05F8021C#38FC6B140000FFFF
(1785000239.272488) can0 05F8021C#38FC6B140000FFFF
(1785000239.282605) can0 05F8021C#38FC6B140000FFFF
(1785000239.283600) can0 09F11219#DEFEFFFF7FFF7FFC
(1785000239.292677) can0 05F8021C#38FC6B140000FFFF
(1785000239.302782) can0 05F8021C#38FC6B140000FFFF
(1785000239.312897) can0 05F8021C#38FC6B140000FFFF
(1785000239.322984) can0 05F8021C#38FC6B140000FFFF
(1785000239.333122) can0 05F8021C#38FC6B140000FFFF
(1785000239.338224) can0 09F80219#DFFC56140200FFFF
(1785000239.339104) can0 09F80119#D36B2618796C5BC1
(1785000239.343201) can0 05F8021C#38FC6B140000FFFF
(1785000239.344509) can0 18FF50E0#00008000800080D5
(1785000239.353348) can0 05F8021C#38FC6B140000FFFF
(1785000239.355108) can0 18F01D21#B8811680FFFFFFFF
(1785000239.363430) can0 05F8021C#38FC6B140000FFFF
(1785000239.373554) can0 05F8021C#38FC6B140000FFFF
(1785000239.383500) can0 0DF11919#DFFE7FFE7FFE7FFF
(1785000239.384071) can0 05F8021C#38FC6B140000FFFF
(1785000239.384620) can0 09F11219#DFFEFFFF7FFF7FFC
(1785000239.393808) can0 05F8021C#38FC6B140000FFFF
(1785000239.403930) can0 05F8021C#38FC6B140000FFFF
(1785000239.404470) can0 09F112F8#FFBF750000FF7FFD
(1785000239.414019) can0 05F8021C#38FC6B140000FFFF
(1785000239.424123) can0 05F8021C#38FC6B140000FFFF
(1785000239.434241) can0 05F8021C#38FC6B140000FFFF
(1785000239.437713) can0 09F80219#E0FC57140100FFFF
(1785000239.438627) can0 09F80119#D36B2618796C5BC1
(1785000239.444318) can0 05F8021C#38FC6B140000FFFF
(1785000239.445617) can0 18FF50E0#00008000800080D6
(1785000239.454467) can0 05F8021C#38FC6B140000FFFF
(1785000239.454990) can0 18F01D21#B8811680FFFFFFFF
(1785000239.464567) can0 05F8021C#38FC6B140000FFFF
(1785000239.474694) can0 05F8021C#38FC6B140000FFFF
(1785000239.483526) can0 09F11219#E0FEFFFF7FFF7FFC
(1785000239.484768) can0 05F8021C#38FC6B140000FFFF
(1785000239.494920) can0 05F8021C#38FC6B140000FFFF
(1785000239.505021) can0 05F8021C#38FC6B140000FFFF
(1785000239.515118) can0 05F8021C#38FC6B140000FFFF
(1785000239.525252) can0 05F8021C#38FC6B140000FFFF
(1785000239.535304) can0 05F8021C#38FC6B140000FFFF
(1785000239.538804) can0 09F80219#E1FC57140300FFFF
(1785000239.539417) can0 09F80119#D36B2618796C5BC1
(1785000239.545451) can0 05F8021C#38FC6B140000FFFF
(1785000239.546883) can0 18FF50E0#00008000800080D7
(1785000239.553424) can0 09F112F8#FFC0750000FF7FFD
(1785000239.553913) can0 09F8011C#B26C2618026B5BC1
(1785000239.554556) can0 19FA031C#39D20F013001F500
(1785000239.555106) can0 18F01D21#B8811680FFFFFFFF
(1785000239.555674) can0 05F8021C#39FC6B140000FFFF
(1785000239.556563) can0 0DF0101C#39F0B350F0F35525
(1785000239.557556) can0 18FEE81C#FA0E0000BB63557E
(1785000239.558626) can0 19FA041C#606F39FF090A141E
(1785000239.559654) can0 19FA041C#61F0B9F811FFFFFF
(1785000239.560670) can0 19FA041C#62FFFF0F00000000
(1785000239.561678) can0 19FA041C#630000FFFFFFFFFF
(1785000239.562676) can0 19FA041C#64122B2FA0419411
(1785000239.563674) can0 19FA041C#65FFFFFFFFFF17DA
(1785000239.564703) can0 19FA041C#662F1EDCA00FFFFF
(1785000239.565677) can0 05F8021C#39FC6B140000FFFF
(1785000239.566706) can0 19FA041C#67FFFFFF1B3115D0
(1785000239.567717) can0 19FA041C#68CF0410FFFFFFFF
(1785000239.568728) can0 19FA041C#69FF1D92093674E4
(1785000239.569764) can0 19FA041C#6A0CFFFFFFFFFF20
(1785000239.570778) can0 19FA041C#6B000000000000FF
(1785000239.571789) can0 19FA041C#6CFFFFFFFF2CB61C
(1785000239.572784) can0 19FA041C#6DFC850410FFFFFF
(1785000239.573778) can0 19FA041C#6EFFFF30A91A308E
(1785000239.574812) can0 19FA041C#6F0410FFFFFFFFFF
(1785000239.575761) can0 05F8021C#39FC6B140000FFFF
(1785000239.583609) can0 09F11219#E1FEFFFF7FFF7FFC
(1785000239.585925) can0 05F8021C#39FC6B140000FFFF
(1785000239.595997) can0 05F8021C#39FC6B140000FFFF
(1785000239.606114) can0 05F8021C#39FC6B140000FFFF
(1785000239.616215) can0 05F8021C#39FC6B140000FFFF
(1785000239.626347) can0 05F8021C#39FC6B140000FFFF
(1785000239.633711) can0 0DF11919#E1FE7FFE7FFE7FFF
(1785000239.636494) can0 05F8021C#39FC6B140000FFFF
(1785000239.639716) can0 09F80219#E2FC57140000FFFF
(1785000239.640431) can0 09F80119#D36B2618796C5BC1
(1785000239.646560) can0 05F8021C#39FC6B140000FFFF
(1785000239.647586) can0 18FF50E0#00008000800080D8
(1785000239.653116) can0 18FF2D21#00C385C385000040
(1785000239.655192) can0 18F01D21#B8811680FFFFFFFF
(1785000239.656679) can0 05F8021C#39FC6B140000FFFF
(1785000239.666814) can0 05F8021C#39FC6B140000FFFF
(1785000239.676915) can0 05F8021C#39FC6B140000FFFF
(1785000239.683582) can0 09F11219#E2FEFFFF7FFF7FFC
(1785000239.687037) can0 05F8021C#39FC6B140000FFFF
(1785000239.697124) can0 05F8021C#39FC6B140000FFFF
(1785000239.700352) can0 09F112F8#FFC4750000FF7FFD
(1785000239.707218) can0 05F8021C#39FC6B140000FFFF
(1785000239.717359) can0 05F8021C#39FC6B140000FFFF
(1785000239.720169) can0 1DEFFFF8#400CE5986C070202
(1785000239.720848) can0 1DEFFFF8#41410089000000FF
(1785000239.722323) can0 1DEFFFF8#600CE5986C070202
(1785000239.723398) can0 1DEFFFF8#61430001000000FF
(1785000239.724399) can0 1DEFFFF8#8009E5986C070202
(1785000239.725202) can0 1DEFFFF8#81280000FFFFFFFF
(1785000239.726653) can0 1DEFFFF8#A009E5986C070202
(1785000239.727230) can0 1DEFFFF8#A1340000FFFFFFFF
(1785000239.727769) can0 05F8021C#39FC6B140000FFFF
(1785000239.730004) can0 1DEFFFF8#C009E5986C070202
(1785000239.730696) can0 1DEFFFF8#C11B00FFFFFFFFFF
(1785000239.732337) can0 1DEFFFF8#E009E5986C070202
(1785000239.733406) can0 1DEFFFF8#E11D00FFFFFFFFFF
(1785000239.737578) can0 05F8021C#39FC6B140000FFFF
(1785000239.740583) can0 09F80219#E3FC56140300FFFF
(1785000239.741408) can0 09F80119#D36B2618796C5BC1
(1785000239.747670) can0 05F8021C#39FC6B140000FFFF
(1785000239.748670) can0 18FF50E0#00008000800080D9
(1785000239.754549) can0 18F01D21#B8811680FFFFFFFF
(1785000239.757858) can0 05F8021C#39FC6B140000FFFF
(1785000239.767873) can0 05F8021C#39FC6B140000FFFF
(1785000239.778000) can0 05F8021C#39FC6B140000FFFF
(1785000239.783561) can0 09F11219#E3FEFFFF7FFF7FFC
(1785000239.788125) can0 05F8021C#39FC6B140000FFFF
(1785000239.798225) can0 05F8021C#39FC6B140000FFFF
(1785000239.808449) can0 05F8021C#39FC6B140000FFFF
(1785000239.818462) can0 05F8021C#39FC6B140000FFFF
(1785000239.828571) can0 05F8021C#39FC6B140000FFFF
(1785000239.837855) can0 09F80219#E4FC56140300FFFF
(1785000239.838656) can0 05F8021C#39FC6B140000FFFF
(1785000239.839183) can0 09F80119#D36B2618796C5BC1
(1785000239.848818) can0 05F8021C#39FC6B140000FFFF
(1785000239.850251) can0 18FF50E0#00008000800080DA
(1785000239.853718) can0 09F112F8#FFC7750000FF7FFD
(1785000239.854340) can0 1DEFFFF8#000AE598EE040404
(1785000239.854894) can0 18F01D21#B8811680FFFFFFFF
(1785000239.855483) can0 1DEFFFF8#0103000000FFFFFF
(1785000239.858886) can0 05F8021C#39FC6B140000FFFF
(1785000239.869058) can0 05F8021C#39FC6B140000FFFF
(1785000239.879150) can0 05F8021C#39FC6B140000FFFF
(1785000239.883513) can0 0DF11919#E4FE7FFE7FFE7FFF
(1785000239.884174) can0 09F11219#E4FEFFFF7FFF7FFC
(1785000239.889230) can0 05F8021C#39FC6B140000FFFF
(1785000239.899341) can0 05F8021C#39FC6B140000FFFF
(1785000239.909472) can0 05F8021C#39FC6B140000FFFF
(1785000239.919558) can0 05F8021C#39FC6B140000FFFF
(1785000239.929667) can0 05F8021C#39FC6B140000FFFF
(1785000239.939218) can0 09F80219#E5FC56140200FFFF
(1785000239.939744) can0 05F8021C#39FC6B140000FFFF
(1785000239.940291) can0 09F80119#D36B2618796C5BC1
(1785000239.949891) can0 05F8021C#39FC6B140000FFFF
(1785000239.951580) can0 18FF50E0#00008000800080DB
(1785000239.955318) can0 18F01D21#B8811680FFFFFFFF
(1785000239.960000) can0 05F8021C#39FC6B140000FFFF
(1785000239.970147) can0 05F8021C#39FC6B140000FFFF
(1785000239.978533) can0 1DEFFF19#600CE5986C070202
(1785000239.979211) can0 1DEFFF19#61410089000000FF
(1785000239.979927) can0 1DEFFF19#800CE5986C070202
(1785000239.980510) can0 05F8021C#39FC6B140000FFFF
(1785000239.981098) can0 1DEFFF19#81430001000000FF
(1785000239.981912) can0 1DEFFF19#A009E5986C070202
(1785000239.982686) can0 1DEFFF19#A11B0001FFFFFFFF
(1785000239.983437) can0 1DEFFF19#C009E5986C070202
(1785000239.984209) can0 1DEFFF19#C11D0000FFFFFFFF
(1785000239.984936) can0 09F11219#E5FEFFFF7FFF7FFC
(1785000239.990386) can0 05F8021C#39FC6B140000FFFF
(1785000239.994423) can0 09F112F8#FFC8750000FF7FFD
(1785000240.000470) can0 05F8021C#39FC6B140000FFFF
(1785000240.010598) can0 05F8021C#39FC6B140000FFFF
(1785000240.020674) can0 05F8021C#39FC6B140000FFFF
(1785000240.030781) can0 05F8021C#39FC6B140000FFFF
(1785000240.040875) can0 05F8021C#39FC6B140000FFFF
(1785000240.041425) can0 19FA0419#E087E6FD0B0A501D
(1785000240.042243) can0 19FA0419#E11FBA090DFFFFFF
(1785000240.042970) can0 19FA0419#E27FF50F501D7323
(1785000240.043759) can0 19FA0419#E3030EFFFFFF7FF2
(1785000240.044508) can0 19FA0419#E4120A2F2142BF10
(1785000240.045280) can0 19FA0419#E5FFFFFF7FF514E8
(1785000240.045993) can0 19FA0419#E60AA21CB20DFFFF
(1785000240.046729) can0 19FA0419#E7FF7FF217B92F36
(1785000240.047455) can0 19FA0419#E8DC5511FFFFFF7F
(1785000240.048179) can0 19FA0419#E9F51B221542CFF7
(1785000240.048983) can0 19FA0419#EA0DFFFFFF7FF21D
(1785000240.049684) can0 19FA0419#EB8B09E673F70EFF
(1785000240.050460) can0 19FA0419#ECFFFF7FF5207F07
(1785000240.051031) can0 05F8021C#39FC6B140000FFFF
(1785000240.051582) can0 19FA0419#ED718C4810FFFFFF
(1785000240.052436) can0 19FA0419#EE7FF254C504B85C
(1785000240.052591) can0 18FF50E0#00008000800080DC
(1785000240.053200) can0 19FA0419#EF670CFFFFFF7FF1
(1785000240.054338) can0 19FA0419#F05700000000600C
(1785000240.054896) can0 18F01D21#B8811680FFFFFFFF
(1785000240.055471) can0 09F8011C#B06C2618006B5BC1
(1785000240.056028) can0 19FA0419#F1FFFFFF7FF118AE
(1785000240.056610) can0 19FA031C#3AD20F013001F500
(1785000240.057149) can0 19FA0419#F20FA149F508FFFF
(1785000240.057958) can0 19FA0419#F3FF7FF2FFFFFFFF
(1785000240.058468) can0 0DF0101C#3AF0B350F0F35525
(1785000240.059063) can0 0DF01019#E6F0B350001B5625
(1785000240.059711) can0 09F80219#E6FC56140200FFFF
(1785000240.060253) can0 18FEE81C#FA0E0000BC63547E
(1785000240.060787) can0 09F80119#D36B2618796C5BC1
(1785000240.061406) can0 05F8021C#3AFC6B140000FFFF
(1785000240.061895) can0 0DF80519#E02BE6B350001B56
(1785000240.062657) can0 0DF80519#E125C01CA87D0475
(1785000240.063437) can0 0DF80519#E29F05801F188892
(1785000240.064186) can0 0DF80519#E3316AF180ED505C
(1785000240.064922) can0 0DF80519#E40000000024FC19
(1785000240.065682) can0 0DF80519#E540006F0006F9FF
(1785000240.066479) can0 0DF80519#E6FF00FFFFFFFFFF
(1785000240.067198) can0 19FA0319#E6D340005A003C00
(1785000240.067794) can0 19FA041C#806F3AFF090A141E
(1785000240.068296) can0 19F11A19#E6F2B3507005FFFF
(1785000240.068977) can0 1DEFFF19#E03EE59817000404
(1785000240.069528) can0 19FA041C#81F0B9F811FFFFFF
(1785000240.070096) can0 1DEFFF19#E19EC682405B4326
(1785000240.070689) can0 19FA041C#82FFFF0F00000000
(1785000240.071202) can0 1DEFFF19#E2403CF69A403CF6
(1785000240.071906) can0 1DEFFF19#E31A403CF61A400A
(1785000240.072503) can0 05F8021C#3AFC6B140000FFFF
(1785000240.073057) can0 1DEFFF19#E4D7A33CCDCCCC3D
(1785000240.073607) can0 19FA041C#82FFFF0F00000000
(1785000240.074136) can0 1DEFFF19#E50AD7A33CCDCCCC
(1785000240.074727) can0 19FA041C#830000FFFFFFFFFF
(1785000240.075269) can0 1DEFFF19#E63D743D253F4BE5
(1785000240.075957) can0 1DEFFF19#E7673F655F8E3F66
(1785000240.076551) can0 19FA041C#84122B2FA041F811
(1785000240.077140) can0 1DEFFF19#E8011A3F00000000
(1785000240.077653) can0 19FA041C#85FFFFFFFFFF17DA
(1785000240.078409) can0 19FA041C#862F1EDCA00FFFFF
(1785000240.079403) can0 19FA041C#87FFFFFF1B3115D0
(1785000240.080406) can0 19FA041C#88CF0410FFFFFFFF
(1785000240.081311) can0 05F8021C#3AFC6B140000FFFF
(1785000240.082412) can0 19FA041C#89FF1D9209367448
(1785000240.083407) can0 19FA041C#8A0DFFFFFFFFFF20
(1785000240.083976) can0 09F11219#E6FEFFFF7FFF7FFC
(1785000240.084542) can0 19FA041C#8B000000000000FF
(1785000240.085435) can0 19FA041C#8CFFFFFFFF2CB61C
(1785000240.086465) can0 19FA041C#8DFC850410FFFFFF
(1785000240.087437) can0 19FA041C#8EFFFF30A91A308E
(1785000240.088471) can0 19FA041C#8F0410FFFFFFFFFF
(1785000240.091474) can0 05F8021C#3AFC6B140000FFFF
(1785000240.101540) can0 05F8021C#3AFC6B140000FFFF
(1785000240.111699) can0 05F8021C#3AFC6B140000FFFF
(1785000240.121838) can0 05F8021C#3AFC6B140000FFFF
(1785000240.131910) can0 05F8021C#3AFC6B140000FFFF
(1785000240.133727) can0 0DF11919#E6FE7FFE7FFE7FFF
(1785000240.139863) can0 09F80219#E7FC57140900FFFF
(1785000240.140504) can0 09F80119#D36B2618796C5BC1
(1785000240.142005) can0 05F8021C#3AFC6B140000FFFF
(1785000240.145537) can0 09F112F8#FFCC750000FF7FFD
(1785000240.152118) can0 05F8021C#3AFC6B140000FFFF
(1785000240.153848) can0 18FF50E0#00008000800080DD
(1785000240.155445) can0 18F01D21#B8811680FFFFFFFF
(1785000240.162215) can0 05F8021C#3AFC6B140000FFFF
(1785000240.172324) can0 05F8021C#3AFC6B140000FFFF
(1785000240.182482) can0 05F8021C#3AFC6B140000FFFF
(1785000240.183598) can0 09F11219#E7FEFFFF7FFF7FFC
(1785000240.192570) can0 05F8021C#3AFC6B140000FFFF
(1785000240.202667) can0 05F8021C#3AFC6B140000FFFF
(1785000240.212766) can0 05F8021C#3AFC6B140000FFFF
(1785000240.220200) can0 1DEFFFF8#200CE5986C070202
(1785000240.221148) can0 1DEFFFF8#21410089000000FF
(1785000240.222409) can0 1DEFFFF8#400CE5986C070202
(1785000240.222909) can0 05F8021C#3AFC6B140000FFFF
(1785000240.223503) can0 1DEFFFF8#41430001000000FF
(1785000240.224407) can0 1DEFFFF8#6009E5986C070202
(1785000240.225196) can0 1DEFFFF8#61280000FFFFFFFF
(1785000240.226352) can0 1DEFFFF8#8009E5986C070202
(1785000240.227227) can0 1DEFFFF8#81340000FFFFFFFF
(1785000240.230053) can0 1DEFFFF8#A009E5986C070202
(1785000240.230729) can0 1DEFFFF8#A11B00FFFFFFFFFF
(1785000240.232423) can0 1DEFFFF8#C009E5986C070202
(1785000240.233010) can0 05F8021C#3AFC6B140000FFFF
(1785000240.233627) can0 1DEFFFF8#C11D00FFFFFFFFFF
(1785000240.240342) can0 09F80219#E8FC57140400FFFF
(1785000240.240971) can0 09F80119#D36B2618796C5BC1
(1785000240.243109) can0 05F8021C#3AFC6B140000FFFF
(1785000240.253243) can0 05F8021C#3AFC6B140000FFFF
(1785000240.254450) can0 18FF50E0#00008000800080DE
(1785000240.255358) can0 18F01D21#B8811680FFFFFFFF
(1785000240.263369) can0 05F8021C#3AFC6B140000FFFF
(1785000240.273483) can0 05F8021C#3AFC6B140000FFFF
(1785000240.283603) can0 05F8021C#3AFC6B140000FFFF
(1785000240.284123) can0 09F11219#E8FEFFFF7FFF7FFC
(1785000240.290062) can0 09F112F8#FFD1750000FF7FFD
(1785000240.293685) can0 05F8021C#3AFC6B140000FFFF
(1785000240.303824) can0 05F8021C#3AFC6B140000FFFF
(1785000240.313882) can0 05F8021C#3AFC6B140000FFFF
(1785000240.324066) can0 05F8021C#3AFC6B140000FFFF
(1785000240.334160) can0 05F8021C#3AFC6B140000FFFF
(1785000240.337968) can0 09F80219#E9FC57140200FFFF
(1785000240.338800) can0 09F80119#D36B2618796C5BC1
(1785000240.344233) can0 05F8021C#3AFC6B140000FFFF
(1785000240.354349) can0 05F8021C#3AFC6B140000FFFF
(1785000240.354907) can0 18F01D21#B8811680FFFFFFFF
(1785000240.355897) can0 18FF50E0#00008000800080DF
(1785000240.364477) can0 05F8021C#3AFC6B140000FFFF
(1785000240.374579) can0 05F8021C#3AFC6B140000FFFF
(1785000240.383577) can0 0DF11919#E9FE7FFE7FFE7FFF
(1785000240.384280) can0 09F11219#E9FEFFFF7FFF7FFC
(1785000240.384812) can0 05F8021C#3AFC6B140000FFFF
(1785000240.394780) can0 05F8021C#3AFC6B140000FFFF
(1785000240.404906) can0 05F8021C#3AFC6B140000FFFF
(1785000240.415014) can0 05F8021C#3AFC6B140000FFFF
(1785000240.425117) can0 05F8021C#3AFC6B140000FFFF
(1785000240.435237) can0 05F8021C#3AFC6B140000FFFF
(1785000240.439303) can0 09F80219#EAFC57140000FFFF
(1785000240.440016) can0 09F80119#D36B2618796C5BC1
(1785000240.440980) can0 09F112F8#FFD8750000FF7FFD
(1785000240.445377) can0 05F8021C#3AFC6B140000FFFF
(1785000240.455070) can0 18F01D21#B8811680FFFFFFFF
(1785000240.455599) can0 05F8021C#3AFC6B140000FFFF
(1785000240.458774) can0 18FF50E0#00008000800080E0
(1785000240.465591) can0 05F8021C#3AFC6B140000FFFF
(1785000240.475687) can0 05F8021C#3AFC6B140000FFFF
(1785000240.483579) can0 09F11219#EAFEFFFF7FFF7FFC
(1785000240.485859) can0 05F8021C#3AFC6B140000FFFF
(1785000240.495923) can0 05F8021C#3AFC6B140000FFFF
(1785000240.506065) can0 05F8021C#3AFC6B140000FFFF
(1785000240.516110) can0 05F8021C#3AFC6B140000FFFF
(1785000240.526230) can0 05F8021C#3AFC6B140000FFFF
(1785000240.536328) can0 05F8021C#3AFC6B140000FFFF
(1785000240.538220) can0 09F80219#EBFC58140000FFFF
(1785000240.539009) can0 09F80119#D36B2618796C5BC1
(1785000240.546457) can0 05F8021C#3AFC6B140000FFFF
(1785000240.555431) can0 18F01D21#B8811680FFFFFFFF
(1785000240.556549) can0 05F8021C#3AFC6B140000FFFF
(1785000240.562602) can0 09F8011C#B66C2618026B5BC1
(1785000240.563622) can0 19FA031C#3BD28400D1008E00
(1785000240.564648) can0 0DF0101C#3BF0B350001B5625
(1785000240.565659) can0 18FEE81C#FA0E0000BC63537E
(1785000240.566587) can0 18FF50E0#00008000800080E1
(1785000240.566651) can0 05F8021C#3BFC6B140000FFFF
(1785000240.568240) can0 19FA041C#A06F3BFF090A141E
(1785000240.569749) can0 19FA041C#A1F0B9F811FFFFFF
(1785000240.570716) can0 19FA041C#A2FFFF0F651D8C23
(1785000240.571769) can0 19FA041C#A3E40CFFFFFFFFFF
(1785000240.572772) can0 19FA041C#A4122B2FA0419411
(1785000240.573795) can0 19FA041C#A5FFFFFFFFFF17DA
(1785000240.574797) can0 19FA041C#A62F1EDCA00FFFFF
(1785000240.575801) can0 19FA041C#A7FFFFFF1B3115D0
(1785000240.576776) can0 05F8021C#3BFC6B140000FFFF
(1785000240.577850) can0 19FA041C#A8CF0410FFFFFFFF
(1785000240.578820) can0 19FA041C#A9FF1D9209367448
(1785000240.579846) can0 19FA041C#AA0DFFFFFFFFFF20
(1785000240.580870) can0 19FA041C#AB3408D28C1C0CFF
(1785000240.581870) can0 19FA041C#ACFFFFFFFF2CB61C
(1785000240.582896) can0 19FA041C#ADFC850410FFFFFF
(1785000240.583619) can0 09F11219#EBFEFFFF7FFF7FFC
(1785000240.584191) can0 19FA041C#AEFFFF30A91A308E
(1785000240.584927) can0 19FA041C#AF0410FFFFFFFFFF
(1785000240.586893) can0 05F8021C#3BFC6B140000FFFF
(1785000240.587653) can0 09F112F8#FFDD750000FF7FFD
(1785000240.597009) can0 05F8021C#3BFC6B140000FFFF
(1785000240.607120) can0 05F8021C#3BFC6B140000FFFF
(1785000240.617247) can0 05F8021C#3BFC6B140000FFFF
(1785000240.627329) can0 05F8021C#3BFC6B140000FFFF
(1785000240.633811) can0 0DF11919#EBFE7FFE7FFE7FFF
(1785000240.637471) can0 05F8021C#3BFC6B140000FFFF
(1785000240.639146) can0 09F80219#ECFC57140100FFFF
(1785000240.639797) can0 09F80119#D36B2618796C5BC1
(1785000240.647563) can0 05F8021C#3BFC6B140000FFFF
(1785000240.652735) can0 18FF2D21#00C385C385000040
(1785000240.654787) can0 18F01D21#B8811680FFFFFFFF
(1785000240.657698) can0 05F8021C#3BFC6B140000FFFF
(1785000240.667271) can0 18FF50E0#00008000800080E2
(1785000240.667799) can0 05F8021C#3BFC6B140000FFFF
(1785000240.677917) can0 05F8021C#3BFC6B140000FFFF
(1785000240.683638) can0 09F11219#ECFEFFFF7FFF7FFC
(1785000240.688004) can0 05F8021C#3BFC6B140000FFFF
(1785000240.698140) can0 05F8021C#3BFC6B140000FFFF
(1785000240.708208) can0 05F8021C#3BFC6B140000FFFF
(1785000240.718334) can0 05F8021C#3BFC6B140000FFFF
(1785000240.720224) can0 1DEFFFF8#E00CE5986C070202
(1785000240.720871) can0 1DEFFFF8#E1410089000000FF
(1785000240.722362) can0 1DEFFFF8#000CE5986C070202
(1785000240.723436) can0 1DEFFFF8#01430001000000FF
(1785000240.724422) can0 1DEFFFF8#2009E5986C070202
(1785000240.725213) can0 1DEFFFF8#21280000FFFFFFFF
(1785000240.726421) can0 1DEFFFF8#4009E5986C070202
(1785000240.727010) can0 1DEFFFF8#41340000FFFFFFFF
(1785000240.728425) can0 05F8021C#3BFC6B140000FFFF
(1785000240.730067) can0 1DEFFFF8#6009E5986C070202
(1785000240.730731) can0 1DEFFFF8#611B00FFFFFFFFFF
(1785000240.732347) can0 1DEFFFF8#8009E5986C070202
(1785000240.733421) can0 1DEFFFF8#811D00FFFFFFFFFF
(1785000240.737436) can0 09F112F8#FFDF750000FF7FFD
(1785000240.738558) can0 05F8021C#3BFC6B140000FFFF
(1785000240.740202) can0 09F80219#EDFC57140200FFFF
(1785000240.741078) can0 09F80119#D36B2618796C5BC1
(1785000240.748659) can0 05F8021C#3BFC6B140000FFFF
(1785000240.755105) can0 18F01D21#B8811680FFFFFFFF
(1785000240.758755) can0 05F8021C#3BFC6B140000FFFF
(1785000240.768888) can0 05F8021C#3BFC6B140000FFFF
(1785000240.779038) can0 05F8021C#3BFC6B140000FFFF
(1785000240.780473) can0 18FF50E0#00008000800080E3
(1785000240.783635) can0 09F11219#EDFEFFFF7FFF7FFC
(1785000240.789112) can0 05F8021C#3BFC6B140000FFFF
(1785000240.799218) can0 05F8021C#3BFC6B140000FFFF
(1785000240.809369) can0 05F8021C#3BFC6B140000FFFF
(1785000240.819440) can0 05F8021C#3BFC6B140000FFFF
(1785000240.829556) can0 05F8021C#3BFC6B140000FFFF
(1785000240.838839) can0 09F80219#EEFC57140100FFFF
(1785000240.839577) can0 09F80119#D36B26187A6C5BC1
(1785000240.840140) can0 05F8021C#3BFC6B140000FFFF
(1785000240.849796) can0 05F8021C#3BFC6B140000FFFF
(1785000240.854462) can0 18F01D21#B8811680FFFFFFFF
(1785000240.859889) can0 05F8021C#3BFC6B140000FFFF
(1785000240.870020) can0 05F8021C#3BFC6B140000FFFF
(1785000240.880108) can0 05F8021C#3BFC6B140000FFFF
(1785000240.881527) can0 18FF50E0#00008000800080E4
(1785000240.883604) can0 0DF11919#EEFE7FFE7FFE7FFF
(1785000240.884317) can0 09F11219#EEFEFFFF7FFF7FFC
(1785000240.884911) can0 09F112F8#FFE2750000FF7FFD
(1785000240.890249) can0 05F8021C#3BFC6B140000FFFF
(1785000240.900343) can0 05F8021C#3BFC6B140000FFFF
(1785000240.910452) can0 05F8021C#3BFC6B140000FFFF
(1785000240.920560) can0 05F8021C#3BFC6B140000FFFF
(1785000240.930657) can0 05F8021C#3BFC6B140000FFFF
(1785000240.938967) can0 09F80219#EFFC56140100FFFF
(1785000240.939603) can0 09F80119#D36B26187A6C5BC1
(1785000240.940779) can0 05F8021C#3BFC6B140000FFFF
(1785000240.950889) can0 05F8021C#3BFC6B140000FFFF
(1785000240.954846) can0 18F01D21#B8811680FFFFFFFF
(1785000240.960988) can0 05F8021C#3BFC6B140000FFFF
(1785000240.971120) can0 05F8021C#3BFC6B140000FFFF
(1785000240.981228) can0 05F8021C#3BFC6B140000FFFF
(1785000240.982145) can0 18FF50E0#00008000800080E5
(1785000240.983721) can0 09F11219#EFFEFFFF7FFF7FFC
(1785000240.991317) can0 05F8021C#3BFC6B140000FFFF
(1785000241.001440) can0 05F8021C#3BFC6B140000FFFF
(1785000241.011547) can0 05F8021C#3BFC6B140000FFFF
(1785000241.021670) can0 05F8021C#3BFC6B140000FFFF
(1785000241.031790) can0 05F8021C#3BFC6B140000FFFF
(1785000241.035446) can0 09F112F8#FFE8750000FF7FFD
(1785000241.039443) can0 19FA0419#0087F0FD0B0A501D
(1785000241.040154) can0 19FA0419#011FBA030DFFFFFF
(1785000241.040879) can0 19FA0419#027FF50F501D7323
(1785000241.041632) can0 19FA0419#03F70DFFFFFF7FF2
(1785000241.042201) can0 05F8021C#3BFC6B140000FFFF
(1785000241.042753) can0 19FA0419#04120A2F2142BF10
(1785000241.043631) can0 19FA0419#05FFFFFF7FF514E8
(1785000241.044343) can0 19FA0419#060AA21CD10DFFFF
(1785000241.045104) can0 19FA0419#07FF7FF217B92F36
(1785000241.045877) can0 19FA0419#08DC4F11FFFFFF7F
(1785000241.046599) can0 19FA0419#09F51B221542CFF7
(1785000241.047429) can0 19FA0419#0A0DFFFFFF7FF21D
(1785000241.048098) can0 19FA0419#0B8B09E673F10EFF
(1785000241.048851) can0 19FA0419#0CFFFF7FF5207F07
(1785000241.049628) can0 19FA0419#0D718C480DFFFFFF
(1785000241.050348) can0 19FA0419#0E7FF254C504B85C
(1785000241.051114) can0 19FA0419#0F730CFFFFFF7FF1
(1785000241.051880) can0 19FA0419#1057000000005A0C
(1785000241.052417) can0 05F8021C#3BFC6B140000FFFF
(1785000241.052993) can0 19FA0419#11FFFFFF7FF118AE
(1785000241.053851) can0 19FA0419#120FA1499E08FFFF
(1785000241.054624) can0 19FA0419#13FF7FF2FFFFFFFF
(1785000241.055192) can0 18F01D21#B8811680FFFFFFFF
(1785000241.055753) can0 0DF01019#F0F0B35010425625
(1785000241.056606) can0 09F80219#F0FC56140100FFFF
(1785000241.057317) can0 09F80119#D36B26187A6C5BC1
(1785000241.058117) can0 0DF80519#002BF0B350104256
(1785000241.058819) can0 0DF80519#0125C081BA890475
(1785000241.059601) can0 0DF80519#029F0500378C8C92
(1785000241.060341) can0 0DF80519#03316AF100E1505C
(1785000241.061116) can0 0DF80519#040000000024FC19
(1785000241.061855) can0 0DF80519#0540006F0006F9FF
(1785000241.062427) can0 05F8021C#3BFC6B140000FFFF
(1785000241.062993) can0 0DF80519#06FF00FFFFFFFFFF
(1785000241.063854) can0 19FA0319#F0D340005A003C00
(1785000241.064584) can0 19F11A19#F0F2B3507005FFFF
(1785000241.065133) can0 09F8011C#B86C2618026B5BC1
(1785000241.065708) can0 1DEFFF19#003EE59817000404
(1785000241.066272) can0 19FA031C#3CD28400D1008E00
(1785000241.066824) can0 1DEFFF19#0171CD81400B7625
(1785000241.067459) can0 0DF0101C#3CF0B350001B5625
(1785000241.067911) can0 1DEFFF19#0240E8EC9940E8EC
(1785000241.068485) can0 18FEE81C#FA0E0000BE63537E
(1785000241.069023) can0 1DEFFF19#031940E8EC19400A
(1785000241.069831) can0 1DEFFF19#04D7A33CCDCCCC3D
(1785000241.070590) can0 1DEFFF19#050AD7A33CCDCCCC
(1785000241.071319) can0 1DEFFF19#063D483D253F15E5
(1785000241.072093) can0 1DEFFF19#07673F435F8E3F0F
(1785000241.072642) can0 05F8021C#3CFC6B140000FFFF
(1785000241.073272) can0 1DEFFF19#08011A3F00000000
(1785000241.082375) can0 05F8021C#3CFC6B140000FFFF
(1785000241.083420) can0 19FA041C#C06F3CFF090A141E
(1785000241.083944) can0 09F11219#F0FEFFFF7FFF7FFC
(1785000241.084535) can0 19FA041C#C1F0B9F811FFFFFF
(1785000241.085428) can0 19FA041C#C2FFFF0F651D8C23
(1785000241.085460) can0 18FF50E0#00008000800080E6
(1785000241.086488) can0 19FA041C#C3E40CFFFFFFFFFF
(1785000241.087620) can0 19FA041C#C4122B2FA041F811
(1785000241.088485) can0 19FA041C#C5FFFFFFFFFF17DA
(1785000241.089498) can0 19FA041C#C62F1EDCA00FFFFF
(1785000241.090484) can0 19FA041C#C7FFFFFF1B3115D0
(1785000241.091503) can0 19FA041C#C8CF0410FFFFFFFF
(1785000241.092467) can0 05F8021C#3CFC6B140000FFFF
(1785000241.093506) can0 19FA041C#C9FF1D9209367448
(1785000241.094536) can0 19FA041C#CA0DFFFFFFFFFF20
(1785000241.095539) can0 19FA041C#CB3408D28C1C0CFF
(1785000241.096540) can0 19FA041C#CCFFFFFFFF2CB61C
(1785000241.097591) can0 19FA041C#CDFC850410FFFFFF
(1785000241.098588) can0 19FA041C#CEFFFF30A91A308E
(1785000241.099578) can0 19FA041C#CF0410FFFFFFFFFF
(1785000241.102593) can0 05F8021C#3CFC6B140000FFFF
(1785000241.112695) can0 05F8021C#3CFC6B140000FFFF
(1785000241.122794) can0 05F8021C#3CFC6B140000FFFF
(1785000241.132897) can0 05F8021C#3CFC6B140000FFFF
(1785000241.133809) can0 0DF11919#F0FE7FFE7FFE7FFF
(1785000241.138865) can0 09F80219#F1FC56140C00FFFF
(1785000241.139671) can0 09F80119#D36B26187A6C5BC1
(1785000241.143007) can0 05F8021C#3CFC6B140000FFFF
(1785000241.153120) can0 05F8021C#3CFC6B140000FFFF
(1785000241.154558) can0 18F01D21#B8811680FFFFFFFF
(1785000241.163244) can0 05F8021C#3CFC6B140000FFFF
(1785000241.173344) can0 05F8021C#3CFC6B140000FFFF
(1785000241.183469) can0 05F8021C#3CFC6B140000FFFF
(1785000241.183999) can0 09F11219#F1FEFFFF7FFF7FFC
(1785000241.184745) can0 09F112F8#FFEB750000FF7FFD
(1785000241.192636) can0 18FF50E0#00008000800080E7
(1785000241.193533) can0 05F8021C#3CFC6B140000FFFF
(1785000241.203674) can0 05F8021C#3CFC6B140000FFFF
(1785000241.213793) can0 05F8021C#3CFC6B140000FFFF
(1785000241.220233) can0 1DEFFFF8#A00CE5986C070202
(1785000241.221162) can0 1DEFFFF8#A1410089000000FF
(1785000241.222438) can0 1DEFFFF8#C00CE5986C070202
(1785000241.223436) can0 1DEFFFF8#C1430001000000FF
(1785000241.223939) can0 05F8021C#3CFC6B140000FFFF
(1785000241.224530) can0 1DEFFFF8#E009E5986C070202
(1785000241.225226) can0 1DEFFFF8#E1280000FFFFFFFF
(1785000241.226465) can0 1DEFFFF8#0009E5986C070202
(1785000241.227287) can0 1DEFFFF8#01340000FFFFFFFF
(1785000241.230112) can0 1DEFFFF8#2009E5986C070202
(1785000241.230790) can0 1DEFFFF8#211B00FFFFFFFFFF
(1785000241.232532) can0 1DEFFFF8#4009E5986C070202
(1785000241.233681) can0 1DEFFFF8#411D00FFFFFFFFFF
(1785000241.234231) can0 05F8021C#3CFC6B140000FFFF
(1785000241.239716) can0 09F80219#F2FC55140800FFFF
(1785000241.240435) can0 09F80119#D36B26187A6C5BC1
(1785000241.244130) can0 05F8021C#3CFC6B140000FFFF
(1785000241.254252) can0 05F8021C#3CFC6B140000FFFF
(1785000241.254884) can0 18F01D21#B8811680FFFFFFFF
(1785000241.264347) can0 05F8021C#3CFC6B140000FFFF
(1785000241.274485) can0 05F8021C#3CFC6B140000FFFF
(1785000241.283618) can0 09F11219#F2FEFFFF7FFF7FFC
(1785000241.284550) can0 05F8021C#3CFC6B140000FFFF
(1785000241.293300) can0 18FF50E0#00008000800080E8
(1785000241.294866) can0 05F8021C#3CFC6B140000FFFF
(1785000241.304825) can0 05F8021C#3CFC6B140000FFFF
(1785000241.314895) can0 05F8021C#3CFC6B140000FFFF
(1785000241.325034) can0 05F8021C#3CFC6B140000FFFF
(1785000241.334477) can0 09F112F8#FFE9750000FF7FFD
(1785000241.335098) can0 05F8021C#3CFC6B140000FFFF
(1785000241.335658) can0 1DEFFFF8#600AE598EE040404
(1785000241.336423) can0 1DEFFFF8#6103000000FFFFFF
(1785000241.339295) can0 09F80219#F3FC54140700FFFF
(1785000241.339924) can0 09F80119#D46B26187A6C5BC1
(1785000241.345232) can0 05F8021C#3CFC6B140000FFFF
(1785000241.355307) can0 18F01D21#B8811680FFFFFFFF
(1785000241.355896) can0 05F8021C#3CFC6B140000FFFF
(1785000241.365445) can0 05F8021C#3CFC6B140000FFFF
(1785000241.375601) can0 05F8021C#3CFC6B140000FFFF
(1785000241.383573) can0 0DF11919#F3FE7FFE7FFE7FFF
(1785000241.384432) can0 09F11219#F3FEFFFF7FFF7FFC
(1785000241.385699) can0 05F8021C#3CFC6B140000FFFF
(1785000241.395766) can0 05F8021C#3CFC6B140000FFFF
(1785000241.397082) can0 18FF50E0#00008000800080E9
(1785000241.405881) can0 05F8021C#3CFC6B140000FFFF
(1785000241.416035) can0 05F8021C#3CFC6B140000FFFF
(1785000241.426102) can0 05F8021C#3CFC6B140000FFFF
(1785000241.436215) can0 05F8021C#3CFC6B140000FFFF
(1785000241.439293) can0 09F80219#F4FC53140200FFFF
(1785000241.439899) can0 09F80119#D46B26187A6C5BC1
(1785000241.446321) can0 05F8021C#3CFC6B140000FFFF
(1785000241.454592) can0 18F01D21#B8811680FFFFFFFF
(1785000241.456462) can0 05F8021C#3CFC6B140000FFFF
(1785000241.466569) can0 05F8021C#3CFC6B140000FFFF
(1785000241.476698) can0 05F8021C#3CFC6B140000FFFF
(1785000241.483598) can0 09F11219#F4FEFFFF7FFF7FFC
(1785000241.486436) can0 09F112F8#FFE9750000FF7FFD
(1785000241.486976) can0 05F8021C#3CFC6B140000FFFF
(1785000241.496919) can0 05F8021C#3CFC6B140000FFFF
(1785000241.498248) can0 18FF50E0#00008000800080EA
(1785000241.506993) can0 05F8021C#3CFC6B140000FFFF
(1785000241.517110) can0 05F8021C#3CFC6B140000FFFF
(1785000241.527217) can0 05F8021C#3CFC6B140000FFFF
(1785000241.537341) can0 05F8021C#3CFC6B140000FFFF
(1785000241.539120) can0 09F80219#F5FC53140100FFFF
(1785000241.539918) can0 09F80119#D46B26187A6C5BC1
(1785000241.547429) can0 05F8021C#3CFC6B140000FFFF
(1785000241.554952) can0 18F01D21#B8811680FFFFFFFF
(1785000241.557546) can0 05F8021C#3CFC6B140000FFFF
(1785000241.567718) can0 05F8021C#3CFC6B140000FFFF
(1785000241.569683) can0 09F8011C#BC6C2618026B5BC1
(1785000241.570698) can0 19FA031C#3DD28400D1008E00
(1785000241.571721) can0 0DF0101C#3DF0B35010425625
(1785000241.572722) can0 18FEE81C#FA0E0000C363527E
(1785000241.573769) can0 19FA041C#E06F3DFF090A141E
(1785000241.574798) can0 19FA041C#E1F0B9F811FFFFFF
(1785000241.575803) can0 19FA041C#E2FFFF0F651D8C23
(1785000241.576824) can0 19FA041C#E3E40CFFFFFFFFFF
(1785000241.577770) can0 05F8021C#3DFC6B140000FFFF
(1785000241.578846) can0 19FA041C#E4122B2FA041F811
(1785000241.579853) can0 19FA041C#E5FFFFFFFFFF17DA
(1785000241.580840) can0 19FA041C#E62F1EDCA00FFFFF
(1785000241.581873) can0 19FA041C#E7FFFFFF1B3115D0
(1785000241.582871) can0 19FA041C#E8CF0410FFFFFFFF
(1785000241.583596) can0 09F11219#F5FEFFFF7FFF7FFC
(1785000241.584141) can0 19FA041C#E9FF1D9209367448
(1785000241.584920) can0 19FA041C#EA0DFFFFFFFFFF20
(1785000241.585938) can0 19FA041C#EB3408D28C1C0CFF
(1785000241.586907) can0 19FA041C#ECFFFFFFFF2CB61C
(1785000241.587896) can0 05F8021C#3DFC6B140000FFFF
(1785000241.588958) can0 19FA041C#EDFC856810FFFFFF
(1785000241.589963) can0 19FA041C#EEFFFF30A91A308E
(1785000241.590976) can0 19FA041C#EFA00FFFFFFFFFFF
(1785000241.598063) can0 05F8021C#3DFC6B140000FFFF
(1785000241.600854) can0 18FF50E0#00008000800080EB
(1785000241.608127) can0 05F8021C#3DFC6B140000FFFF
(1785000241.618227) can0 05F8021C#3DFC6B140000FFFF
(1785000241.628327) can0 05F8021C#3DFC6B140000FFFF
(1785000241.630105) can0 09F112F8#FFEB750000FF7FFD
(1785000241.633722) can0 0DF11919#F5FE7FFE7FFE7FFF
(1785000241.638453) can0 05F8021C#3DFC6B140000FFFF
(1785000241.639001) can0 09F80219#F6FC54140500FFFF
(1785000241.639690) can0 09F80119#D46B26187A6C5BC1
(1785000241.648552) can0 05F8021C#3DFC6B140000FFFF
(1785000241.653306) can0 18FF2D21#00C385C385000040
(1785000241.655388) can0 18F01D21#B8811680FFFFFFFF
(1785000241.658679) can0 05F8021C#3DFC6B140000FFFF
(1785000241.668832) can0 05F8021C#3DFC6B140000FFFF
(1785000241.678897) can0 05F8021C#3DFC6B140000FFFF
(1785000241.683684) can0 09F11219#F6FEFFFF7FFF7FFC
(1785000241.689078) can0 05F8021C#3DFC6B140000FFFF
(1785000241.699161) can0 05F8021C#3DFC6B140000FFFF
(1785000241.703814) can0 18FF50E0#00008000800080EC
(1785000241.709259) can0 05F8021C#3DFC6B140000FFFF
(1785000241.719362) can0 05F8021C#3DFC6B140000FFFF
(1785000241.720242) can0 1DEFFFF8#800CE5986C070202
(1785000241.720957) can0 1DEFFFF8#81410089000000FF
(1785000241.722400) can0 1DEFFFF8#A00CE5986C070202
(1785000241.723477) can0 1DEFFFF8#A1430001000000FF
(1785000241.724479) can0 1DEFFFF8#C009E5986C070202
(1785000241.725299) can0 1DEFFFF8#C1280000FFFFFFFF
(1785000241.726476) can0 1DEFFFF8#E009E5986C070202
(1785000241.727299) can0 1DEFFFF8#E1340000FFFFFFFF
(1785000241.729448) can0 05F8021C#3DFC6B140000FFFF
(1785000241.730370) can0 1DEFFFF8#0009E5986C070202
(1785000241.731102) can0 1DEFFFF8#011B00FFFFFFFFFF
(1785000241.732478) can0 1DEFFFF8#2009E5986C070202
(1785000241.733478) can0 1DEFFFF8#211D00FFFFFFFFFF
(1785000241.739553) can0 05F8021C#3DFC6B140000FFFF
(1785000241.740127) can0 09F80219#F7FC55140500FFFF
(1785000241.740977) can0 09F80119#D46B26187A6C5BC1
(1785000241.749665) can0 05F8021C#3DFC6B140000FFFF
(1785000241.754635) can0 18F01D21#B8811680FFFFFFFF
(1785000241.759783) can0 05F8021C#3DFC6B140000FFFF
(1785000241.769874) can0 05F8021C#3DFC6B140000FFFF
(1785000241.780010) can0 05F8021C#3DFC6B140000FFFF
(1785000241.780601) can0 09F112F8#FFEF750000FF7FFD
(1785000241.783666) can0 09F11219#F7FEFFFF7FFF7FFC
(1785000241.790121) can0 05F8021C#3DFC6B140000FFFF
(1785000241.800194) can0 05F8021C#3DFC6B140000FFFF
(1785000241.805333) can0 18FF50E0#00008000800080ED
(1785000241.810311) can0 05F8021C#3DFC6B140000FFFF
(1785000241.820450) can0 05F8021C#3DFC6B140000FFFF
(1785000241.830552) can0 05F8021C#3DFC6B140000FFFF
(1785000241.839916) can0 09F80219#F8FC55140300FFFF
(1785000241.840679) can0 05F8021C#3DFC6B140000FFFF
(1785000241.841192) can0 09F80119#D46B26187A6C5BC1
(1785000241.850800) can0 05F8021C#3DFC6B140000FFFF
(1785000241.855010) can0 18F01D21#B8811680FFFFFFFF
(1785000241.860895) can0 05F8021C#3DFC6B140000FFFF
(1785000241.871001) can0 05F8021C#3DFC6B140000FFFF
(1785000241.881117) can0 05F8021C#3DFC6B140000FFFF
(1785000241.883563) can0 0DF11919#F8FE7FFE7FFE7FFF
(1785000241.884222) can0 09F11219#F8FEFFFF7FFF7FFC
(1785000241.891253) can0 05F8021C#3DFC6B140000FFFF
(1785000241.901354) can0 05F8021C#3DFC6B140000FFFF
(1785000241.906072) can0 18FF50E0#00008000800080EE
(1785000241.911438) can0 05F8021C#3DFC6B140000FFFF
(1785000241.921542) can0 05F8021C#3DFC6B140000FFFF
(1785000241.931250) can0 09F112F8#FFEF750000FF7FFD
(1785000241.931845) can0 05F8021C#3DFC6B140000FFFF
(1785000241.938843) can0 09F80219#F9FC56140100FFFF
(1785000241.939486) can0 09F80119#D46B26187A6C5BC1
(1785000241.941759) can0 05F8021C#3DFC6B140000FFFF
(1785000241.951900) can0 05F8021C#3DFC6B140000FFFF
(1785000241.955435) can0 18F01D21#B8811680FFFFFFFF
(1785000241.961997) can0 05F8021C#3DFC6B140000FFFF
(1785000241.972104) can0 05F8021C#3DFC6B140000FFFF
(1785000241.981567) can0 1DEFFF19#200CE5986C070202
(1785000241.982186) can0 05F8021C#3DFC6B140000FFFF
(1785000241.982782) can0 1DEFFF19#21410089000000FF
(1785000241.983470) can0 1DEFFF19#400CE5986C070202
(1785000241.984270) can0 1DEFFF19#41430001000000FF
(1785000241.985009) can0 09F11219#F9FEFFFF7FFF7FFC
(1785000241.985726) can0 1DEFFF19#6009E5986C070202
(1785000241.986502) can0 1DEFFF19#611B0001FFFFFFFF
(1785000241.987229) can0 1DEFFF19#8009E5986C070202
(1785000241.988002) can0 1DEFFF19#811D0000FFFFFFFF
(1785000241.992327) can0 05F8021C#3DFC6B140000FFFF
(1785000242.002513) can0 05F8021C#3DFC6B140000FFFF
(1785000242.007256) can0 18FF50E0#00008000800080EF
(1785000242.012597) can0 05F8021C#3DFC6B140000FFFF
(1785000242.022685) can0 05F8021C#3DFC6B140000FFFF
(1785000242.032817) can0 05F8021C#3DFC6B140000FFFF
(1785000242.038974) can0 19FA0419#2087FAFD0B0A501D
(1785000242.039885) can0 19FA0419#211FBA160EFFFFFF
(1785000242.040582) can0 19FA0419#227FF50F501D7323
(1785000242.041353) can0 19FA0419#23030EFFFFFF7FF2
(1785000242.042068) can0 19FA0419#24120A2F2142C510
(1785000242.042816) can0 19FA0419#25FFFFFF7FF514E8
(1785000242.043393) can0 05F8021C#3DFC6B140000FFFF
(1785000242.043949) can0 19FA0419#260AA21CBE0DFFFF
(1785000242.044814) can0 19FA0419#27FF7FF217B92F36
(1785000242.045564) can0 19FA0419#28DC4F11FFFFFF7F
(1785000242.046285) can0 19FA0419#29F51B221542CF03
(1785000242.047104) can0 19FA0419#2A0EFFFFFF7FF21D
(1785000242.047802) can0 19FA0419#2B8B09E673E40EFF
(1785000242.048562) can0 19FA0419#2CFFFF7FF5207F07
(1785000242.049274) can0 19FA0419#2D718C2F10FFFFFF
(1785000242.049991) can0 19FA0419#2E7FF254C504B85C
(1785000242.050755) can0 19FA0419#2F600CFFFFFF7FF1
(1785000242.051552) can0 19FA0419#305700000000410C
(1785000242.052272) can0 19FA0419#31FFFFFF7FF118AE
(1785000242.052997) can0 05F8021C#3DFC6B140000FFFF
(1785000242.053611) can0 19FA0419#320FA1498508FFFF
(1785000242.054308) can0 19FA0419#33FF7FF2FFFFFFFF
(1785000242.054866) can0 18F01D21#B8811680FFFFFFFF
(1785000242.055451) can0 0DF01019#FAF0B35020695625
(1785000242.055987) can0 09F80219#FAFC56140100FFFF
(1785000242.056784) can0 09F80119#D46B26187A6C5BC1
(1785000242.057510) can0 0DF80519#202BFAB350206956
(1785000242.058251) can0 0DF80519#2125C05A0F970475
(1785000242.059008) can0 0DF80519#229F05809C8B9092
(1785000242.059784) can0 0DF80519#23316AF100D4505C
(1785000242.060583) can0 0DF80519#240000000024FC19
(1785000242.061306) can0 0DF80519#2540006F0006F9FF
(1785000242.061991) can0 0DF80519#26FF00FFFFFFFFFF
(1785000242.062737) can0 19FA0319#FAD340005A003C00
(1785000242.063305) can0 05F8021C#3DFC6B140000FFFF
(1785000242.063864) can0 19F11A19#FAF2B3507005FFFF
(1785000242.064495) can0 1DEFFF19#A03EE59817000404
(1785000242.065202) can0 1DEFFF19#A18AE880401BC524
(1785000242.065965) can0 1DEFFF19#A2405CFC98405CFC
(1785000242.066733) can0 1DEFFF19#A318405CFC18400A
(1785000242.067515) can0 1DEFFF19#A4D7A33CCDCCCC3D
(1785000242.068239) can0 1DEFFF19#A50AD7A33CCDCCCC
(1785000242.068953) can0 1DEFFF19#A63D1B3D253FD9E4
(1785000242.069771) can0 1DEFFF19#A7673F1D5F8E3FB4
(1785000242.070567) can0 1DEFFF19#A8001A3F00000000
(1785000242.071234) can0 09F8011C#C06C2618026B5BC1
(1785000242.072227) can0 19FA031C#3ED28400D1008E00
(1785000242.073250) can0 05F8021C#3EFC6B140000FFFF
(1785000242.074264) can0 0DF0101C#3EF0B35010425625
(1785000242.075292) can0 18FEE81C#FA0E0000C563517E
(1785000242.080102) can0 09F112F8#FFED750000FF7FFD
(1785000242.083411) can0 05F8021C#3EFC6B140000FFFF
(1785000242.083914) can0 09F11219#FAFEFFFF7FFF7FFC
(1785000242.084559) can0 19FA041C#006F3EFF090A141E
(1785000242.085525) can0 19FA041C#01F0B9F811FFFFFF
(1785000242.086515) can0 19FA041C#02FFFF0F651D8C23
(1785000242.087498) can0 19FA041C#03E40CFFFFFFFFFF
(1785000242.088446) can0 19FA041C#04122B2FA0419411
(1785000242.089475) can0 19FA041C#05FFFFFFFFFF17DA
(1785000242.090472) can0 19FA041C#062F1EDCA00FFFFF
(1785000242.091483) can0 19FA041C#07FFFFFF1B3115D0
(1785000242.092481) can0 19FA041C#08CF3C0FFFFFFFFF
(1785000242.093457) can0 05F8021C#3EFC6B140000FFFF
(1785000242.094479) can0 19FA041C#09FF1D9209367448
(1785000242.095511) can0 19FA041C#0A0DFFFFFFFFFF20
(1785000242.096507) can0 19FA041C#0B3408D28CB80BFF
(1785000242.097534) can0 19FA041C#0CFFFFFFFF2CB61C
(1785000242.098558) can0 19FA041C#0DFC856810FFFFFF
(1785000242.099561) can0 19FA041C#0EFFFF30A91A308E
(1785000242.100571) can0 19FA041C#0FA00FFFFFFFFFFF
(1785000242.103560) can0 05F8021C#3EFC6B140000FFFF
(1785000242.108462) can0 18FF50E0#00008000800080F0
(1785000242.113688) can0 05F8021C#3EFC6B140000FFFF
(1785000242.123972) can0 05F8021C#3EFC6B140000FFFF
(1785000242.133896) can0 0DF11919#FAFE7FFE7FFE7FFF
(1785000242.134453) can0 05F8021C#3EFC6B140000FFFF
(1785000242.140120) can0 09F80219#00FC56140800FFFF
(1785000242.140763) can0 09F80119#D46B26187A6C5BC1
(1785000242.143988) can0 05F8021C#3EFC6B140000FFFF
(1785000242.154105) can0 05F8021C#3EFC6B140000FFFF
(1785000242.155130) can0 18F01D21#B8811680FFFFFFFF
(1785000242.164270) can0 05F8021C#3EFC6B140000FFFF
(1785000242.174327) can0 05F8021C#3EFC6B140000FFFF
(1785000242.183652) can0 09F11219#00FEFFFF7FFF7FFC
(1785000242.184450) can0 05F8021C#3EFC6B140000FFFF
(1785000242.194586) can0 05F8021C#3EFC6B140000FFFF
(1785000242.204726) can0 05F8021C#3EFC6B140000FFFF
(1785000242.209718) can0 18FF50E0#00008000800080F1
(1785000242.214806) can0 05F8021C#3EFC6B140000FFFF
(1785000242.220234) can0 1DEFFFF8#400CE5986C070202
(1785000242.221195) can0 1DEFFFF8#41410089000000FF
(1785000242.222456) can0 1DEFFFF8#600CE5986C070202
(1785000242.223453) can0 1DEFFFF8#61430001000000FF
(1785000242.224444) can0 1DEFFFF8#8009E5986C070202
(1785000242.224984) can0 05F8021C#3EFC6B140000FFFF
(1785000242.225575) can0 1DEFFFF8#81280000FFFFFFFF
(1785000242.226451) can0 1DEFFFF8#A009E5986C070202
(1785000242.227270) can0 1DEFFFF8#A1340000FFFFFFFF
(1785000242.230098) can0 1DEFFFF8#C009E5986C070202
(1785000242.230985) can0 1DEFFFF8#C11B00FFFFFFFFFF
(1785000242.232458) can0 1DEFFFF8#E009E5986C070202
(1785000242.233515) can0 1DEFFFF8#E11D00FFFFFFFFFF
(1785000242.234755) can0 09F112F8#FFEA750000FF7FFD
(1785000242.235254) can0 05F8021C#3EFC6B140000FFFF
(1785000242.240029) can0 09F80219#01FC56140400FFFF
(1785000242.240831) can0 09F80119#D46B26187A6C5BC1
(1785000242.245143) can0 05F8021C#3EFC6B140000FFFF
(1785000242.255248) can0 05F8021C#3EFC6B140000FFFF
(1785000242.255806) can0 18F01D21#B8811680FFFFFFFF
(1785000242.265392) can0 05F8021C#3EFC6B140000FFFF
(1785000242.275471) can0 05F8021C#3EFC6B140000FFFF
(1785000242.283681) can0 09F11219#01FEFFFF7FFF7FFC
(1785000242.285606) can0 05F8021C#3EFC6B140000FFFF
(1785000242.295703) can0 05F8021C#3EFC6B140000FFFF
(1785000242.305828) can0 05F8021C#3EFC6B140000FFFF
(1785000242.310355) can0 18FF50E0#00008000800080F2
(1785000242.315894) can0 05F8021C#3EFC6B140000FFFF
(1785000242.326038) can0 05F8021C#3EFC6B140000FFFF
(1785000242.336116) can0 05F8021C#3EFC6B140000FFFF
(1785000242.340324) can0 09F80219#02FC57140200FFFF
(1785000242.341093) can0 09F80119#D46B26187A6C5BC1
(1785000242.346249) can0 05F8021C#3EFC6B140000FFFF
(1785000242.354853) can0 18F01D21#B8811680FFFFFFFF
(1785000242.356337) can0 05F8021C#3EFC6B140000FFFF
(1785000242.366480) can0 05F8021C#3EFC6B140000FFFF
(1785000242.376475) can0 09F112F8#FFE7750000FF7FFD
(1785000242.377005) can0 05F8021C#3EFC6B140000FFFF
(1785000242.383652) can0 0DF11919#02FE7FFE7FFE7FFF
(1785000242.384313) can0 09F11219#02FEFFFF7FFF7FFC
(1785000242.386688) can0 05F8021C#3EFC6B140000FFFF
(1785000242.396799) can0 05F8021C#3EFC6B140000FFFF
(1785000242.406916) can0 05F8021C#3EFC6B140000FFFF
(1785000242.413520) can0 18FF50E0#00008000800080F3
(1785000242.417027) can0 05F8021C#3EFC6B140000FFFF
(1785000242.427124) can0 05F8021C#3EFC6B140000FFFF
(1785000242.437202) can0 09F80219#03FC57140100FFFF
(1785000242.437766) can0 05F8021C#3EFC6B140000FFFF
(1785000242.438286) can0 09F80119#D46B26187A6C5BC1
(1785000242.447342) can0 05F8021C#3EFC6B140000FFFF
(1785000242.455197) can0 18F01D21#B8811680FFFFFFFF
(1785000242.457464) can0 05F8021C#3EFC6B140000FFFF
(1785000242.467583) can0 05F8021C#3EFC6B140000FFFF
(1785000242.477705) can0 05F8021C#3EFC6B140000FFFF
(1785000242.483702) can0 09F11219#03FEFFFF7FFF7FFC
(1785000242.487826) can0 05F8021C#3EFC6B140000FFFF
(1785000242.497931) can0 05F8021C#3EFC6B140000FFFF
(1785000242.508016) can0 05F8021C#3EFC6B140000FFFF
(1785000242.515619) can0 18FF50E0#00008000800080F4
(1785000242.518121) can0 05F8021C#3EFC6B140000FFFF
(1785000242.524511) can0 09F112F8#FFE3750000FF7FFD
(1785000242.528258) can0 05F8021C#3EFC6B140000FFFF
(1785000242.538175) can0 09F80219#04FC57140000FFFF
(1785000242.538740) can0 05F8021C#3EFC6B140000FFFF
(1785000242.539253) can0 09F80119#D46B26187A6C5BC1
(1785000242.548477) can0 05F8021C#3EFC6B140000FFFF
(1785000242.555585) can0 18F01D21#B8811680FFFFFFFF
(1785000242.558582) can0 05F8021C#3EFC6B140000FFFF
(1785000242.568677) can0 05F8021C#3EFC6B140000FFFF
(1785000242.573725) can0 09F8011C#C86C2618026B5BC1
(1785000242.574718) can0 19FA031C#3FD28400D1008E00
(1785000242.575746) can0 0DF0101C#3FF0B35020695625
(1785000242.576810) can0 18FEE81C#FA0E0000C863517E
(1785000242.577818) can0 19FA041C#206F3FFF090A141E
(1785000242.578798) can0 05F8021C#3FFC6B140000FFFF
(1785000242.579843) can0 19FA041C#21F0B99411FFFFFF
(1785000242.580841) can0 19FA041C#22FFFF0F651D8C23
(1785000242.581896) can0 19FA041C#23480DFFFFFFFFFF
(1785000242.582871) can0 19FA041C#24122B2FA0419411
(1785000242.583704) can0 09F11219#04FEFFFF7FFF7FFC
(1785000242.584308) can0 19FA041C#25FFFFFFFFFF17DA
(1785000242.585924) can0 19FA041C#262F1EDCA00FFFFF
(1785000242.586920) can0 19FA041C#27FFFFFF1B3115D0
(1785000242.587936) can0 19FA041C#28CFA00FFFFFFFFF
(1785000242.588885) can0 05F8021C#3FFC6B140000FFFF
(1785000242.589936) can0 19FA041C#29FF1D92093674AC
(1785000242.590980) can0 19FA041C#2A0DFFFFFFFFFF20
(1785000242.591970) can0 19FA041C#2B3408D28CB80BFF
(1785000242.592980) can0 19FA041C#2CFFFFFFFF2CB61C
(1785000242.593988) can0 19FA041C#2DFC856810FFFFFF
(1785000242.594979) can0 19FA041C#2EFFFF30A91A308E
(1785000242.596069) can0 19FA041C#2FA00FFFFFFFFFFF
(1785000242.599032) can0 05F8021C#3FFC6B140000FFFF
(1785000242.609137) can0 05F8021C#3FFC6B140000FFFF
(1785000242.619223) can0 05F8021C#3FFC6B140000FFFF
(1785000242.621491) can0 18FF50E0#00008000800080F5
(1785000242.629353) can0 05F8021C#3FFC6B140000FFFF
(1785000242.633807) can0 0DF11919#04FE7FFE7FFE7FFF
(1785000242.639376) can0 09F80219#05FC57140000FFFF
(1785000242.640012) can0 05F8021C#3FFC6B140000FFFF
(1785000242.640479) can0 09F80119#D46B26187A6C5BC1
(1785000242.649593) can0 05F8021C#3FFC6B140000FFFF
(1785000242.652856) can0 18FF2D21#00C385C385000040
(1785000242.654898) can0 18F01D21#B8811680FFFFFFFF
(1785000242.659736) can0 05F8021C#3FFC6B140000FFFF
(1785000242.669818) can0 05F8021C#3FFC6B140000FFFF
(1785000242.671027) can0 09F112F8#FFDF750000FF7FFD
(1785000242.679940) can0 05F8021C#3FFC6B140000FFFF
(1785000242.683672) can0 09F11219#05FEFFFF7FFF7FFC
(1785000242.690067) can0 05F8021C#3FFC6B140000FFFF
(1785000242.700159) can0 05F8021C#3FFC6B140000FFFF
(1785000242.710246) can0 05F8021C#3FFC6B140000FFFF
(1785000242.720290) can0 1DEFFFF8#000CE5986C070202
(1785000242.720823) can0 05F8021C#3FFC6B140000FFFF
(1785000242.721471) can0 1DEFFFF8#01410089000000FF
(1785000242.722471) can0 1DEFFFF8#200CE5986C070202
(1785000242.723465) can0 1DEFFFF8#21430001000000FF
(1785000242.723664) can0 18FF50E0#00008000800080F6
(1785000242.724464) can0 1DEFFFF8#4009E5986C070202
(1785000242.725617) can0 1DEFFFF8#41280000FFFFFFFF
(1785000242.726484) can0 1DEFFFF8#6009E5986C070202
(1785000242.727292) can0 1DEFFFF8#61340000FFFFFFFF
(1785000242.730371) can0 1DEFFFF8#8009E5986C070202
(1785000242.730953) can0 05F8021C#3FFC6B140000FFFF
(1785000242.731540) can0 1DEFFFF8#811B00FFFFFFFFFF
(1785000242.732472) can0 1DEFFFF8#A009E5986C070202
(1785000242.733469) can0 1DEFFFF8#A11D00FFFFFFFFFF
(1785000242.740081) can0 09F80219#06FC57140100FFFF
(1785000242.740622) can0 05F8021C#3FFC6B140000FFFF
(1785000242.741170) can0 09F80119#D46B26187A6C5BC1
(1785000242.750690) can0 05F8021C#3FFC6B140000FFFF
(1785000242.755275) can0 18F01D21#B8811680FFFFFFFF
(1785000242.760849) can0 05F8021C#3FFC6B140000FFFF
(1785000242.771018) can0 05F8021C#3FFC6B140000FFFF
(1785000242.781031) can0 05F8021C#3FFC6B140000FFFF
(1785000242.783683) can0 09F11219#06FEFFFF7FFF7FFC
(1785000242.791127) can0 05F8021C#3FFC6B140000FFFF
(1785000242.801275) can0 05F8021C#3FFC6B140000FFFF
(1785000242.811379) can0 05F8021C#3FFC6B140000FFFF
(1785000242.816744) can0 09F112F8#FFDF750000FF7FFD
(1785000242.817323) can0 1DEFFFF8#C00AE598EE040404
(1785000242.820141) can0 1DEFFFF8#C103000000FFFFFF
(1785000242.821479) can0 05F8021C#3FFC6B140000FFFF
(1785000242.824621) can0 18FF50E0#00008000800080F7
(1785000242.831603) can0 05F8021C#3FFC6B140000FFFF
(1785000242.838532) can0 09F80219#07FC57140000FFFF
(1785000242.839365) can0 09F80119#D46B26187A6C5BC1
(1785000242.841671) can0 05F8021C#3FFC6B140000FFFF
(1785000242.851819) can0 05F8021C#3FFC6B140000FFFF
(1785000242.855657) can0 18F01D21#B8811680FFFFFFFF
(1785000242.861930) can0 05F8021C#3FFC6B140000FFFF
(1785000242.872061) can0 05F8021C#3FFC6B140000FFFF
(1785000242.882174) can0 05F8021C#3FFC6B140000FFFF
(1785000242.883625) can0 0DF11919#07FE7FFE7FFE7FFF
(1785000242.884382) can0 09F11219#07FEFFFF7FFF7FFC
(1785000242.892260) can0 05F8021C#3FFC6B140000FFFF
(1785000242.902370) can0 05F8021C#3FFC6B140000FFFF
(1785000242.912486) can0 05F8021C#3FFC6B140000FFFF
(1785000242.922557) can0 05F8021C#3FFC6B140000FFFF
(1785000242.926606) can0 18FF50E0#00008000800080F8
(1785000242.932689) can0 05F8021C#3FFC6B140000FFFF
(1785000242.939368) can0 09F80219#08FC57140100FFFF
(1785000242.940152) can0 09F80119#D46B26187A6C5BC1
(1785000242.942812) can0 05F8021C#3FFC6B140000FFFF
(1785000242.952931) can0 05F8021C#3FFC6B140000FFFF
(1785000242.954985) can0 18F01D21#B8811680FFFFFFFF
(1785000242.963002) can0 05F8021C#3FFC6B140000FFFF
(1785000242.966487) can0 09F112F8#FFDD750000FF7FFD
(1785000242.973189) can0 05F8021C#3FFC6B140000FFFF
(1785000242.983267) can0 05F8021C#3FFC6B140000FFFF
(1785000242.983808) can0 09F11219#08FEFFFF7FFF7FFC
(1785000242.993342) can0 05F8021C#3FFC6B140000FFFF
(1785000243.003502) can0 05F8021C#3FFC6B140000FFFF
(1785000243.013577) can0 05F8021C#3FFC6B140000FFFF
(1785000243.023686) can0 05F8021C#3FFC6B140000FFFF
(1785000243.027207) can0 18FF50E0#00008000800080F9
(1785000243.033809) can0 05F8021C#3FFC6B140000FFFF
(1785000243.039446) can0 19FA0419#408709FD0B0A501D
(1785000243.040194) can0 19FA0419#411FBA6D0EFFFFFF
(1785000243.040905) can0 19FA0419#427FF50F501D7323
(1785000243.041731) can0 19FA0419#43FD0DFFFFFF7FF2
(1785000243.042420) can0 19FA0419#44120A2F2142D210
(1785000243.043188) can0 19FA0419#45FFFFFF7FF514E8
(1785000243.043893) can0 05F8021C#3FFC6B140000FFFF
(1785000243.044467) can0 19FA0419#460AA21C9F0DFFFF
(1785000243.045180) can0 19FA0419#47FF7FF217B92F36
(1785000243.045981) can0 19FA0419#48DC5B11FFFFFF7F
(1785000243.046672) can0 19FA0419#49F51B221542CF03
(1785000243.047471) can0 19FA0419#4A0EFFFFFF7FF21D
(1785000243.048139) can0 19FA0419#4B8B09E673D10EFF
(1785000243.048921) can0 19FA0419#4CFFFF7FF5207F07
(1785000243.049673) can0 19FA0419#4D718C1D10FFFFFF
(1785000243.050387) can0 19FA0419#4E7FF254C504B85C
(1785000243.051163) can0 19FA0419#4F540CFFFFFF7FF1
(1785000243.051947) can0 19FA0419#505700000000220C
(1785000243.052672) can0 19FA0419#51FFFFFF7FF118AE
(1785000243.053472) can0 19FA0419#520FA1499808FFFF
(1785000243.054012) can0 05F8021C#3FFC6B140000FFFF
(1785000243.054597) can0 19FA0419#53FF7FF2FFFFFFFF
(1785000243.055344) can0 18F01D21#B8811680FFFFFFFF
(1785000243.055895) can0 0DF01019#09F0B35030905625
(1785000243.056692) can0 09F80219#09FC57140100FFFF
(1785000243.057391) can0 09F80119#D46B26187A6C5BC1
(1785000243.058144) can0 0DF80519#402B09B350309056
(1785000243.058897) can0 0DF80519#4125C0FE80A50475
(1785000243.059638) can0 0DF80519#429F050006F59392
(1785000243.060387) can0 0DF80519#43316AF180C7505C
(1785000243.061169) can0 0DF80519#440000000024FC19
(1785000243.061906) can0 0DF80519#4540006F0006F9FF
(1785000243.062716) can0 0DF80519#46FF00FFFFFFFFFF
(1785000243.063481) can0 19FA0319#09D340005A003C00
(1785000243.064141) can0 05F8021C#3FFC6B140000FFFF
(1785000243.064722) can0 19F11A19#09F2B3507005FFFF
(1785000243.065480) can0 1DEFFF19#C03EE59817000404
(1785000243.066167) can0 1DEFFF19#C1B00681400ED623
(1785000243.066907) can0 1DEFFF19#C24092D5984092D5
(1785000243.067658) can0 1DEFFF19#C3184092D518400A
(1785000243.068377) can0 1DEFFF19#C4D7A33CCDCCCC3D
(1785000243.069250) can0 1DEFFF19#C50AD7A33CCDCCCC
(1785000243.069871) can0 1DEFFF19#C63DED3C253FA2E4
(1785000243.070659) can0 1DEFFF19#C7673FF95E8E3F5E
(1785000243.071398) can0 1DEFFF19#C8001A3F00000000
(1785000243.074261) can0 05F8021C#3FFC6B140000FFFF
(1785000243.076285) can0 09F8011C#CC6C2618046B5BC1
(1785000243.077289) can0 19FA031C#40D28400D1008E00
(1785000243.078280) can0 0DF0101C#40F0B35020695625
(1785000243.079299) can0 18FEE81C#FA0E0000C863507E
(1785000243.080384) can0 19FA041C#406F40FF090A141E
(1785000243.081364) can0 19FA041C#41F0B9F811FFFFFF
(1785000243.082361) can0 19FA041C#42FFFF0F651D8C23
(1785000243.083386) can0 19FA041C#43480DFFFFFFFFFF
(1785000243.083935) can0 09F11219#09FEFFFF7FFF7FFC
(1785000243.084521) can0 05F8021C#40FC6B140000FFFF
(1785000243.085462) can0 19FA041C#44122B2FA0413011
(1785000243.086479) can0 19FA041C#45FFFFFFFFFF17DA
(1785000243.087476) can0 19FA041C#462F1EDCA00FFFFF
(1785000243.088480) can0 19FA041C#47FFFFFF1B3115D0
(1785000243.089479) can0 19FA041C#48CFA00FFFFFFFFF
(1785000243.090487) can0 19FA041C#49FF1D92093674AC
(1785000243.091507) can0 19FA041C#4A0DFFFFFFFFFF20
(1785000243.092477) can0 19FA041C#4B3408D28CB80BFF
(1785000243.093479) can0 19FA041C#4CFFFFFFFF2CB61C
(1785000243.094473) can0 05F8021C#40FC6B140000FFFF
(1785000243.095544) can0 19FA041C#4DFC85CC10FFFFFF
(1785000243.096526) can0 19FA041C#4EFFFF30A91A308E
(1785000243.097549) can0 19FA041C#4FA00FFFFFFFFFFF
(1785000243.104620) can0 05F8021C#40FC6B140000FFFF
(1785000243.114514) can0 09F112F8#FFDC750000FF7FFD
(1785000243.115024) can0 05F8021C#40FC6B140000FFFF
(1785000243.124815) can0 05F8021C#40FC6B140000FFFF
(1785000243.127895) can0 18FF50E0#00008000800080FA
(1785000243.133842) can0 0DF11919#09FE7FFE7FFE7FFF
(1785000243.134901) can0 05F8021C#40FC6B140000FFFF
(1785000243.140386) can0 09F80219#0AFC57140600FFFF
(1785000243.141186) can0 09F80119#D46B26187A6C5BC1
(1785000243.145012) can0 05F8021C#40FC6B140000FFFF
(1785000243.155139) can0 05F8021C#40FC6B140000FFFF
(1785000243.155737) can0 18F01D21#B8811680FFFFFFFF
(1785000243.165234) can0 05F8021C#40FC6B140000FFFF
(1785000243.175343) can0 05F8021C#40FC6B140000FFFF
(1785000243.183719) can0 09F11219#0AFEFFFF7FFF7FFC
(1785000243.185478) can0 05F8021C#40FC6B140000FFFF
(1785000243.195584) can0 05F8021C#40FC6B140000FFFF
(1785000243.205667) can0 05F8021C#40FC6B140000FFFF
(1785000243.215826) can0 05F8021C#40FC6B140000FFFF
(1785000243.220274) can0 1DEFFFF8#E00CE5986C070202
(1785000243.220954) can0 1DEFFFF8#E1410089000000FF
(1785000243.222737) can0 1DEFFFF8#000CE5986C070202
(1785000243.223480) can0 1DEFFFF8#01430001000000FF
(1785000243.224486) can0 1DEFFFF8#2009E5986C070202
(1785000243.225299) can0 1DEFFFF8#21280000FFFFFFFF
(1785000243.225886) can0 05F8021C#40FC6B140000FFFF
(1785000243.226523) can0 1DEFFFF8#4009E5986C070202
(1785000243.227334) can0 1DEFFFF8#41340000FFFFFFFF
(1785000243.229478) can0 18FF50E0#00008000800080FB
(1785000243.230109) can0 1DEFFFF8#6009E5986C070202
(1785000243.231284) can0 1DEFFFF8#611B00FFFFFFFFFF
(1785000243.232492) can0 1DEFFFF8#8009E5986C070202
(1785000243.233484) can0 1DEFFFF8#811D00FFFFFFFFFF
(1785000243.236009) can0 05F8021C#40FC6B140000FFFF
(1785000243.240200) can0 09F80219#0BFC57140400FFFF
(1785000243.240950) can0 09F80119#D46B26187A6C5BC1
(1785000243.246161) can0 05F8021C#40FC6B140000FFFF
(1785000243.255073) can0 18F01D21#B8811680FFFFFFFF
(1785000243.256245) can0 05F8021C#40FC6B140000FFFF
(1785000243.256798) can0 09F112F8#FFDE750000FF7FFD
(1785000243.266374) can0 05F8021C#40FC6B140000FFFF
(1785000243.276514) can0 05F8021C#40FC6B140000FFFF
(1785000243.283706) can0 09F11219#0BFEFFFF7FFF7FFC
(1785000243.286574) can0 05F8021C#40FC6B140000FFFF
(1785000243.296775) can0 05F8021C#40FC6B140000FFFF
(1785000243.306808) can0 05F8021C#40FC6B140000FFFF
(1785000243.316906) can0 05F8021C#40FC6B140000FFFF
(1785000243.327105) can0 05F8021C#40FC6B140000FFFF
(1785000243.330657) can0 18FF50E0#00008000800080FC
(1785000243.337139) can0 05F8021C#40FC6B140000FFFF
(1785000243.339276) can0 09F80219#0CFC57140300FFFF
(1785000243.339956) can0 09F80119#D46B26187A6C5BC1
(1785000243.347230) can0 05F8021C#40FC6B140000FFFF
(1785000243.355439) can0 18F01D21#B8811680FFFFFFFF
(1785000243.357353) can0 05F8021C#40FC6B140000FFFF
(1785000243.367503) can0 05F8021C#40FC6B140000FFFF
(1785000243.377597) can0 05F8021C#40FC6B140000FFFF
(1785000243.383655) can0 0DF11919#0CFE7FFE7FFE7FFF
(1785000243.384481) can0 09F11219#0CFEFFFF7FFF7FFC
(1785000243.387672) can0 05F8021C#40FC6B140000FFFF
(1785000243.397780) can0 05F8021C#40FC6B140000FFFF
(1785000243.406501) can0 09F112F8#FFE0750000FF7FFD
(1785000243.407893) can0 05F8021C#40FC6B140000FFFF
(1785000243.418024) can0 05F8021C#40FC6B140000FFFF
(1785000243.428173) can0 05F8021C#40FC6B140000FFFF
(1785000243.431492) can0 18FF50E0#00008000800080FD
(1785000243.438224) can0 05F8021C#40FC6B140000FFFF
(1785000243.438855) can0 09F80219#0DFC57140000FFFF
(1785000243.439744) can0 09F80119#D46B26187A6C5BC1
(1785000243.448398) can0 05F8021C#40FC6B140000FFFF
(1785000243.455832) can0 18F01D21#B8811680FFFFFFFF
(1785000243.458496) can0 05F8021C#40FC6B140000FFFF
(1785000243.468597) can0 05F8021C#40FC6B140000FFFF
(1785000243.478696) can0 05F8021C#40FC6B140000FFFF
