(1785000236.202454) can0 18FF50E0#00008000800080B6
(1785000236.253991) can0 18F01D21#B8811680FFFFFFFF
(1785000236.282592) can0 09F8011C#B86C2618086B5BC1
(1785000236.283527) can0 09F11219#C0FEFFFF7FFF7FFC
(1785000236.287717) can0 18FEE81C#FA0E0000A8635A7E
(1785000236.297356) can0 09F112F8#FFF1750000FF7FFD
(1785000236.303202) can0 18FF50E0#00008000800080B7
(1785000236.354381) can0 18F01D21#B8811680FFFFFFFF
(1785000236.384181) can0 09F11219#C1FEFFFF7FFF7FFC
(1785000236.404380) can0 18FF50E0#00008000800080B8
(1785000236.447970) can0 09F112F8#FFED750000FF7FFD
(1785000236.454764) can0 18F01D21#B8811680FFFFFFFF
(1785000236.483495) can0 09F11219#C2FEFFFF7FFF7FFC
(1785000236.505475) can0 18FF50E0#00008000800080B9
(1785000236.554126) can0 18F01D21#B8811680FFFFFFFF
(1785000236.583472) can0 09F11219#C3FEFFFF7FFF7FFC
(1785000236.597278) can0 09F112F8#FFEA750000FF7FFD
(1785000236.606399) can0 18FF50E0#00008000800080BA
(1785000236.654435) can0 18F01D21#B8811680FFFFFFFF
(1785000236.683458) can0 09F11219#C4FEFFFF7FFF7FFC
(1785000236.707876) can0 18FF50E0#00008000800080BB
(1785000236.743277) can0 09F112F8#FFE7750000FF7FFD
(1785000236.754815) can0 18F01D21#B8811680FFFFFFFF
(1785000236.783469) can0 09F11219#C5FEFFFF7FFF7FFC
(1785000236.785094) can0 09F8011C#B66C2618086B5BC1
(1785000236.788114) can0 18FEE81C#FA0E0000AC63597E
(1785000236.808878) can0 18FF50E0#00008000800080BC
(1785000236.854140) can0 18F01D21#B8811680FFFFFFFF
(1785000236.884240) can0 09F11219#C6FEFFFF7FFF7FFC
(1785000236.891127) can0 09F112F8#FFE5750000FF7FFD
(1785000236.911732) can0 18FF50E0#00008000800080BD
(1785000236.954495) can0 18F01D21#B8811680FFFFFFFF
(1785000236.983821) can0 09F11219#C7FEFFFF7FFF7FFC
(1785000237.012366) can0 18FF50E0#00008000800080BE
(1785000237.040102) can0 09F112F8#FFE2750000FF7FFD
(1785000237.055629) can0 18F01D21#B8811680FFFFFFFF
(1785000237.083495) can0 09F11219#C8FEFFFF7FFF7FFC
(1785000237.112869) can0 18FF50E0#00008000800080BF
(1785000237.154290) can0 18F01D21#B8811680FFFFFFFF
(1785000237.183462) can0 09F11219#C9FEFFFF7FFF7FFC
(1785000237.190944) can0 09F112F8#FFE0750000FF7FFD
(1785000237.213355) can0 18FF50E0#00008000800080C0
(1785000237.254573) can0 18F01D21#B8811680FFFFFFFF
(1785000237.283403) can0 09F11219#CAFEFFFF7FFF7FFC
(1785000237.287644) can0 09F8011C#B46C2618066B5BC1
(1785000237.290676) can0 18FEE81C#FA0E0000AF63587E
(1785000237.314778) can0 18FF50E0#00008000800080C1
(1785000237.336274) can0 09F112F8#FFE0750000FF7FFD
(1785000237.354972) can0 18F01D21#B8811680FFFFFFFF
(1785000237.384076) can0 09F11219#CBFEFFFF7FFF7FFC
(1785000237.415696) can0 18FF50E0#00008000800080C2
(1785000237.454436) can0 18F01D21#B8811680FFFFFFFF
(1785000237.483492) can0 09F11219#CCFEFFFF7FFF7FFC
(1785000237.484264) can0 09F112F8#FFDD750000FF7FFD
(1785000237.516576) can0 18FF50E0#00008000800080C3
(1785000237.554701) can0 18F01D21#B8811680FFFFFFFF
(1785000237.583495) can0 09F11219#CDFEFFFF7FFF7FFC
(1785000237.617979) can0 18FF50E0#00008000800080C4
(1785000237.630956) can0 09F112F8#FFDD750000FF7FFD
(1785000237.654006) can0 18F01D21#B8811680FFFFFFFF
(1785000237.683496) can0 09F11219#CEFEFFFF7FFF7FFC
(1785000237.721658) can0 18FF50E0#00008000800080C5
(1785000237.754372) can0 18F01D21#B8811680FFFFFFFF
(1785000237.777182) can0 09F112F8#FFDC750000FF7FFD
(1785000237.783468) can0 09F11219#CFFEFFFF7FFF7FFC
(1785000237.789102) can0 09F8011C#B46C2618066B5BC1
(1785000237.793163) can0 18FEE81C#FA0E0000B163577E
(1785000237.823608) can0 18FF50E0#00008000800080C6
(1785000237.854780) can0 18F01D21#B8811680FFFFFFFF
(1785000237.884422) can0 09F11219#D0FEFFFF7FFF7FFC
(1785000237.925122) can0 18FF50E0#00008000800080C7
(1785000237.926637) can0 09F112F8#FFD5750000FF7FFD
(1785000237.954486) can0 18F01D21#B8811680FFFFFFFF
(1785000237.983488) can0 09F11219#D1FEFFFF7FFF7FFC
(1785000238.025796) can0 18FF50E0#00008000800080C8
(1785000238.054691) can0 18F01D21#B8811680FFFFFFFF
(1785000238.076280) can0 09F112F8#FFCB750000FF7FFD
(1785000238.083544) can0 09F11219#D2FEFFFF7FFF7FFC
(1785000238.128199) can0 18FF50E0#00008000800080C9
(1785000238.154858) can0 18F01D21#B8811680FFFFFFFF
(1785000238.183780) can0 09F11219#D3FEFFFF7FFF7FFC
(1785000238.220122) can0 09F112F8#FFC5750000FF7FFD
(1785000238.229744) can0 18FF50E0#00008000800080CA
(1785000238.254192) can0 18F01D21#B8811680FFFFFFFF
(1785000238.283588) can0 09F11219#D4FEFFFF7FFF7FFC
(1785000238.290664) can0 09F8011C#B46C2618066B5BC1
(1785000238.293701) can0 18FEE81C#FA0E0000B363567E
(1785000238.330448) can0 18FF50E0#00008000800080CB
(1785000238.354587) can0 18F01D21#B8811680FFFFFFFF
(1785000238.370018) can0 09F112F8#FFC2750000FF7FFD
(1785000238.384206) can0 09F11219#D5FEFFFF7FFF7FFC
(1785000238.431815) can0 18FF50E0#00008000800080CC
(1785000238.454920) can0 18F01D21#B8811680FFFFFFFF
(1785000238.483505) can0 09F11219#D6FEFFFF7FFF7FFC
(1785000238.513321) can0 09F112F8#FFBF750000FF7FFD
(1785000238.533101) can0 18FF50E0#00008000800080CD
(1785000238.554243) can0 18F01D21#B8811680FFFFFFFF
(1785000238.583512) can0 09F11219#D7FEFFFF7FFF7FFC
(1785000238.634985) can0 18FF50E0#00008000800080CE
(1785000238.654639) can0 18F01D21#B8811680FFFFFFFF
(1785000238.665393) can0 09F112F8#FFC1750000FF7FFD
(1785000238.683514) can0 09F11219#D8FEFFFF7FFF7FFC
(1785000238.737204) can0 18FF50E0#00008000800080CF
(1785000238.754946) can0 18F01D21#B8811680FFFFFFFF
(1785000238.783631) can0 09F11219#D9FEFFFF7FFF7FFC
(1785000238.792144) can0 09F8011C#B46C2618046B5BC1
(1785000238.796232) can0 18FEE81C#FA0E0000B763567E
(1785000238.816479) can0 09F112F8#FFC2750000FF7FFD
(1785000238.838025) can0 18FF50E0#00008000800080D0
(1785000238.854414) can0 18F01D21#B8811680FFFFFFFF
(1785000238.884722) can0 09F11219#DAFEFFFF7FFF7FFC
(1785000238.939201) can0 18FF50E0#00008000800080D1
(1785000238.954646) can0 18F01D21#B8811680FFFFFFFF
(1785000238.960059) can0 09F112F8#FFBF750000FF7FFD
(1785000238.983556) can0 09F11219#DBFEFFFF7FFF7FFC
(1785000239.041386) can0 18FF50E0#00008000800080D2
(1785000239.046119) can0 09F8011C#B46C2618046B5BC1
(1785000239.049460) can0 18FEE81C#FA0E0000B763557E
(1785000239.052535) can0 18FEE81C#FA0E0000B763557E
(1785000239.055103) can0 18F01D21#B8811680FFFFFFFF
(1785000239.083982) can0 09F11219#DCFEFFFF7FFF7FFC
(1785000239.110332) can0 09F112F8#FFBD750000FF7FFD
(1785000239.142518) can0 18FF50E0#00008000800080D3
(1785000239.154472) can0 18F01D21#B8811680FFFFFFFF
(1785000239.183528) can0 09F11219#DDFEFFFF7FFF7FFC
(1785000239.243116) can0 18FF50E0#00008000800080D4
(1785000239.252769) can0 09F112F8#FFBD750000FF7FFD
(1785000239.254722) can0 18F01D21#B8811680FFFFFFFF
(1785000239.283600) can0 09F11219#DEFEFFFF7FFF7FFC
(1785000239.344509) can0 18FF50E0#00008000800080D5
(1785000239.355108) can0 18F01D21#B8811680FFFFFFFF
(1785000239.384620) can0 09F11219#DFFEFFFF7FFF7FFC
(1785000239.404470) can0 09F112F8#FFBF750000FF7FFD
(1785000239.445617) can0 18FF50E0#00008000800080D6
(1785000239.454990) can0 18F01D21#B8811680FFFFFFFF
(1785000239.483526) can0 09F11219#E0FEFFFF7FFF7FFC
(1785000239.546883) can0 18FF50E0#00008000800080D7
(1785000239.553424) can0 09F112F8#FFC0750000FF7FFD
(1785000239.553913) can0 09F8011C#B26C2618026B5BC1
(1785000239.555106) can0 18F01D21#B8811680FFFFFFFF
(1785000239.557556) can0 18FEE81C#FA0E0000BB63557E
(1785000239.583609) can0 09F11219#E1FEFFFF7FFF7FFC
(1785000239.647586) can0 18FF50E0#00008000800080D8
(1785000239.655192) can0 18F01D21#B8811680FFFFFFFF
(1785000239.683582) can0 09F11219#E2FEFFFF7FFF7FFC
(1785000239.700352) can0 09F112F8#FFC4750000FF7FFD
(1785000239.748670) can0 18FF50E0#00008000800080D9
(1785000239.754549) can0 18F01D21#B8811680FFFFFFFF
(1785000239.783561) can0 09F11219#E3FEFFFF7FFF7FFC
(1785000239.850251) can0 18FF50E0#00008000800080DA
(1785000239.853718) can0 09F112F8#FFC7750000FF7FFD
(1785000239.854894) can0 18F01D21#B8811680FFFFFFFF
(1785000239.884174) can0 09F11219#E4FEFFFF7FFF7FFC
(1785000239.951580) can0 18FF50E0#00008000800080DB
(1785000239.955318) can0 18F01D21#B8811680FFFFFFFF
(1785000239.984936) can0 09F11219#E5FEFFFF7FFF7FFC
(1785000239.994423) can0 09F112F8#FFC8750000FF7FFD
(1785000240.052591) can0 18FF50E0#00008000800080DC
(1785000240.054896) can0 18F01D21#B8811680FFFFFFFF
(1785000240.055471) can0 09F8011C#B06C2618006B5BC1
(1785000240.060253) can0 18FEE81C#FA0E0000BC63547E
(1785000240.083976) can0 09F11219#E6FEFFFF7FFF7FFC
(1785000240.145537) can0 09F112F8#FFCC750000FF7FFD
(1785000240.153848) can0 18FF50E0#00008000800080DD
(1785000240.155445) can0 18F01D21#B8811680FFFFFFFF
(1785000240.183598) can0 09F11219#E7FEFFFF7FFF7FFC
(1785000240.254450) can0 18FF50E0#00008000800080DE
(1785000240.255358) can0 18F01D21#B8811680FFFFFFFF
(1785000240.284123) can0 09F11219#E8FEFFFF7FFF7FFC
(1785000240.290062) can0 09F112F8#FFD1750000FF7FFD
(1785000240.354907) can0 18F01D21#B8811680FFFFFFFF
(1785000240.355897) can0 18FF50E0#00008000800080DF
(1785000240.384280) can0 09F11219#E9FEFFFF7FFF7FFC
(1785000240.440980) can0 09F112F8#FFD8750000FF7FFD
(1785000240.455070) can0 18F01D21#B8811680FFFFFFFF
(1785000240.458774) can0 18FF50E0#00008000800080E0
(1785000240.483579) can0 09F11219#EAFEFFFF7FFF7FFC
(1785000240.555431) can0 18F01D21#B8811680FFFFFFFF
(1785000240.562602) can0 09F8011C#B66C2618026B5BC1
(1785000240.565659) can0 18FEE81C#FA0E0000BC63537E
(1785000240.566587) can0 18FF50E0#00008000800080E1
(1785000240.583619) can0 09F11219#EBFEFFFF7FFF7FFC
(1785000240.587653) can0 09F112F8#FFDD750000FF7FFD
(1785000240.654787) can0 18F01D21#B8811680FFFFFFFF
(1785000240.667271) can0 18FF50E0#00008000800080E2
(1785000240.683638) can0 09F11219#ECFEFFFF7FFF7FFC
(1785000240.737436) can0 09F112F8#FFDF750000FF7FFD
(1785000240.755105) can0 18F01D21#B8811680FFFFFFFF
(1785000240.780473) can0 18FF50E0#00008000800080E3
(1785000240.783635) can0 09F11219#EDFEFFFF7FFF7FFC
(1785000240.854462) can0 18F01D21#B8811680FFFFFFFF
(1785000240.881527) can0 18FF50E0#00008000800080E4
(1785000240.884317) can0 09F11219#EEFEFFFF7FFF7FFC
(1785000240.884911) can0 09F112F8#FFE2750000FF7FFD
(1785000240.954846) can0 18F01D21#B8811680FFFFFFFF
(1785000240.982145) can0 18FF50E0#00008000800080E5
(1785000240.983721) can0 09F11219#EFFEFFFF7FFF7FFC
(1785000241.035446) can0 09F112F8#FFE8750000FF7FFD
(1785000241.055192) can0 18F01D21#B8811680FFFFFFFF
(1785000241.065133) can0 09F8011C#B86C2618026B5BC1
(1785000241.068485) can0 18FEE81C#FA0E0000BE63537E
(1785000241.083944) can0 09F11219#F0FEFFFF7FFF7FFC
(1785000241.085460) can0 18FF50E0#00008000800080E6
(1785000241.154558) can0 18F01D21#B8811680FFFFFFFF
(1785000241.183999) can0 09F11219#F1FEFFFF7FFF7FFC
(1785000241.184745) can0 09F112F8#FFEB750000FF7FFD
(1785000241.192636) can0 18FF50E0#00008000800080E7
(1785000241.254884) can0 18F01D21#B8811680FFFFFFFF
(1785000241.283618) can0 09F11219#F2FEFFFF7FFF7FFC
(1785000241.293300) can0 18FF50E0#00008000800080E8
(1785000241.334477) can0 09F112F8#FFE9750000FF7FFD
(1785000241.355307) can0 18F01D21#B8811680FFFFFFFF
(1785000241.384432) can0 09F11219#F3FEFFFF7FFF7FFC
(1785000241.397082) can0 18FF50E0#00008000800080E9
(1785000241.454592) can0 18F01D21#B8811680FFFFFFFF
(1785000241.483598) can0 09F11219#F4FEFFFF7FFF7FFC
(1785000241.486436) can0 09F112F8#FFE9750000FF7FFD
(1785000241.498248) can0 18FF50E0#00008000800080EA
(1785000241.554952) can0 18F01D21#B8811680FFFFFFFF
(1785000241.569683) can0 09F8011C#BC6C2618026B5BC1
(1785000241.572722) can0 18FEE81C#FA0E0000C363527E
(1785000241.583596) can0 09F11219#F5FEFFFF7FFF7FFC
(1785000241.600854) can0 18FF50E0#00008000800080EB
(1785000241.630105) can0 09F112F8#FFEB750000FF7FFD
(1785000241.655388) can0 18F01D21#B8811680FFFFFFFF
(1785000241.683684) can0 09F11219#F6FEFFFF7FFF7FFC
(1785000241.703814) can0 18FF50E0#00008000800080EC
(1785000241.754635) can0 18F01D21#B8811680FFFFFFFF
(1785000241.780601) can0 09F112F8#FFEF750000FF7FFD
(1785000241.783666) can0 09F11219#F7FEFFFF7FFF7FFC
(1785000241.805333) can0 18FF50E0#00008000800080ED
(1785000241.855010) can0 18F01D21#B8811680FFFFFFFF
(1785000241.884222) can0 09F11219#F8FEFFFF7FFF7FFC
(1785000241.906072) can0 18FF50E0#00008000800080EE
(1785000241.931250) can0 09F112F8#FFEF750000FF7FFD
(1785000241.955435) can0 18F01D21#B8811680FFFFFFFF
(1785000241.985009) can0 09F11219#F9FEFFFF7FFF7FFC
(1785000242.007256) can0 18FF50E0#00008000800080EF
(1785000242.054866) can0 18F01D21#B8811680FFFFFFFF
(1785000242.071234) can0 09F8011C#C06C2618026B5BC1
(1785000242.075292) can0 18FEE81C#FA0E0000C563517E
(1785000242.080102) can0 09F112F8#FFED750000FF7FFD
(1785000242.083914) can0 09F11219#FAFEFFFF7FFF7FFC
(1785000242.108462) can0 18FF50E0#00008000800080F0
(1785000242.155130) can0 18F01D21#B8811680FFFFFFFF
(1785000242.183652) can0 09F11219#00FEFFFF7FFF7FFC
(1785000242.209718) can0 18FF50E0#00008000800080F1
(1785000242.234755) can0 09F112F8#FFEA750000FF7FFD
(1785000242.255806) can0 18F01D21#B8811680FFFFFFFF
(1785000242.283681) can0 09F11219#01FEFFFF7FFF7FFC
(1785000242.310355) can0 18FF50E0#00008000800080F2
(1785000242.354853) can0 18F01D21#B8811680FFFFFFFF
(1785000242.376475) can0 09F112F8#FFE7750000FF7FFD
(1785000242.384313) can0 09F11219#02FEFFFF7FFF7FFC
(1785000242.413520) can0 18FF50E0#00008000800080F3
(1785000242.455197) can0 18F01D21#B8811680FFFFFFFF
(1785000242.483702) can0 09F11219#03FEFFFF7FFF7FFC
(1785000242.515619) can0 18FF50E0#00008000800080F4
(1785000242.524511) can0 09F112F8#FFE3750000FF7FFD
(1785000242.555585) can0 18F01D21#B8811680FFFFFFFF
(1785000242.573725) can0 09F8011C#C86C2618026B5BC1
(1785000242.576810) can0 18FEE81C#FA0E0000C863517E
(1785000242.583704) can0 09F11219#04FEFFFF7FFF7FFC
(1785000242.621491) can0 18FF50E0#00008000800080F5
(1785000242.654898) can0 18F01D21#B8811680FFFFFFFF
(1785000242.671027) can0 09F112F8#FFDF750000FF7FFD
(1785000242.683672) can0 09F11219#05FEFFFF7FFF7FFC
(1785000242.723664) can0 18FF50E0#00008000800080F6
(1785000242.755275) can0 18F01D21#B8811680FFFFFFFF
(1785000242.783683) can0 09F11219#06FEFFFF7FFF7FFC
(1785000242.816744) can0 09F112F8#FFDF750000FF7FFD
(1785000242.824621) can0 18FF50E0#00008000800080F7
(1785000242.855657) can0 18F01D21#B8811680FFFFFFFF
(1785000242.884382) can0 09F11219#07FEFFFF7FFF7FFC
(1785000242.926606) can0 18FF50E0#00008000800080F8
(1785000242.954985) can0 18F01D21#B8811680FFFFFFFF
(1785000242.966487) can0 09F112F8#FFDD750000FF7FFD
(1785000242.983808) can0 09F11219#08FEFFFF7FFF7FFC
(1785000243.027207) can0 18FF50E0#00008000800080F9
(1785000243.055344) can0 18F01D21#B8811680FFFFFFFF
(1785000243.076285) can0 09F8011C#CC6C2618046B5BC1
(1785000243.079299) can0 18FEE81C#FA0E0000C863507E
(1785000243.083935) can0 09F11219#09FEFFFF7FFF7FFC
(1785000243.114514) can0 09F112F8#FFDC750000FF7FFD
(1785000243.127895) can0 18FF50E0#00008000800080FA
(1785000243.155737) can0 18F01D21#B8811680FFFFFFFF
(1785000243.183719) can0 09F11219#0AFEFFFF7FFF7FFC
(1785000243.229478) can0 18FF50E0#00008000800080FB
(1785000243.255073) can0 18F01D21#B8811680FFFFFFFF
(1785000243.256798) can0 09F112F8#FFDE750000FF7FFD
(1785000243.283706) can0 09F11219#0BFEFFFF7FFF7FFC
(1785000243.330657) can0 18FF50E0#00008000800080FC
(1785000243.355439) can0 18F01D21#B8811680FFFFFFFF
(1785000243.384481) can0 09F11219#0CFEFFFF7FFF7FFC
(1785000243.406501) can0 09F112F8#FFE0750000FF7FFD
(1785000243.431492) can0 18FF50E0#00008000800080FD
(1785000243.455832) can0 18F01D21#B8811680FFFFFFFF
(1785000243.483749) can0 09F11219#0DFEFFFF7FFF7FFC
(1785000243.532944) can0 18FF50E0#00008000800080FE
(1785000243.551316) can0 09F112F8#FFE2750000FF7FFD
(1785000243.555146) can0 18F01D21#B8811680FFFFFFFF
(1785000243.577752) can0 09F8011C#D26C2618026B5BC1
(1785000243.581795) can0 18FEE81C#FA0E0000CD63507E
(1785000243.583821) can0 09F11219#0EFEFFFF7FFF7FFC
(1785000243.635139) can0 18FF50E0#00008000800080FF
(1785000243.655487) can0 18F01D21#B8811680FFFFFFFF
(1785000243.683765) can0 09F11219#0FFEFFFF7FFF7FFC
(1785000243.703647) can0 09F112F8#FFE3750000FF7FFD
(1785000243.737628) can0 18FF50E0#0000800080008000
(1785000243.755889) can0 18F01D21#B8811680FFFFFFFF
(1785000243.783753) can0 09F11219#10FEFFFF7FFF7FFC
(1785000243.848923) can0 18FF50E0#0000800080008001
(1785000243.854750) can0 09F112F8#FFE2750000FF7FFD
(1785000243.855318) can0 18F01D21#B8811680FFFFFFFF
(1785000243.884567) can0 09F11219#11FEFFFF7FFF7FFC
(1785000243.949679) can0 18FF50E0#0000800080008002
(1785000243.955548) can0 18F01D21#B8811680FFFFFFFF
(1785000243.983730) can0 09F11219#12FEFFFF7FFF7FFC
(1785000243.996509) can0 09F112F8#FFE5750000FF7FFD
(1785000244.053915) can0 18FF50E0#0000800080008003
(1785000244.056519) can0 18F01D21#B8811680FFFFFFFF
(1785000244.081379) can0 09F8011C#D66C2618006B5BC1
(1785000244.083897) can0 09F11219#13FEFFFF7FFF7FFC
(1785000244.084493) can0 18FEE81C#FA0E0000CD634F7E
(1785000244.149564) can0 09F112F8#FFE7750000FF7FFD
(1785000244.155187) can0 18FF50E0#0000800080008004
(1785000244.155284) can0 18F01D21#B8811680FFFFFFFF
(1785000244.183740) can0 09F11219#14FEFFFF7FFF7FFC
(1785000244.255609) can0 18F01D21#B8811680FFFFFFFF
(1785000244.260211) can0 18FF50E0#0000800080008005
(1785000244.283847) can0 09F11219#15FEFFFF7FFF7FFC
(1785000244.287511) can0 09F112F8#FFE9750000FF7FFD
(1785000244.355000) can0 18F01D21#B8811680FFFFFFFF
(1785000244.361519) can0 18FF50E0#0000800080008006
(1785000244.384692) can0 09F11219#16FEFFFF7FFF7FFC
(1785000244.442542) can0 09F112F8#FFEF750000FF7FFD
(1785000244.455367) can0 18F01D21#B8811680FFFFFFFF
(1785000244.462418) can0 18FF50E0#0000800080008007
(1785000244.483855) can0 09F11219#17FEFFFF7FFF7FFC
(1785000244.555764) can0 18F01D21#B8811680FFFFFFFF
(1785000244.566504) can0 18FF50E0#0000800080008008
(1785000244.582799) can0 09F8011C#DA6C2618FE6A5BC1
(1785000244.584375) can0 09F11219#18FEFFFF7FFF7FFC
(1785000244.585865) can0 18FEE81C#FA0E0000CF634E7E
(1785000244.586502) can0 09F112F8#FFF6750000FF7FFD
(1785000244.655076) can0 18F01D21#B8811680FFFFFFFF
(1785000244.668858) can0 18FF50E0#0000800080008009
(1785000244.683824) can0 09F11219#19FEFFFF7FFF7FFC
(1785000244.736519) can0 09F112F8#FFFB750000FF7FFD
(1785000244.755467) can0 18F01D21#B8811680FFFFFFFF
(1785000244.770856) can0 18FF50E0#000080008000800A
(1785000244.783868) can0 09F11219#1AFEFFFF7FFF7FFC
(1785000244.855836) can0 18F01D21#B8811680FFFFFFFF
(1785000244.873738) can0 18FF50E0#000080008000800B
(1785000244.884903) can0 09F11219#1BFEFFFF7FFF7FFC
(1785000244.887521) can0 09F112F8#FF02760000FF7FFD
(1785000244.955529) can0 18F01D21#B8811680FFFFFFFF
(1785000244.978345) can0 18FF50E0#000080008000800C
(1785000244.983862) can0 09F11219#1CFEFFFF7FFF7FFC
(1785000245.030473) can0 09F112F8#FF0B760000FF7FFD
(1785000245.056007) can0 18F01D21#B8811680FFFFFFFF
(1785000245.082361) can0 18FF50E0#000080008000800D
(1785000245.083956) can0 09F11219#1DFEFFFF7FFF7FFC
(1785000245.084516) can0 09F8011C#DE6C2618FE6A5BC1
(1785000245.088375) can0 18FEE81C#FA0E0000CF634E7E
(1785000245.155893) can0 18F01D21#B8811680FFFFFFFF
(1785000245.180209) can0 09F112F8#FF10760000FF7FFD
(1785000245.183874) can0 09F11219#1EFEFFFF7FFF7FFC
(1785000245.183911) can0 18FF50E0#000080008000800E
(1785000245.255256) can0 18F01D21#B8811680FFFFFFFF
(1785000245.283919) can0 09F11219#1FFEFFFF7FFF7FFC
(1785000245.287764) can0 18FF50E0#000080008000800F
(1785000245.324695) can0 09F112F8#FF16760000FF7FFD
(1785000245.355552) can0 18F01D21#B8811680FFFFFFFF
(1785000245.384526) can0 09F11219#20FEFFFF7FFF7FFC
(1785000245.388534) can0 18FF50E0#0000800080008010
(1785000245.455945) can0 18F01D21#B8811680FFFFFFFF
(1785000245.474538) can0 09F112F8#FF20760000FF7FFD
(1785000245.483814) can0 09F11219#21FEFFFF7FFF7FFC
(1785000245.490334) can0 18FF50E0#0000800080008011
(1785000245.555295) can0 18F01D21#B8811680FFFFFFFF
(1785000245.583802) can0 09F11219#22FEFFFF7FFF7FFC
(1785000245.585805) can0 09F8011C#E66C2618FE6A5BC1
(1785000245.588880) can0 18FEE81C#FA0E0000D1634D7E
(1785000245.591267) can0 18FF50E0#0000800080008012
(1785000245.623561) can0 09F112F8#FF27760000FF7FFD
(1785000245.655635) can0 18F01D21#B8811680FFFFFFFF
(1785000245.683849) can0 09F11219#23FEFFFF7FFF7FFC
(1785000245.692801) can0 18FF50E0#0000800080008013
(1785000245.756010) can0 18F01D21#B8811680FFFFFFFF
(1785000245.771122) can0 09F112F8#FF2F760000FF7FFD
(1785000245.783815) can0 09F11219#24FEFFFF7FFF7FFC
(1785000245.793915) can0 18FF50E0#0000800080008014
(1785000245.855356) can0 18F01D21#B8811680FFFFFFFF
(1785000245.884632) can0 09F11219#25FEFFFF7FFF7FFC
(1785000245.894971) can0 18FF50E0#0000800080008015
(1785000245.917537) can0 09F112F8#FF33760000FF7FFD
(1785000245.955761) can0 18F01D21#B8811680FFFFFFFF
(1785000245.983848) can0 09F11219#26FEFFFF7FFF7FFC
(1785000245.997571) can0 18FF50E0#0000800080008016
(1785000246.056103) can0 18F01D21#B8811680FFFFFFFF
(1785000246.065644) can0 09F112F8#FF3C760000FF7FFD
(1785000246.083800) can0 09F11219#27FEFFFF7FFF7FFC
(1785000246.088348) can0 09F8011C#EA6C2618FE6A5BC1
(1785000246.091408) can0 18FEE81C#FA0E0000D1634D7E
(1785000246.099604) can0 18FF50E0#0000800080008017
(1785000246.155433) can0 18F01D21#B8811680FFFFFFFF
(1785000246.183796) can0 09F11219#28FEFFFF7FFF7FFC
(1785000246.201545) can0 18FF50E0#0000800080008018
(1785000246.210210) can0 09F112F8#FF43760000FF7FFD
(1785000246.255804) can0 18F01D21#B8811680FFFFFFFF
(1785000246.283816) can0 09F11219#29FEFFFF7FFF7FFC
(1785000246.309377) can0 18FF50E0#0000800080008019
(1785000246.356174) can0 18F01D21#B8811680FFFFFFFF
(1785000246.356896) can0 09F112F8#FF44760000FF7FFD
(1785000246.384728) can0 09F11219#2AFEFFFF7FFF7FFC
(1785000246.412551) can0 18FF50E0#000080008000801A
(1785000246.455484) can0 18F01D21#B8811680FFFFFFFF
(1785000246.483857) can0 09F11219#2BFEFFFF7FFF7FFC
(1785000246.502928) can0 09F112F8#FF47760000FF7FFD
(1785000246.514310) can0 18FF50E0#000080008000801B
(1785000246.555889) can0 18F01D21#B8811680FFFFFFFF
(1785000246.583878) can0 09F11219#2CFEFFFF7FFF7FFC
(1785000246.589864) can0 09F8011C#EE6C2618006B5BC1
(1785000246.593931) can0 18FEE81C#FA0E0000D4634C7E
(1785000246.624157) can0 18FF50E0#000080008000801C
(1785000246.655546) can0 09F112F8#FF4B760000FF7FFD
(1785000246.656231) can0 18F01D21#B8811680FFFFFFFF
(1785000246.683919) can0 09F11219#2DFEFFFF7FFF7FFC
(1785000246.726113) can0 18FF50E0#000080008000801D
(1785000246.755587) can0 18F01D21#B8811680FFFFFFFF
(1785000246.783904) can0 09F11219#2EFEFFFF7FFF7FFC
(1785000246.801151) can0 09F112F8#FF4E760000FF7FFD
(1785000246.829956) can0 18FF50E0#000080008000801E
(1785000246.856355) can0 18F01D21#B8811680FFFFFFFF
(1785000246.884572) can0 09F11219#2FFEFFFF7FFF7FFC
(1785000246.932596) can0 18FF50E0#000080008000801F
(1785000246.947568) can0 09F112F8#FF50760000FF7FFD
(1785000246.956299) can0 18F01D21#B8811680FFFFFFFF
(1785000246.983851) can0 09F11219#30FEFFFF7FFF7FFC
(1785000247.035989) can0 18FF50E0#0000800080008020
(1785000247.055661) can0 18F01D21#B8811680FFFFFFFF
(1785000247.083830) can0 09F11219#31FEFFFF7FFF7FFC
(1785000247.091396) can0 09F8011C#F26C2618FE6A5BC1
(1785000247.093970) can0 09F112F8#FF4C760000FF7FFD
(1785000247.094561) can0 18FEE81C#FA0E0000D6634B7E
(1785000247.136817) can0 18FF50E0#0000800080008021
(1785000247.156082) can0 18F01D21#B8811680FFFFFFFF
(1785000247.183852) can0 09F11219#32FEFFFF7FFF7FFC
(1785000247.239603) can0 18FF50E0#0000800080008022
(1785000247.240570) can0 09F112F8#FF4A760000FF7FFD
(1785000247.255363) can0 18F01D21#B8811680FFFFFFFF
(1785000247.283881) can0 09F11219#33FEFFFF7FFF7FFC
(1785000247.342882) can0 18FF50E0#0000800080008023
(1785000247.355724) can0 18F01D21#B8811680FFFFFFFF
(1785000247.384602) can0 09F11219#34FEFFFF7FFF7FFC
(1785000247.391237) can0 09F112F8#FF47760000FF7FFD
(1785000247.445828) can0 18FF50E0#0000800080008024
(1785000247.456123) can0 18F01D21#B8811680FFFFFFFF
(1785000247.483842) can0 09F11219#35FEFFFF7FFF7FFC
(1785000247.530572) can0 09F112F8#FF45760000FF7FFD
(1785000247.548497) can0 18FF50E0#0000800080008025
(1785000247.555467) can0 18F01D21#B8811680FFFFFFFF
(1785000247.584375) can0 09F11219#36FEFFFF7FFF7FFC
(1785000247.592924) can0 09F8011C#F46C2618FE6A5BC1
(1785000247.596948) can0 18FEE81C#FA0E0000D6634B7E
(1785000247.649419) can0 18FF50E0#0000800080008026
(1785000247.655828) can0 18F01D21#B8811680FFFFFFFF
(1785000247.683612) can0 09F112F8#FF43760000FF7FFD
(1785000247.684176) can0 09F11219#37FEFFFF7FFF7FFC
(1785000247.756248) can0 18F01D21#B8811680FFFFFFFF
(1785000247.761961) can0 18FF50E0#0000800080008027
(1785000247.783884) can0 09F11219#38FEFFFF7FFF7FFC
(1785000247.827600) can0 09F112F8#FF43760000FF7FFD
(1785000247.855524) can0 18F01D21#B8811680FFFFFFFF
(1785000247.862731) can0 18FF50E0#0000800080008028
(1785000247.884691) can0 09F11219#39FEFFFF7FFF7FFC
(1785000247.955885) can0 18F01D21#B8811680FFFFFFFF
(1785000247.963650) can0 18FF50E0#0000800080008029
(1785000247.974616) can0 09F112F8#FF42760000FF7FFD
(1785000247.983931) can0 09F11219#3AFEFFFF7FFF7FFC
(1785000248.056284) can0 18F01D21#B8811680FFFFFFFF
(1785000248.066931) can0 18FF50E0#000080008000802A
(1785000248.083907) can0 09F11219#3BFEFFFF7FFF7FFC
(1785000248.095426) can0 09F8011C#F66C2618FE6A5BC1
(1785000248.098490) can0 18FEE81C#FA0E0000D8634A7E
(1785000248.123777) can0 09F112F8#FF42760000FF7FFD
(1785000248.155618) can0 18F01D21#B8811680FFFFFFFF
(1785000248.173870) can0 18FF50E0#000080008000802B
(1785000248.183922) can0 09F11219#3CFEFFFF7FFF7FFC
(1785000248.255968) can0 18F01D21#B8811680FFFFFFFF
(1785000248.267016) can0 09F112F8#FF44760000FF7FFD
(1785000248.276729) can0 18FF50E0#000080008000802C
(1785000248.283903) can0 09F11219#3DFEFFFF7FFF7FFC
(1785000248.356347) can0 18F01D21#B8811680FFFFFFFF
(1785000248.377394) can0 18FF50E0#000080008000802D
(1785000248.384507) can0 09F11219#3EFEFFFF7FFF7FFC
(1785000248.420328) can0 09F112F8#FF45760000FF7FFD
(1785000248.455664) can0 18F01D21#B8811680FFFFFFFF
(1785000248.478466) can0 18FF50E0#000080008000802E
(1785000248.484266) can0 09F11219#3FFEFFFF7FFF7FFC
(1785000248.556006) can0 18F01D21#B8811680FFFFFFFF
(1785000248.566984) can0 09F112F8#FF42760000FF7FFD
(1785000248.579489) can0 18FF50E0#000080008000802F
(1785000248.583920) can0 09F11219#40FEFFFF7FFF7FFC
(1785000248.596964) can0 09F8011C#FC6C2618FA6A5BC1
(1785000248.600015) can0 18FEE81C#FA0E0000DC634A7E
(1785000248.656409) can0 18F01D21#B8811680FFFFFFFF
(1785000248.680422) can0 18FF50E0#0000800080008030
(1785000248.683962) can0 09F11219#41FEFFFF7FFF7FFC
(1785000248.717838) can0 09F112F8#FF42760000FF7FFD
(1785000248.755732) can0 18F01D21#B8811680FFFFFFFF
(1785000248.781316) can0 18FF50E0#0000800080008031
(1785000248.783908) can0 09F11219#42FEFFFF7FFF7FFC
(1785000248.856134) can0 18F01D21#B8811680FFFFFFFF
(1785000248.870610) can0 09F112F8#FF45760000FF7FFD
(1785000248.883720) can0 18FF50E0#0000800080008032
(1785000248.884616) can0 09F11219#43FEFFFF7FFF7FFC
(1785000248.956469) can0 18F01D21#B8811680FFFFFFFF
(1785000248.983890) can0 09F11219#44FEFFFF7FFF7FFC
(1785000248.985867) can0 18FF50E0#0000800080008033
(1785000249.013645) can0 09F112F8#FF48760000FF7FFD
(1785000249.056141) can0 18F01D21#B8811680FFFFFFFF
(1785000249.083880) can0 09F11219#45FEFFFF7FFF7FFC
(1785000249.088189) can0 18FF50E0#0000800080008034
(1785000249.098476) can0 09F8011C#026D2618FA6A5BC1
(1785000249.102505) can0 18FEE81C#FA0E0000DE634A7E
(1785000249.156187) can0 18F01D21#B8811680FFFFFFFF
(1785000249.161673) can0 09F112F8#FF4A760000FF7FFD
(1785000249.183970) can0 09F11219#46FEFFFF7FFF7FFC
(1785000249.190320) can0 18FF50E0#0000800080008035
(1785000249.256544) can0 18F01D21#B8811680FFFFFFFF
(1785000249.283984) can0 09F11219#47FEFFFF7FFF7FFC
(1785000249.293089) can0 18FF50E0#0000800080008036
(1785000249.304008) can0 09F112F8#FF48760000FF7FFD
(1785000249.355883) can0 18F01D21#B8811680FFFFFFFF
(1785000249.384890) can0 09F11219#48FEFFFF7FFF7FFC
(1785000249.402649) can0 18FF50E0#0000800080008037
(1785000249.456270) can0 18F01D21#B8811680FFFFFFFF
(1785000249.456815) can0 09F112F8#FF4A760000FF7FFD
(1785000249.484008) can0 09F11219#49FEFFFF7FFF7FFC
(1785000249.503623) can0 18FF50E0#0000800080008038
(1785000249.556637) can0 18F01D21#B8811680FFFFFFFF
(1785000249.584022) can0 09F11219#4AFEFFFF7FFF7FFC
(1785000249.599936) can0 09F8011C#086D2618F66A5BC1
(1785000249.603015) can0 18FEE81C#FA0E0000E4634A7E
(1785000249.604800) can0 18FF50E0#0000800080008039
(1785000249.611689) can0 09F112F8#FF4B760000FF7FFD
(1785000249.655974) can0 18F01D21#B8811680FFFFFFFF
(1785000249.684064) can0 09F11219#4BFEFFFF7FFF7FFC
(1785000249.705629) can0 18FF50E0#000080008000803A
(1785000249.751233) can0 09F112F8#FF4C760000FF7FFD
(1785000249.756314) can0 18F01D21#B8811680B8811680
(1785000249.784035) can0 09F11219#4CFEFFFF7FFF7FFC
(1785000249.812752) can0 18FF50E0#000080008000803B
(1785000249.856705) can0 18F01D21#B8811680B8811680
(1785000249.884764) can0 09F11219#4DFEFFFF7FFF7FFC
(1785000249.900639) can0 09F112F8#FF4D760000FF7FFD
(1785000249.913628) can0 18FF50E0#000080008000803C
(1785000249.956092) can0 18F01D21#B8811680B8811680
(1785000249.983970) can0 09F11219#4EFEFFFF7FFF7FFC
(1785000250.014390) can0 18FF50E0#000080008000803D
(1785000250.043019) can0 09F112F8#FF4F760000FF7FFD
(1785000250.056521) can0 18F01D21#B8811680B8811680
(1785000250.084005) can0 09F11219#4FFEFFFF7FFF7FFC
(1785000250.102491) can0 09F8011C#106D2618F46A5BC1
(1785000250.105536) can0 18FEE81C#FA0E0000ED634A7E
(1785000250.116081) can0 18FF50E0#000080008000803E
(1785000250.156738) can0 18F01D21#B8811680B8811680
(1785000250.183968) can0 09F11219#50FEFFFF7FFF7FFC
(1785000250.194663) can0 09F112F8#FF52760000FF7FFD
(1785000250.216879) can0 18FF50E0#000080008000803F
(1785000250.256122) can0 18F01D21#B8811680B8811680
(1785000250.284038) can0 09F11219#51FEFFFF7FFF7FFC
(1785000250.320115) can0 18FF50E0#0000800080008040
(1785000250.341260) can0 09F112F8#FF51760000FF7FFD
(1785000250.356457) can0 18F01D21#B8811680B8811680
(1785000250.384566) can0 09F11219#52FEFFFF7FFF7FFC
(1785000250.427878) can0 18FF50E0#0000800080008041
(1785000250.455929) can0 18F01D21#B8811680B8811680
(1785000250.483987) can0 09F11219#53FEFFFF7FFF7FFC
(1785000250.490951) can0 09F112F8#FF4F760000FF7FFD
(1785000250.528704) can0 18FF50E0#0000800080008042
(1785000250.556207) can0 18F01D21#B8811680B8811680
(1785000250.583980) can0 09F11219#54FEFFFF7FFF7FFC
(1785000250.603980) can0 09F8011C#166D2618F66A5BC1
(1785000250.608067) can0 18FEE81C#FA0E0000F9634A7E
(1785000250.629558) can0 18FF50E0#0000800080008043
(1785000250.641568) can0 09F112F8#FF4D760000FF7FFD
(1785000250.656529) can0 18F01D21#B8811680B8811680
(1785000250.683981) can0 09F11219#55FEFFFF7FFF7FFC
(1785000250.730396) can0 18FF50E0#0000800080008044
(1785000250.755899) can0 18F01D21#B8811680B8811680
(1785000250.783667) can0 09F112F8#FF4C760000FF7FFD
(1785000250.784223) can0 09F11219#56FEFFFF7FFF7FFC
(1785000250.831968) can0 18FF50E0#0000800080008045
(1785000250.856262) can0 18F01D21#B8811680B8811680
(1785000250.884649) can0 09F11219#57FEFFFF7FFF7FFC
(1785000250.934772) can0 18FF50E0#0000800080008046
(1785000250.935701) can0 09F112F8#FF4A760000FF7FFD
(1785000250.956671) can0 18F01D21#B8811680B8811680
(1785000250.983983) can0 09F11219#58FEFFFF7FFF7FFC
(1785000251.037364) can0 18FF50E0#0000800080008047
(1785000251.055973) can0 18F01D21#B8811680B8811680
(1785000251.080699) can0 09F112F8#FF49760000FF7FFD
(1785000251.084010) can0 09F11219#59FEFFFF7FFF7FFC
(1785000251.105496) can0 09F8011C#1A6D2618F66A5BC1
(1785000251.108579) can0 18FEE81C#FA0E000004644B7E
(1785000251.140562) can0 18FF50E0#0000800080008048
(1785000251.156326) can0 18F01D21#B8811680B8811680
(1785000251.183975) can0 09F11219#5AFEFFFF7FFF7FFC
(1785000251.235709) can0 09F112F8#FF45760000FF7FFD
(1785000251.241725) can0 18FF50E0#0000800080008049
(1785000251.256684) can0 18F01D21#B8811680B8811680
(1785000251.283995) can0 09F11219#5BFEFFFF7FFF7FFC
(1785000251.345824) can0 18FF50E0#000080008000804A
(1785000251.356014) can0 18F01D21#B8811680B8811680
(1785000251.377739) can0 09F112F8#FF43760000FF7FFD
(1785000251.384722) can0 09F11219#5CFEFFFF7FFF7FFC
(1785000251.455069) can0 18FF50E0#000080008000804B
(1785000251.457155) can0 18F01D21#B8811680B8811680
(1785000251.484081) can0 09F11219#5DFEFFFF7FFF7FFC
(1785000251.527999) can0 09F112F8#FF43760000FF7FFD
(1785000251.556759) can0 18F01D21#B8811680B8811680
(1785000251.557785) can0 18FF50E0#000080008000804C
(1785000251.584090) can0 09F11219#5EFEFFFF7FFF7FFC
(1785000251.607035) can0 09F8011C#1C6D2618F46A5BC1
(1785000251.611085) can0 18FEE81C#FA0E00000F644B7E
(1785000251.656125) can0 18F01D21#B8811680B8811680
(1785000251.663865) can0 18FF50E0#000080008000804D
(1785000251.677748) can0 09F112F8#FF41760000FF7FFD
(1785000251.684036) can0 09F11219#5FFEFFFF7FFF7FFC
(1785000251.756451) can0 18F01D21#B8811680B8811680
(1785000251.764872) can0 18FF50E0#000080008000804E
(1785000251.784004) can0 09F11219#60FEFFFF7FFF7FFC
(1785000251.821609) can0 09F112F8#FF40760000FF7FFD
(1785000251.856889) can0 18F01D21#B8811680B8811680
(1785000251.867024) can0 18FF50E0#000080008000804F
(1785000251.884770) can0 09F11219#61FEFFFF7FFF7FFC
(1785000251.956183) can0 18F01D21#B8811680B8811680
(1785000251.967940) can0 18FF50E0#0000800080008050
(1785000251.970444) can0 09F112F8#FF43760000FF7FFD
(1785000251.984035) can0 09F11219#62FEFFFF7FFF7FFC
(1785000252.056850) can0 18F01D21#B8811680B8811680
(1785000252.074528) can0 18FF50E0#0000800080008051
(1785000252.083999) can0 09F11219#63FEFFFF7FFF7FFC
(1785000252.109554) can0 09F8011C#206D2618F26A5BC1
(1785000252.112617) can0 18FEE81C#FA0E000017644B7E
(1785000252.117243) can0 09F112F8#FF40760000FF7FFD
(1785000252.156913) can0 18F01D21#B8811680B8811680
(1785000252.182135) can0 18FF50E0#0000800080008052
(1785000252.184145) can0 09F11219#64FEFFFF7FFF7FFC
(1785000252.256252) can0 18F01D21#B8811680B8811680
(1785000252.256797) can0 09F112F8#FF39760000FF7FFD
(1785000252.284123) can0 09F11219#65FEFFFF7FFF7FFC
(1785000252.284759) can0 18FF50E0#0000800080008053
(1785000252.356810) can0 18F01D21#B8811680B8811680
(1785000252.384873) can0 09F11219#66FEFFFF7FFF7FFC
(1785000252.386267) can0 18FF50E0#0000800080008054
(1785000252.407754) can0 09F112F8#FF33760000FF7FFD
(1785000252.457012) can0 18F01D21#B8811680B8811680
(1785000252.484165) can0 09F11219#67FEFFFF7FFF7FFC
(1785000252.489737) can0 18FF50E0#0000800080008055
(1785000252.554019) can0 09F112F8#FF34760000FF7FFD
(1785000252.556400) can0 18F01D21#B8811680B8811680
(1785000252.584150) can0 09F11219#68FEFFFF7FFF7FFC
(1785000252.592217) can0 18FF50E0#0000800080008056
(1785000252.611080) can0 09F8011C#266D2618F26A5BC1
(1785000252.614117) can0 18FEE81C#FA0E000021644B7E
(1785000252.656701) can0 18F01D21#B8811680B8811680
(1785000252.684148) can0 09F11219#69FEFFFF7FFF7FFC
(1785000252.696703) can0 18FF50E0#0000800080008057
(1785000252.703749) can0 09F112F8#FF2F760000FF7FFD
(1785000252.757101) can0 18F01D21#B8811680B8811680
(1785000252.784117) can0 09F11219#6AFEFFFF7FFF7FFC
(1785000252.797539) can0 18FF50E0#0000800080008058
(1785000252.851329) can0 09F112F8#FF27760000FF7FFD
(1785000252.856404) can0 18F01D21#B8811680B8811680
(1785000252.884952) can0 09F11219#6BFEFFFF7FFF7FFC
(1785000252.900769) can0 18FF50E0#0000800080008059
(1785000252.956800) can0 18F01D21#B8811680B8811680
(1785000252.984189) can0 09F11219#6CFEFFFF7FFF7FFC
(1785000252.993810) can0 09F112F8#FF23760000FF7FFD
(1785000253.003349) can0 18FF50E0#000080008000805A
(1785000253.057137) can0 18F01D21#B8811680B8811680
(1785000253.084143) can0 09F11219#6DFEFFFF7FFF7FFC
(1785000253.104394) can0 18FF50E0#000080008000805B
(1785000253.112572) can0 09F8011C#2E6D2618F26A5BC1
(1785000253.116611) can0 18FEE81C#FA0E000021644A7E
(1785000253.146120) can0 09F112F8#FF25760000FF7FFD
(1785000253.156441) can0 18F01D21#B8811680B8811680
(1785000253.184184) can0 09F11219#6EFEFFFF7FFF7FFC
(1785000253.207727) can0 18FF50E0#000080008000805C
(1785000253.256809) can0 18F01D21#B8811680B8811680
(1785000253.284165) can0 09F11219#6FFEFFFF7FFF7FFC
(1785000253.287082) can0 09F112F8#FF27760000FF7FFD
(1785000253.309903) can0 18FF50E0#000080008000805D
(1785000253.357215) can0 18F01D21#B8811680B8811680
(1785000253.384776) can0 09F11219#70FEFFFF7FFF7FFC
(1785000253.413545) can0 18FF50E0#000080008000805E
(1785000253.441027) can0 09F112F8#FF27760000FF7FFD
(1785000253.456558) can0 18F01D21#B8811680B8811680
(1785000253.484174) can0 09F11219#71FEFFFF7FFF7FFC
(1785000253.514712) can0 18FF50E0#000080008000805F
(1785000253.556935) can0 18F01D21#B8811680B8811680
(1785000253.584143) can0 09F11219#72FEFFFF7FFF7FFC
(1785000253.587821) can0 09F112F8#FF26760000FF7FFD
(1785000253.614108) can0 09F8011C#326D2618F46A5BC1
(1785000253.615711) can0 18FF50E0#0000800080008060
(1785000253.617334) can0 18FEE81C#FA0E000021644A7E
(1785000253.656273) can0 18F01D21#B8811680B8811680
(1785000253.684152) can0 09F11219#73FEFFFF7FFF7FFC
(1785000253.716424) can0 18FF50E0#0000800080008061
(1785000253.735801) can0 09F112F8#FF2B760000FF7FFD
(1785000253.756621) can0 18F01D21#B8811680B8811680
(1785000253.784181) can0 09F11219#74FEFFFF7FFF7FFC
(1785000253.817531) can0 18FF50E0#0000800080008062
(1785000253.856999) can0 18F01D21#B8811680B8811680
(1785000253.883935) can0 09F112F8#FF2F760000FF7FFD
(1785000253.885319) can0 09F11219#75FEFFFF7FFF7FFC
(1785000253.922730) can0 18FF50E0#0000800080008063
(1785000253.956357) can0 18F01D21#B8811680B8811680
(1785000253.984159) can0 09F11219#76FEFFFF7FFF7FFC
(1785000254.024755) can0 18FF50E0#0000800080008064
(1785000254.026303) can0 09F112F8#FF31760000FF7FFD
(1785000254.056968) can0 18F01D21#B8811680B8811680
(1785000254.084135) can0 09F11219#77FEFFFF7FFF7FFC
(1785000254.117623) can0 09F8011C#3E6D2618FA6A5BC1
(1785000254.120712) can0 18FEE81C#FA0E00002164497E
(1785000254.132547) can0 18FF50E0#0000800080008065
(1785000254.157144) can0 18F01D21#B8811680B8811680
(1785000254.175345) can0 09F112F8#FF2E760000FF7FFD
(1785000254.184236) can0 09F11219#78FEFFFF7FFF7FFC
(1785000254.240752) can0 18FF50E0#0000800080008066
(1785000254.256438) can0 18F01D21#B8811680B8811680
(1785000254.284197) can0 09F11219#79FEFFFF7FFF7FFC
(1785000254.323815) can0 09F112F8#FF2B760000FF7FFD
(1785000254.342628) can0 18FF50E0#0000800080008067
(1785000254.356779) can0 18F01D21#B8811680B8811680
(1785000254.384924) can0 09F11219#7AFEFFFF7FFF7FFC
(1785000254.443587) can0 18FF50E0#0000800080008068
(1785000254.457139) can0 18F01D21#B8811680B8811680
(1785000254.471405) can0 09F112F8#FF2D760000FF7FFD
(1785000254.484171) can0 09F11219#7BFEFFFF7FFF7FFC
(1785000254.545489) can0 18FF50E0#0000800080008069
(1785000254.556475) can0 18F01D21#B8811680B8811680
(1785000254.584193) can0 09F11219#7CFEFFFF7FFF7FFC
(1785000254.620139) can0 09F8011C#466D2618066B5BC1
(1785000254.620757) can0 09F112F8#FF2D760000FF7FFD
(1785000254.624199) can0 18FEE81C#FA0E00002164487E
(1785000254.649084) can0 18FF50E0#000080008000806A
(1785000254.656884) can0 18F01D21#B8811680B8811680
(1785000254.684221) can0 09F11219#7DFEFFFF7FFF7FFC
(1785000254.752992) can0 18FF50E0#000080008000806B
(1785000254.757194) can0 18F01D21#B8811680B8811680
(1785000254.763815) can0 09F112F8#FF30760000FF7FFD
(1785000254.784164) can0 09F11219#7EFEFFFF7FFF7FFC
(1785000254.856548) can0 18F01D21#B8811680B8811680
(1785000254.860119) can0 18FF50E0#000080008000806C
(1785000254.885532) can0 09F11219#7FFEFFFF7FFF7FFC
(1785000254.911756) can0 09F112F8#FF30760000FF7FFD
(1785000254.956935) can0 18F01D21#B8811680B8811680
(1785000254.963120) can0 18FF50E0#000080008000806D
(1785000254.984184) can0 09F11219#80FEFFFF7FFF7FFC
(1785000255.056634) can0 09F112F8#FF30760000FF7FFD
(1785000255.057787) can0 18F01D21#B8811680B8811680
(1785000255.064837) can0 18EEFF00#C82C420E00000051
(1785000255.067386) can0 18FF50E0#000080008000806E
(1785000255.072013) can0 18EEFF1C#0204450E00000042
(1785000255.073116) can0 18EEFFF8#6CDBAF1C008C78C0
(1785000255.075389) can0 18EEFF00#C82C4A0E00000051
(1785000255.086860) can0 18EEFF19#E773B81C009178C0
(1785000255.087531) can0 09F11219#81FEFFFF7FFF7FFC
(1785000255.122653) can0 09F8011C#546D2618106B5BC1
(1785000255.125749) can0 18FEE81C#FA0E00002164477E
(1785000255.138521) can0 19F10D13#0041014501000186
(1785000255.156632) can0 18F01D21#B8811680B8811680
(1785000255.169791) can0 18FF50E0#000080008000806F
(1785000255.184214) can0 09F11219#82FEFFFF7FFF7FFC
(1785000255.205831) can0 09F112F8#FF2A760000FF7FFD
(1785000255.238545) can0 19F10D13#0143014601000185
(1785000255.257065) can0 18F01D21#B8811680B8811680
(1785000255.272884) can0 18FF50E0#000080FAC5008070
(1785000255.284223) can0 09F11219#83FEFFFF7FFF7FFC
(1785000255.338527) can0 19F10D13#0240014601000187
(1785000255.349746) can0 0CF00400#FF7D7D000000FFFF
(1785000255.355201) can0 09F112F8#FF24760000FF7FFD
(1785000255.357351) can0 18F01D21#B8811680B8811680
(1785000255.370517) can0 0CF00400#FF7D7D000000FFFF
(1785000255.374462) can0 18FF50E0#0010870080008071
(1785000255.385291) can0 09F11219#84FEFFFF7FFF7FFC
(1785000255.390779) can0 0CF00400#FF7D7D000000FFFF
(1785000255.409681) can0 0CF00400#FF7D7D000000FFFF
(1785000255.429660) can0 0CF00400#FF7D7D000000FFFF
(1785000255.438542) can0 19F10D13#0341014601000186
(1785000255.451354) can0 0CF00400#FF7D7D000000FFFF
(1785000255.456689) can0 18F01D21#B8811680B8811680
(1785000255.469695) can0 0CF00400#FF7D7D000000FFFF
(1785000255.480268) can0 18FF50E0#0010870680008072
(1785000255.484250) can0 09F11219#85FEFFFF7FFF7FFC
(1785000255.489683) can0 0CF00400#FF7D7D000000FFFF
(1785000255.500770) can0 09F112F8#FF22760000FF7FFD
(1785000255.509694) can0 0CF00400#FF7D7D000000FFFF
(1785000255.529696) can0 0CF00400#FF7D7D000000FFFF
(1785000255.538540) can0 19F10D13#0441014601000186
(1785000255.550846) can0 0CF00400#FF7D7D000000FFFF
(1785000255.557070) can0 18F01D21#B8811680B8811680
(1785000255.569652) can0 0CF00400#FF7D7D000000FFFF
(1785000255.582009) can0 18FF50E0#000F870080008073
(1785000255.584278) can0 09F11219#86FEFFFF7FFF7FFC
(1785000255.589639) can0 0CF00400#FF7D7D000000FFFF
(1785000255.609647) can0 0CF00400#FF7D7D000000FFFF
(1785000255.623183) can0 09F8021C#59FC6B140000FFFF
(1785000255.624180) can0 09F8011C#5A6D2618186B5BC1
(1785000255.628254) can0 18FEE81C#FA0E00002164467E
(1785000255.629866) can0 0CF00400#FF7D7D000000FFFF
(1785000255.638928) can0 19F10D13#0541014601000186
(1785000255.650775) can0 0CF00400#FF7D7D000000FFFF
(1785000255.652838) can0 09F112F8#FF23760000FF7FFD
(1785000255.657612) can0 18F01D21#B8811680B8811680
(1785000255.669658) can0 0CF00400#FF7D7D000000FFFF
(1785000255.683413) can0 18FF50E0#000F870080008074
(1785000255.684345) can0 09F11219#87FEFFFF7FFF7FFC
(1785000255.689663) can0 0CF00400#FF7D7D000000FFFF
(1785000255.709631) can0 0CF00400#FF7D7D000000FFFF
(1785000255.729658) can0 0CF00400#FF7D7D000000FFFF
(1785000255.738531) can0 19F10D13#0641014601000186
(1785000255.750782) can0 0CF00400#FF7D7D000000FFFF
(1785000255.756775) can0 18F01D21#B8811680B8811680
(1785000255.769638) can0 0CF00400#FF7D7D000000FFFF
(1785000255.784194) can0 09F11219#88FEFFFF7FFF7FFC
(1785000255.789631) can0 0CF00400#FF7D7D000000FFFF
(1785000255.790459) can0 18FF50E0#000F870080008075
(1785000255.797870) can0 09F112F8#FF1F760000FF7FFD
(1785000255.809647) can0 0CF00400#FF7D7D000000FFFF
(1785000255.829622) can0 0CF00400#FF7D7D000000FFFF
(1785000255.832652) can0 18EEFF9B#6DAAEF10008278C0
(1785000255.839101) can0 19F10D13#0741014601000186
(1785000255.850752) can0 0CF00400#FF7D7D000000FFFF
(1785000255.857164) can0 18F01D21#B8811680B8811680
(1785000255.869638) can0 0CF00400#FF7D7D000000FFFF
(1785000255.884928) can0 09F11219#89FEFFFF7FFF7FFC
(1785000255.890197) can0 0CF00400#FF7D7D000000FFFF
(1785000255.891412) can0 18FF50E0#000F870080008076
(1785000255.909883) can0 0CF00400#FF7D7D000000FFFF
(1785000255.930104) can0 0CF00400#FF7D7D000000FFFF
(1785000255.938547) can0 19F10D13#0842014601000186
(1785000255.948005) can0 09F112F8#FF1E760000FF7FFD
(1785000255.951291) can0 0CF00400#FF7D7D000000FFFF
(1785000255.957513) can0 18F01D21#B8811680B8811680
(1785000255.969651) can0 0CF00400#FF7D7D000000FFFF
(1785000255.984176) can0 09F11219#8AFEFFFF7FFF7FFC
(1785000255.989632) can0 0CF00400#FF7D7D000000FFFF
(1785000255.993520) can0 18FF50E0#000F870280008077
(1785000256.009652) can0 0CF00400#FF7D7D000000FFFF
(1785000256.029629) can0 0CF00400#FF7D7D000000FFFF
(1785000256.038549) can0 19F10D13#0940014601000187
(1785000256.050785) can0 0CF00400#FF7D7D000000FFFF
(1785000256.056927) can0 18F01D21#B8811680B8811680
(1785000256.069603) can0 0CF00400#FF7D7D000000FFFF
(1785000256.087228) can0 09F11219#8BFEFFFF7FFF7FFC
(1785000256.089627) can0 0CF00400#FF7D7D000000FFFF
(1785000256.100846) can0 18FF50E0#000F870080008078
(1785000256.102022) can0 09F112F8#FF1C760000FF7FFD
(1785000256.109648) can0 0CF00400#FF7D7D000000FFFF
(1785000256.126796) can0 09F8021C#5AFC6B140000FFFF
(1785000256.127783) can0 09F8011C#646D2618206B5BC1
(1785000256.129624) can0 0CF00400#FF7D7D000000FFFF
(1785000256.130795) can0 18FEE81C#FA0E00002164467E
(1785000256.138539) can0 19F10D13#0A41014701000186
(1785000256.150763) can0 0CF00400#FF7D7D000000FFFF
(1785000256.157232) can0 18F01D21#B8811680B8811680
(1785000256.169650) can0 0CF00400#FF7D7D000000FFFF
(1785000256.184206) can0 09F11219#8CFEFFFF7FFF7FFC
(1785000256.189630) can0 0CF00400#FF7D7D000000FFFF
(1785000256.209633) can0 0CF00400#FF7D7D000000FFFF
(1785000256.210764) can0 18FF50E0#000F870080008079
(1785000256.229634) can0 0CF00400#FF7D7D000000FFFF
(1785000256.238542) can0 19F10D13#0B41014701000186
(1785000256.247256) can0 09F112F8#FF1C760000FF7FFD
(1785000256.250769) can0 0CF00400#FF7D7D000000FFFF
(1785000256.257614) can0 18F01D21#B8811680B8811680
(1785000256.269621) can0 0CF00400#FF7D7D000000FFFF
(1785000256.284167) can0 09F11219#8DFEFFFF7FFF7FFC
(1785000256.289634) can0 0CF00400#FF7D7D000000FFFF
(1785000256.309635) can0 0CF00400#FF7D7D000000FFFF
(1785000256.312457) can0 18FF50E0#000F87018000807A
(1785000256.329669) can0 0CF00400#FF7D7D000000FFFF
(1785000256.338548) can0 19F10D13#0C40014701000187
(1785000256.350774) can0 0CF00400#FF7D7D000000FFFF
(1785000256.356943) can0 18F01D21#0F821680B8811680
(1785000256.369608) can0 0CF00400#FF7D7D000000FFFF
(1785000256.385321) can0 09F11219#8EFEFFFF7FFF7FFC
(1785000256.389607) can0 0CF00400#FF7D7D000000FFFF
(1785000256.395764) can0 09F112F8#FF1F760000FF7FFD
(1785000256.409661) can0 0CF00400#FF7D7D000000FFFF
(1785000256.416771) can0 18FF50E0#000F87008000807B
(1785000256.429629) can0 0CF00400#FF7D7D000000FFFF
(1785000256.438558) can0 19F10D13#0D42014701000186
(1785000256.450770) can0 0CF00400#FF7D7D000000FFFF
(1785000256.457285) can0 18F01D21#B8811680B8811680
(1785000256.469626) can0 0CF00400#FF7D7D000000FFFF
(1785000256.484265) can0 09F11219#8FFEFFFF7FFF7FFC
(1785000256.489589) can0 0CF00400#FF7D7D000000FFFF
(1785000256.509604) can0 0CF00400#FF7D7D000000FFFF
(1785000256.520257) can0 18FF50E0#000F87FE7F00807C
(1785000256.529620) can0 0CF00400#FF7D7D000000FFFF
(1785000256.538531) can0 19F10D13#0E41014701000186
(1785000256.540566) can0 09F112F8#FF1E760000FF7FFD
(1785000256.550768) can0 0CF00400#FF7D7D000000FFFF
(1785000256.557654) can0 18F01D21#B8811680B8811680
(1785000256.569604) can0 0CF00400#FF7D7D000000FFFF
(1785000256.584170) can0 09F11219#90FEFFFF7FFF7FFC
(1785000256.589607) can0 0CF00400#FF7D7D000000FFFF
(1785000256.609652) can0 0CF00400#FF7D7D000000FFFF
(1785000256.625363) can0 18FF50E0#000F87008000807D
(1785000256.629616) can0 0CF00400#FF7D7D000000FFFF
(1785000256.632284) can0 09F8021C#5BFC6B140000FFFF
(1785000256.633251) can0 09F8011C#6A6D2618246B5BC1
(1785000256.636547) can0 18FEE81C#FA0E00002164457E
(1785000256.638947) can0 19F10D13#0F40014701000187
(1785000256.650639) can0 0CF00400#FF7D7D000000FFFF
(1785000256.657457) can0 18F01D21#B8811680B8811680
(1785000256.669578) can0 0CF00400#FF7D7D000000FFFF
(1785000256.684190) can0 09F11219#91FEFFFF7FFF7FFC
(1785000256.687289) can0 09F112F8#FF1E760000FF7FFD
(1785000256.689642) can0 0CF00400#FF7D7D000000FFFF
(1785000256.709598) can0 0CF00400#FF7D7D000000FFFF
(1785000256.729291) can0 18FF50E0#000F87008000807E
(1785000256.729571) can0 0CF00400#FF7D7D000000FFFF
(1785000256.738943) can0 19F10D13#1041014701000186
(1785000256.750768) can0 0CF00400#FF7D7D000000FFFF
(1785000256.757366) can0 18F01D21#B8811680B8811680
(1785000256.769599) can0 0CF00400#FF7D7D000000FFFF
(1785000256.784193) can0 09F11219#92FEFFFF7FFF7FFC
(1785000256.789630) can0 0CF00400#FF7D7D000000FFFF
(1785000256.809777) can0 0CF00400#FF7D7D000000FFFF
(1785000256.829981) can0 0CF00400#FF7D7D000000FFFF
(1785000256.835490) can0 18FF50E0#000F87008000807F
(1785000256.837121) can0 09F112F8#FF1F760000FF7FFD
(1785000256.838536) can0 19F10D13#1141014701000186
(1785000256.851255) can0 0CF00400#FF7D7D000000FFFF
(1785000256.856707) can0 18F01D21#B8811680B8811680
(1785000256.869612) can0 0CF00400#FF7D7D000000FFFF
(1785000256.884803) can0 09F11219#93FEFFFF7FFF7FFC
(1785000256.889596) can0 0CF00400#FF7D7D000000FFFF
(1785000256.909589) can0 0CF00400#FF7D7D000000FFFF
(1785000256.929627) can0 0CF00400#FF7D7D000000FFFF
(1785000256.936903) can0 18FF50E0#000F870080008080
(1785000256.938551) can0 19F10D13#1241014701000186
(1785000256.950717) can0 0CF00400#FF7D7D000000FFFF
(1785000256.957083) can0 18F01D21#B8811680B8811680
(1785000256.969603) can0 0CF00400#FF7D7D000000FFFF
(1785000256.984194) can0 09F11219#94FEFFFF7FFF7FFC
(1785000256.986919) can0 09F112F8#FF1B760000FF7FFD
(1785000256.989591) can0 0CF00400#FF7D7D000000FFFF
(1785000257.009599) can0 0CF00400#FF7D7D000000FFFF
(1785000257.029598) can0 0CF00400#FF7D7D000000FFFF
(1785000257.038541) can0 19F10D13#1341014701000186
(1785000257.041507) can0 18FF50E0#000F87FF7F008081
(1785000257.050782) can0 0CF00400#FF7D7D000000FFFF
(1785000257.057629) can0 18F01D21#B8811680B8811680
(1785000257.069581) can0 0CF00400#FF7D7D000000FFFF
(1785000257.089583) can0 0CF00400#FF7D7D000000FFFF
(1785000257.090174) can0 09F11219#95FEFFFF7FFF7FFC
(1785000257.109589) can0 0CF00400#FF7D7D000000FFFF
(1785000257.129603) can0 0CF00400#FF7D7D000000FFFF
(1785000257.135528) can0 09F112F8#FF19760000FF7FFD
(1785000257.138543) can0 19F10D13#1441014701000186
(1785000257.139117) can0 09F8021C#5CFC6B140600FFFF
(1785000257.140196) can0 09F8011C#726D26182A6B5BC1
(1785000257.145130) can0 18FEE81C#FA0E00002164457E
(1785000257.150713) can0 0CF00400#FF7D7D000000FFFF
(1785000257.156904) can0 18F01D21#B8811680B8811680
(1785000257.157978) can0 18FF50E0#000F870080008082
(1785000257.169576) can0 0CF00400#FF7D7D000000FFFF
(1785000257.184362) can0 09F11219#96FEFFFF7FFF7FFC
(1785000257.189633) can0 0CF00400#FF7D7D000000FFFF
(1785000257.209614) can0 0CF00400#FF7D7D000000FFFF
(1785000257.229566) can0 0CF00400#FF7D7D000000FFFF
(1785000257.238552) can0 19F10D13#1543014701000185
(1785000257.250795) can0 0CF00400#FF7D7D000000FFFF
(1785000257.257159) can0 18F01D21#B8811680B8811680
(1785000257.262143) can0 18FF50E0#000F870080008083
(1785000257.269609) can0 0CF00400#FF7D7D000000FFFF
(1785000257.284227) can0 09F11219#97FEFFFF7FFF7FFC
(1785000257.285886) can0 09F112F8#FF18760000FF7FFD
(1785000257.289572) can0 0CF00400#FF7D7D000000FFFF
(1785000257.309578) can0 0CF00400#FF7D7D000000FFFF
(1785000257.329593) can0 0CF00400#FF7D7D000000FFFF
(1785000257.338555) can0 19F10D13#1641014701000186
(1785000257.350721) can0 0CF00400#FF7D7D000000FFFF
(1785000257.357498) can0 18F01D21#B8811680B8811680
(1785000257.362949) can0 18FF50E0#000F870380008084
(1785000257.369568) can0 0CF00400#FF7D7D000000FFFF
(1785000257.385308) can0 09F11219#98FEFFFF7FFF7FFC
(1785000257.389635) can0 0CF00400#FF7D7D000000FFFF
(1785000257.409582) can0 0CF00400#FF7D7D000000FFFF
(1785000257.429580) can0 0CF00400#FF7D7D000000FFFF
(1785000257.435148) can0 09F112F8#FF15760000FF7FFD
(1785000257.438551) can0 19F10D13#1741014701000186
(1785000257.450686) can0 0CF00400#FF7D7D000000FFFF
(1785000257.456885) can0 18F01D21#B8811680B8811680
(1785000257.464556) can0 18FF50E0#000F870080008085
(1785000257.469581) can0 0CF00400#FF7D7D000000FFFF
(1785000257.484255) can0 09F11219#99FEFFFF7FFF7FFC
(1785000257.489608) can0 0CF00400#FF7D7D000000FFFF
(1785000257.509619) can0 0CF00400#FF7D7D000000FFFF
(1785000257.529552) can0 0CF00400#FF7D7D000000FFFF
(1785000257.538524) can0 19F10D13#1842014701000186
(1785000257.550698) can0 0CF00400#FF7D7D000000FFFF
(1785000257.557237) can0 18F01D21#B8811680B8811680
(1785000257.568115) can0 18FF50E0#000F870280008086
(1785000257.569702) can0 0CF00400#FF7D7D000000FFFF
(1785000257.584281) can0 09F11219#9AFEFFFF7FFF7FFC
(1785000257.585900) can0 09F112F8#FF12760000FF7FFD
(1785000257.589571) can0 0CF00400#FF7D7D000000FFFF
(1785000257.609552) can0 0CF00400#FF7D7D000000FFFF
(1785000257.629555) can0 0CF00400#FF7D7D000000FFFF
(1785000257.638876) can0 19F10D13#1941014701000186
(1785000257.646466) can0 09F8021C#5DFC6B140100FFFF
(1785000257.647388) can0 09F8011C#766D26182C6B5BC1
(1785000257.650590) can0 0CF00400#FF7D7D000000FFFF
(1785000257.652535) can0 18FEE81C#FA0E00002164457E
(1785000257.657567) can0 18F01D21#B8811680B8811680
(1785000257.669586) can0 0CF00400#FF7D7D000000FFFF
(1785000257.677448) can0 18FF50E0#000E870080008087
(1785000257.684796) can0 09F11219#9BFEFFFF7FFF7FFC
(1785000257.689564) can0 0CF00400#FF7D7D000000FFFF
(1785000257.709671) can0 0CF00400#FF7D7D000000FFFF
(1785000257.729858) can0 0CF00400#FF7D7D000000FFFF
(1785000257.735141) can0 09F112F8#FF13760000FF7FFD
(1785000257.738538) can0 19F10D13#1A41014701000186
(1785000257.751235) can0 0CF00400#FF7D7D000000FFFF
(1785000257.756898) can0 18F01D21#B8811680B8811680
(1785000257.769587) can0 0CF00400#FF7D7D000000FFFF
(1785000257.778395) can0 18FF50E0#000E870080008088
(1785000257.784268) can0 09F11219#9CFEFFFF7FFF7FFC
(1785000257.789551) can0 0CF00400#FF7D7D000000FFFF
(1785000257.809558) can0 0CF00400#FF7D7D000000FFFF
(1785000257.829560) can0 0CF00400#FF7D7D000000FFFF
(1785000257.838558) can0 19F10D13#1B41014701000186
(1785000257.850696) can0 0CF00400#FF7D7D000000FFFF
(1785000257.857281) can0 18F01D21#B8811680B8811680
(1785000257.869562) can0 0CF00400#FF7D7D000000FFFF
(1785000257.877961) can0 09F112F8#FF11760000FF7FFD
(1785000257.879453) can0 18FF50E0#000E870180008089
(1785000257.885450) can0 09F11219#9DFEFFFF7FFF7FFC
(1785000257.889538) can0 0CF00400#FF7D7D000000FFFF
(1785000257.909563) can0 0CF00400#FF7D7D000000FFFF
(1785000257.929570) can0 0CF00400#FF7D7D000000FFFF
(1785000257.938568) can0 19F10D13#1C42014701000186
(1785000257.950697) can0 0CF00400#FF7D7D000000FFFF
(1785000257.957665) can0 18F01D21#B8811680B8811680
(1785000257.969567) can0 0CF00400#FF7D7D000000FFFF
(1785000257.980365) can0 18FF50E0#000E87008000808A
(1785000257.984797) can0 09F11219#9EFEFFFF7FFF7FFC
(1785000257.989539) can0 0CF00400#FF7D7D000000FFFF
(1785000258.009553) can0 0CF00400#FF7D7D000000FFFF
(1785000258.024911) can0 09F112F8#FF0C760000FF7FFD
(1785000258.029563) can0 0CF00400#FF7D7D000000FFFF
(1785000258.038506) can0 19F10D13#1D42014701000186
(1785000258.050648) can0 0CF00400#FF7D7D000000FFFF
(1785000258.057101) can0 18F01D21#B8811680B8811680
(1785000258.070024) can0 0CF00400#FF7D7D000000FFFF
(1785000258.085459) can0 18FF50E0#000E87048000808B
(1785000258.090091) can0 09F11219#9FFEFFFF7FFF7FFC
(1785000258.090667) can0 0CF00400#FF7D7D000000FFFF
(1785000258.109537) can0 0CF00400#FF7D7D000000FFFF
(1785000258.129539) can0 0CF00400#FF7D7D000000FFFF
(1785000258.138551) can0 19F10D13#1E42014701000186
(1785000258.150700) can0 0CF00400#FF7D7D000000FFFF
(1785000258.152007) can0 09F8021C#5EFCBF1A0200FFFF
(1785000258.152954) can0 09F8011C#766D26182E6B5BC1
(1785000258.157576) can0 18F01D21#B8811680B8811680
(1785000258.158127) can0 18FEE81C#9E1300002164467E
(1785000258.169816) can0 0CF00400#FF7D7D000000FFFF
(1785000258.173826) can0 09F112F8#FF07760000FF7FFD
(1785000258.185288) can0 09F11219#A0FEFFFF7FFF7FFC
(1785000258.186691) can0 18FF50E0#000E87008000808C
(1785000258.189542) can0 0CF00400#FF7D7D000000FFFF
(1785000258.209556) can0 0CF00400#FF7D7D000000FFFF
(1785000258.229566) can0 0CF00400#FF7D7D000000FFFF
(1785000258.238560) can0 19F10D13#1F41014701000186
(1785000258.250687) can0 0CF00400#FF7D7D000000FFFF
(1785000258.257752) can0 18F01D21#B8811680B8811680
(1785000258.269558) can0 0CF00400#FF7D7D000000FFFF
(1785000258.284803) can0 09F11219#A1FEFFFF7FFF7FFC
(1785000258.289512) can0 0CF00400#FF7D7D000000FFFF
(1785000258.289871) can0 18FF50E0#000E87008000808D
(1785000258.309629) can0 0CF00400#FF7D7D000000FFFF
(1785000258.327230) can0 09F112F8#FF06760000FF7FFD
(1785000258.329565) can0 0CF00400#FF7D7D000000FFFF
(1785000258.338564) can0 19F10D13#2041014701000186
(1785000258.350682) can0 0CF00400#FF7D7D000000FFFF
(1785000258.357087) can0 18F01D21#B8811680B8811680
(1785000258.369553) can0 0CF00400#FF7D7D000000FFFF
(1785000258.385428) can0 09F11219#A2FEFFFF7FFF7FFC
(1785000258.389548) can0 0CF00400#FF7D7D000000FFFF
(1785000258.392370) can0 18FF50E0#000E87028000808E
(1785000258.409562) can0 0CF00400#FF7D7D000000FFFF
(1785000258.429521) can0 0CF00400#FF7D7D000000FFFF
(1785000258.438557) can0 19F10D13#2141014701000186
(1785000258.450662) can0 0CF00400#FF7D7D000000FFFF
(1785000258.457865) can0 18F01D21#B8811680B8811680
(1785000258.469559) can0 0CF00400#FF7D7D000000FFFF
(1785000258.470614) can0 09F112F8#FF05760000FF7FFD
(1785000258.484440) can0 09F11219#A3FEFFFF7FFF7FFC
(1785000258.489537) can0 0CF00400#FF7D7D000000FFFF
(1785000258.493124) can0 18FF50E0#000E87008000808F
(1785000258.509513) can0 0CF00400#FF7D7D000000FFFF
(1785000258.529544) can0 0CF00400#FF7D7D000000FFFF
(1785000258.538809) can0 19F10D13#2241014801000186
(1785000258.550660) can0 0CF00400#FF7D7D000000FFFF
(1785000258.557823) can0 18F01D21#B8811680B8811680
(1785000258.569517) can0 0CF00400#FF7D7D000000FFFF
(1785000258.584383) can0 09F11219#A4FEFFFF7FFF7FFC
(1785000258.589522) can0 0CF00400#FF7D7D000000FFFF
(1785000258.594140) can0 18FF50E0#000E870180008090
(1785000258.609532) can0 0CF00400#FF7D7D000000FFFF
(1785000258.620893) can0 09F112F8#FF02760000FF7FFD
(1785000258.629816) can0 0CF00400#FF7D7D000000FFFF
(1785000258.638544) can0 19F10D13#2341014801000186
(1785000258.650577) can0 0CF00400#FF7D7D000000FFFF
(1785000258.655685) can0 09F8021C#5FFCBF1A0300FFFF
(1785000258.656811) can0 09F8011C#786D2618306B5BC1
(1785000258.658477) can0 18F01D21#B8811680B8811680
(1785000258.662593) can0 18FEE81C#9E1300002164467E
(1785000258.669528) can0 0CF00400#FF7D7D000000FFFF
(1785000258.684428) can0 09F11219#A5FEFFFF7FFF7FFC
(1785000258.691186) can0 0CF00400#FF7D7D000000FFFF
(1785000258.696345) can0 18FF50E0#000E870080008091
(1785000258.709531) can0 0CF00400#FF7D7D000000FFFF
(1785000258.729520) can0 0CF00400#FF7D7D000000FFFF
(1785000258.738554) can0 19F10D13#2442014801000186
(1785000258.751172) can0 0CF00400#FF7D7D000000FFFF
(1785000258.757535) can0 18F01D21#B8811680B8811680
(1785000258.763921) can0 09F112F8#FF11760000FF7FFD
(1785000258.769532) can0 0CF00400#FF7D7D000000FFFF
(1785000258.784354) can0 09F11219#A6FEFFFF7FFF7FFC
(1785000258.789520) can0 0CF00400#FF7D7D000000FFFF
(1785000258.797286) can0 18FF50E0#000E870080008092
(1785000258.809515) can0 0CF00400#FF7D7D000000FFFF
(1785000258.829541) can0 0CF00400#FF7D7D000000FFFF
(1785000258.838558) can0 19F10D13#2540014801000187
(1785000258.850665) can0 0CF00400#FF7D7D000000FFFF
(1785000258.857887) can0 18F01D21#B8811680B8811680
(1785000258.869538) can0 0CF00400#FF7D7D000000FFFF
(1785000258.884847) can0 09F11219#A7FEFFFF7FFF7FFC
(1785000258.890301) can0 0CF00400#FF7D7D000000FFFF
(1785000258.898883) can0 18FF50E0#000E87F97F008093
(1785000258.909532) can0 0CF00400#FF7D7D000000FFFF
(1785000258.913945) can0 09F112F8#FF20760000FF7FFD
(1785000258.929506) can0 0CF00400#FF7D7D000000FFFF
(1785000258.938564) can0 19F10D13#2642014801000186
(1785000258.950652) can0 0CF00400#FF7D7D000000FFFF
(1785000258.957296) can0 18F01D21#B8811680B8811680
(1785000258.969527) can0 0CF00400#FF7D7D000000FFFF
(1785000258.984279) can0 09F11219#A8FEFFFF7FFF7FFC
(1785000258.989483) can0 0CF00400#FF7D7D000000FFFF
(1785000259.000974) can0 18FF50E0#000E870080008094
(1785000259.009512) can0 0CF00400#FF7D7D000000FFFF
(1785000259.029513) can0 0CF00400#FF7D7D000000FFFF
(1785000259.038557) can0 19F10D13#2741014801000186
(1785000259.050532) can0 0CF00400#FF7D7D000000FFFF
(1785000259.057970) can0 18F01D21#B8811680B8811680
(1785000259.062195) can0 09F112F8#FF25760000FF7FFD
(1785000259.069695) can0 0CF00400#FF7D7D000000FFFF
(1785000259.090377) can0 0CF00400#FF7D7D000000FFFF
(1785000259.097126) can0 09F11219#A9FEFFFF7FFF7FFC
(1785000259.103529) can0 18FF50E0#000E87F47F008095
(1785000259.109510) can0 0CF00400#FF7D7D000000FFFF
(1785000259.129487) can0 0CF00400#FF7D7D000000FFFF
(1785000259.138527) can0 19F10D13#2842014801000186
(1785000259.150619) can0 0CF00400#FF7D7D000000FFFF
(1785000259.157987) can0 18F01D21#B8811680B8811680
(1785000259.162190) can0 09F8021C#60FCBF1A0100FFFF
(1785000259.163096) can0 09F8011C#7C6D2618346B5BC1
(1785000259.167125) can0 18FEE81C#9E1300002164467E
(1785000259.169821) can0 0CF00400#FF7D7D000000FFFF
(1785000259.184927) can0 09F11219#AAFEFFFF7FFF7FFC
(1785000259.190246) can0 0CF00400#FF7D7D000000FFFF
(1785000259.204676) can0 18FF50E0#000F870080008096
(1785000259.206971) can0 09F112F8#FF29760000FF7FFD
(1785000259.209519) can0 0CF00400#FF7D7D000000FFFF
(1785000259.229514) can0 0CF00400#FF7D7D000000FFFF
(1785000259.238605) can0 19F10D13#2940014801000187
(1785000259.250653) can0 0CF00400#FF7D7D000000FFFF
(1785000259.257277) can0 18F01D21#B8811680B8811680
(1785000259.269496) can0 0CF00400#FF7D7D000000FFFF
(1785000259.284348) can0 09F11219#ABFEFFFF7FFF7FFC
(1785000259.290258) can0 0CF00400#FF7D7D000000FFFF
(1785000259.309512) can0 0CF00400#FF7D7D000000FFFF
(1785000259.311560) can0 18FF50E0#000F870080008097
(1785000259.329481) can0 0CF00400#FF7D7D000000FFFF
(1785000259.338557) can0 19F10D13#2A40014801000187
(1785000259.350644) can0 0CF00400#FF7D7D000000FFFF
(1785000259.357744) can0 18F01D21#B8811680B8811680
(1785000259.360906) can0 09F112F8#FF2E760000FF7FFD
(1785000259.369498) can0 0CF00400#FF7D7D000000FFFF
(1785000259.385372) can0 09F11219#ACFEFFFF7FFF7FFC
(1785000259.390278) can0 0CF00400#FF7D7D000000FFFF
(1785000259.409496) can0 0CF00400#FF7D7D000000FFFF
(1785000259.412616) can0 18FF50E0#000F87FD7F008098
(1785000259.429501) can0 0CF00400#FF7D7D000000FFFF
(1785000259.438641) can0 19F10D13#2B41014801000186
(1785000259.450630) can0 0CF00400#FF7D7D000000FFFF
(1785000259.458068) can0 18F01D21#B8811680B8811680
(1785000259.469483) can0 0CF00400#FF7D7D000000FFFF
(1785000259.484350) can0 09F11219#ADFEFFFF7FFF7FFC
(1785000259.489497) can0 0CF00400#FF7D7D000000FFFF
(1785000259.500654) can0 09F112F8#FF32760000FF7FFD
(1785000259.509481) can0 0CF00400#FF7D7D000000FFFF
(1785000259.514646) can0 18FF50E0#0010870080008099
(1785000259.529657) can0 0CF00400#FF7D7D000000FFFF
(1785000259.538587) can0 19F10D13#2C41014801000186
(1785000259.550446) can0 0CF00400#FF7D7D000000FFFF
(1785000259.557387) can0 18F01D21#B8811680B8811680
(1785000259.569496) can0 0CF00400#FF7D7D000000FFFF
(1785000259.584333) can0 09F11219#AEFEFFFF7FFF7FFC
(1785000259.589515) can0 0CF00400#FF7D7D000000FFFF
(1785000259.609472) can0 0CF00400#FF7D7D000000FFFF
(1785000259.617332) can0 18FF50E0#001087FA7F00809A
(1785000259.629521) can0 0CF00400#FF7D7D000000FFFF
(1785000259.638593) can0 19F10D13#2D41014801000186
(1785000259.651135) can0 09F112F8#FF33760000FF7FFD
(1785000259.651728) can0 0CF00400#FF7D7D000000FFFF
(1785000259.658154) can0 18F01D21#B8811680B8811680
(1785000259.663633) can0 09F8021C#61FCBF1A0100FFFF
(1785000259.664596) can0 09F8011C#806D2618366B5BC1
(1785000259.667654) can0 18FEE81C#9E1300002164467E
(1785000259.669457) can0 0CF00400#FF7D7D000000FFFF
(1785000259.684427) can0 09F11219#AFFEFFFF7FFF7FFC
(1785000259.690033) can0 0CF00400#FF7D7D000000FFFF
(1785000259.709498) can0 0CF00400#FF7D7D000000FFFF
(1785000259.718074) can0 18FF50E0#001087008000809B
(1785000259.729463) can0 0CF00400#FF7D7D000000FFFF
(1785000259.738549) can0 19F10D13#2E40014801000187
(1785000259.750656) can0 0CF00400#FF7D7D000000FFFF
(1785000259.758117) can0 18F01D21#B8811680B8811680
(1785000259.769474) can0 0CF00400#FF7D7D000000FFFF
(1785000259.784316) can0 09F11219#B0FEFFFF7FFF7FFC
(1785000259.789490) can0 0CF00400#FF7D7D000000FFFF
(1785000259.797131) can0 09F112F8#FF35760000FF7FFD
(1785000259.809471) can0 0CF00400#FF7D7D000000FFFF
(1785000259.821077) can0 18FF50E0#001087008000809C
(1785000259.829499) can0 0CF00400#FF7D7D000000FFFF
(1785000259.838556) can0 19F10D13#2F41014801000186
(1785000259.850588) can0 0CF00400#FF7D7D000000FFFF
(1785000259.857447) can0 18F01D21#B8811680B8811680
(1785000259.869492) can0 0CF00400#FF7D7D000000FFFF
(1785000259.885021) can0 09F11219#B1FEFFFF7FFF7FFC
(1785000259.889481) can0 0CF00400#FF7D7D000000FFFF
(1785000259.909543) can0 0CF00400#FF7D7D000000FFFF
(1785000259.923449) can0 18FF50E0#001087FE7F00809D
(1785000259.929471) can0 0CF00400#FF7D7D000000FFFF
(1785000259.938555) can0 19F10D13#3041014801000186
(1785000259.948251) can0 09F112F8#FF3A760000FF7FFD
(1785000259.950621) can0 0CF00400#FF7D7D000000FFFF
(1785000259.957847) can0 18F01D21#B8811680B8811680
(1785000259.969473) can0 0CF00400#FF7D7D000000FFFF
(1785000259.984662) can0 09F11219#B2FEFFFF7FFF7FFC
(1785000259.989481) can0 0CF00400#FF7D7D000000FFFF
(1785000260.009863) can0 0CF00400#FF7D7D000000FFFF
(1785000260.024435) can0 18FF50E0#001087008000809E
(1785000260.029475) can0 0CF00400#FF7D7D000000FFFF
(1785000260.038570) can0 19F10D13#3141014801000186
(1785000260.050224) can0 0CF00400#FF7D7D000000FFFF
(1785000260.057691) can0 18F01D21#B8811680B8811680
(1785000260.069588) can0 0CF00400#FF7D7D000000FFFF
(1785000260.089456) can0 0CF00400#FF7D7D000000FFFF
(1785000260.093759) can0 09F11219#B3FEFFFF7FFF7FFC
(1785000260.097981) can0 09F112F8#FF38760000FF7FFD
(1785000260.109465) can0 0CF00400#FF7D7D000000FFFF
(1785000260.125482) can0 18FF50E0#001087008000809F
(1785000260.129481) can0 0CF00400#FF7D7D000000FFFF
(1785000260.138561) can0 19F10D13#3241014801000186
(1785000260.150613) can0 0CF00400#FF7D7D000000FFFF
(1785000260.157494) can0 18F01D21#B8811680B8811680
(1785000260.169466) can0 0CF00400#FF7D7D000000FFFF
(1785000260.172200) can0 09F8021C#62FCBF1A0000FFFF
(1785000260.173186) can0 09F8011C#846D26183A6B5BC1
(1785000260.177243) can0 18FEE81C#9E1300002164477E
(1785000260.184922) can0 09F11219#B4FEFFFF7FFF7FFC
(1785000260.190542) can0 0CF00400#FF7D7D000000FFFF
(1785000260.209468) can0 0CF00400#FF7D7D000000FFFF
(1785000260.226235) can0 18FF50E0#001087FE7F0080A0
(1785000260.229469) can0 0CF00400#FF7D7D000000FFFF
(1785000260.238571) can0 19F10D13#3341014801000186
(1785000260.242983) can0 09F112F8#FF38760000FF7FFD
(1785000260.250584) can0 0CF00400#FF7D7D000000FFFF
(1785000260.257900) can0 18F01D21#B8811680B8811680
(1785000260.269437) can0 0CF00400#FF7D7D000000FFFF
(1785000260.284348) can0 09F11219#B5FEFFFF7FFF7FFC
(1785000260.289484) can0 0CF00400#FF7D7D000000FFFF
(1785000260.309474) can0 0CF00400#FF7D7D000000FFFF
(1785000260.327075) can0 18FF50E0#00118700800080A1
(1785000260.329470) can0 0CF00400#FF7D7D000000FFFF
(1785000260.338541) can0 19F10D13#3441014801000186
(1785000260.347649) can0 18EEFF1C#0204450E00000042
(1785000260.350264) can0 0CF00400#FF7D7D000000FFFF
(1785000260.350856) can0 18EEFF1C#0204450E00000042
(1785000260.357233) can0 18F01D21#B8811680B8811680
(1785000260.369465) can0 0CF00400#FF7D7D000000FFFF
(1785000260.385444) can0 09F11219#B6FEFFFF7FFF7FFC
(1785000260.389461) can0 0CF00400#FF7D7D000000FFFF
(1785000260.393995) can0 09F112F8#FF3A760000FF7FFD
(1785000260.409449) can0 0CF00400#FF7D7D000000FFFF
(1785000260.428034) can0 18FF50E0#00118700800080A2
(1785000260.429592) can0 0CF00400#FF7D7D000000FFFF
(1785000260.438537) can0 19F10D13#3541014801000186
(1785000260.450362) can0 0CF00400#FF7D7D000000FFFF
(1785000260.457596) can0 18F01D21#B8811680B8811680
(1785000260.470221) can0 0CF00400#FF7D7D000000FFFF
(1785000260.484350) can0 09F11219#B7FEFFFF7FFF7FFC
(1785000260.489470) can0 0CF00400#FF7D7D000000FFFF
(1785000260.509471) can0 0CF00400#FF7D7D000000FFFF
(1785000260.529466) can0 0CF00400#FF7D7D000000FFFF
(1785000260.533131) can0 18FF50E0#00118700800080A3
(1785000260.537995) can0 09F112F8#FF39760000FF7FFD
(1785000260.538553) can0 19F10D13#3641014801000186
(1785000260.551156) can0 0CF00400#FF7D7D000000FFFF
(1785000260.557990) can0 18F01D21#B8811680B8811680
(1785000260.569447) can0 0CF00400#FF7D7D000000FFFF
(1785000260.584399) can0 09F11219#B8FEFFFF7FFF7FFC
(1785000260.589445) can0 0CF00400#FF7D7D000000FFFF
(1785000260.609451) can0 0CF00400#FF7D7D000000FFFF
(1785000260.629448) can0 0CF00400#FF7D7D000000FFFF
(1785000260.636627) can0 18FF50E0#00118700800080A4
(1785000260.638540) can0 19F10D13#3742014801000186
(1785000260.650567) can0 0CF00400#FF7D7D000000FFFF
(1785000260.657421) can0 18F01D21#B8811680B8811680
(1785000260.669459) can0 0CF00400#FF7D7D000000FFFF
(1785000260.677793) can0 09F8021C#63FCBF1A0200FFFF
(1785000260.678752) can0 09F8011C#886D26183A6B5BC1
(1785000260.682885) can0 18FEE81C#9E1300002164477E
(1785000260.684449) can0 09F11219#B9FEFFFF7FFF7FFC
(1785000260.685009) can0 09F112F8#FF38760000FF7FFD
(1785000260.690075) can0 0CF00400#FF7D7D000000FFFF
(1785000260.709454) can0 0CF00400#FF7D7D000000FFFF
(1785000260.729437) can0 0CF00400#FF7D7D000000FFFF
(1785000260.738575) can0 19F10D13#3841014801000186
(1785000260.742919) can0 18FF50E0#001187FF7F0080A5
(1785000260.750357) can0 0CF00400#FF7D7D000000FFFF
(1785000260.757680) can0 18F01D21#B8811680B8811680
(1785000260.769420) can0 0CF00400#FF7D7D000000FFFF
(1785000260.784378) can0 09F11219#BAFEFFFF7FFF7FFC
(1785000260.789455) can0 0CF00400#FF7D7D000000FFFF
(1785000260.809448) can0 0CF00400#FF7D7D000000FFFF
(1785000260.829451) can0 0CF00400#FF7D7D000000FFFF
(1785000260.835156) can0 09F112F8#FF39760000FF7FFD
(1785000260.838551) can0 19F10D13#3941014801000186
(1785000260.847155) can0 18FF50E0#00118700800080A6
(1785000260.850586) can0 0CF00400#FF7D7D000000FFFF
(1785000260.858063) can0 18F01D21#B8811680B8811680
(1785000260.869427) can0 0CF00400#FF7D7D000000FFFF
(1785000260.885422) can0 09F11219#BBFEFFFF7FFF7FFC
(1785000260.889441) can0 0CF00400#FF7D7D000000FFFF
(1785000260.909416) can0 0CF00400#FF7D7D000000FFFF
(1785000260.929428) can0 0CF00400#FF7D7D000000FFFF
(1785000260.938551) can0 19F10D13#3A43014801000185
(1785000260.950557) can0 0CF00400#FF7D7D000000FFFF
(1785000260.951241) can0 18FF50E0#00118700800080A7
(1785000260.957365) can0 18F01D21#B8811680B8811680
(1785000260.969473) can0 0CF00400#FF7D7D000000FFFF
(1785000260.984013) can0 09F112F8#FF3B760000FF7FFD
(1785000260.984558) can0 09F11219#BCFEFFFF7FFF7FFC
(1785000260.989443) can0 0CF00400#FF7D7D000000FFFF
(1785000261.009437) can0 0CF00400#FF7D7D000000FFFF
(1785000261.029456) can0 0CF00400#FF7D7D000000FFFF
(1785000261.038590) can0 19F10D13#3B42014801000186
(1785000261.050353) can0 0CF00400#FF7D7D000000FFFF
(1785000261.056320) can0 18FF50E0#00118700800080A8
(1785000261.057932) can0 18F01D21#B8811680B8811680
(1785000261.069760) can0 0CF00400#FF7D7D000000FFFF
(1785000261.089416) can0 0CF00400#FF7D7D000000FFFF
(1785000261.092685) can0 09F11219#BDFEFFFF7FFF7FFC
(1785000261.109431) can0 0CF00400#FF7D7D000000FFFF
(1785000261.129426) can0 0CF00400#FF7D7D000000FFFF
(1785000261.130719) can0 09F112F8#FF3D760000FF7FFD
(1785000261.138595) can0 19F10D13#3C41014801000186
(1785000261.150569) can0 0CF00400#FF7D7D000000FFFF
(1785000261.157765) can0 18FF50E0#00118700800080A9
(1785000261.158215) can0 18F01D21#B8811680B8811680
(1785000261.169404) can0 0CF00400#FF7D7D000000FFFF
(1785000261.184346) can0 09F8021C#64FCBF1A0000FFFF
(1785000261.184910) can0 09F11219#BEFEFFFF7FFF7FFC
(1785000261.185415) can0 09F8011C#8E6D26183A6B5BC1
(1785000261.189357) can0 18FEE81C#9E1300002164487E
(1785000261.190485) can0 0CF00400#FF7D7D000000FFFF
(1785000261.209428) can0 0CF00400#FF7D7D000000FFFF
(1785000261.229397) can0 0CF00400#FF7D7D000000FFFF
(1785000261.238567) can0 19F10D13#3D41014801000186
(1785000261.250550) can0 0CF00400#FF7D7D000000FFFF
(1785000261.257448) can0 18F01D21#B8811680B8811680
(1785000261.258587) can0 18FF50E0#001187FD7F0080AA
(1785000261.269406) can0 0CF00400#FF7D7D000000FFFF
(1785000261.284096) can0 09F112F8#FF42760000FF7FFD
(1785000261.284569) can0 09F11219#BFFEFFFF7FFF7FFC
(1785000261.289463) can0 0CF00400#FF7D7D000000FFFF
(1785000261.309416) can0 0CF00400#FF7D7D000000FFFF
(1785000261.329442) can0 0CF00400#FF7D7D000000FFFF
(1785000261.338577) can0 19F10D13#3E41014801000186
(1785000261.350246) can0 0CF00400#FF7D7D000000FFFF
(1785000261.357823) can0 18F01D21#B8811680B8811680
(1785000261.362105) can0 18FF50E0#00118700800080AB
(1785000261.366356) can0 18EEFF1C#0204450E00000042
(1785000261.370475) can0 0CF00400#FF7D7D000000FFFF
(1785000261.385742) can0 09F11219#C0FEFFFF7FFF7FFC
(1785000261.389446) can0 0CF00400#FF7D7D000000FFFF
(1785000261.409410) can0 0CF00400#FF7D7D000000FFFF
(1785000261.429417) can0 0CF00400#FF7D7D000000FFFF
(1785000261.434061) can0 09F112F8#FF46760000FF7FFD
(1785000261.438550) can0 19F10D13#3F41014801000186
(1785000261.451105) can0 0CF00400#FF7D7D000000FFFF
(1785000261.458216) can0 18F01D21#B8811680B8811680
(1785000261.464544) can0 18FF50E0#001187FD7F0080AC
(1785000261.469474) can0 0CF00400#FF7D7D000000FFFF
(1785000261.484445) can0 09F11219#C1FEFFFF7FFF7FFC
(1785000261.489449) can0 0CF00400#FF7D7D000000FFFF
(1785000261.509422) can0 0CF00400#FF7D7D000000FFFF
(1785000261.529423) can0 0CF00400#FF7D7D000000FFFF
(1785000261.538609) can0 19F10D13#4041014801000186
(1785000261.550585) can0 0CF00400#FF7D7D000000FFFF
(1785000261.557546) can0 18F01D21#B8811680B8811680
(1785000261.565371) can0 18FF50E0#00118700800080AD
(1785000261.569432) can0 0CF00400#FF7D7D000000FFFF
(1785000261.582208) can0 09F112F8#FF4B760000FF7FFD
(1785000261.584497) can0 09F11219#C2FEFFFF7FFF7FFC
(1785000261.589401) can0 0CF00400#FF7D7D000000FFFF
(1785000261.609434) can0 0CF00400#FF7D7D000000FFFF
(1785000261.629427) can0 0CF00400#FF7D7D000000FFFF
(1785000261.638569) can0 19F10D13#4141014801000186
(1785000261.650530) can0 0CF00400#FF7D7D000000FFFF
(1785000261.657898) can0 18F01D21#B8811680B8811680
(1785000261.666527) can0 18FF50E0#00118700800080AE
(1785000261.669400) can0 0CF00400#FF7D7D000000FFFF
(1785000261.684513) can0 09F11219#C3FEFFFF7FFF7FFC
(1785000261.689441) can0 0CF00400#FF7D7D000000FFFF
(1785000261.690964) can0 09F8021C#65FCBF1A0400FFFF
(1785000261.691872) can0 09F8011C#906D26183C6B5BC1
(1785000261.696182) can0 18FEE81C#9E1300002164487E
(1785000261.709677) can0 0CF00400#FF7D7D000000FFFF
(1785000261.729384) can0 0CF00400#FF7D7D000000FFFF
(1785000261.735550) can0 09F112F8#FF4D760000FF7FFD
(1785000261.738556) can0 19F10D13#4241014801000186
(1785000261.750518) can0 0CF00400#FF7D7D000000FFFF
(1785000261.758256) can0 18F01D21#B8811680B8811680
(1785000261.769395) can0 0CF00400#FF7D7D000000FFFF
(1785000261.770882) can0 18FF50E0#001187FA7F0080AF
(1785000261.784483) can0 09F11219#C4FEFFFF7FFF7FFC
(1785000261.789406) can0 0CF00400#FF7D7D000000FFFF
(1785000261.809394) can0 0CF00400#FF7D7D000000FFFF
(1785000261.829502) can0 0CF00400#FF7D7D000000FFFF
(1785000261.838549) can0 19F10D13#4342014801000186
(1785000261.850540) can0 0CF00400#FF7D7D000000FFFF
(1785000261.857599) can0 18F01D21#B8811680B8811680
(1785000261.869413) can0 0CF00400#FF7D7D000000FFFF
(1785000261.874785) can0 18FF50E0#00128700800080B0
(1785000261.875501) can0 09F112F8#FF4C760000FF7FFD
(1785000261.885560) can0 09F11219#C5FEFFFF7FFF7FFC
(1785000261.889400) can0 0CF00400#FF7D7D000000FFFF
(1785000261.909401) can0 0CF00400#FF7D7D000000FFFF
(1785000261.929399) can0 0CF00400#FF7D7D000000FFFF
(1785000261.938593) can0 19F10D13#4441014801000186
(1785000261.950539) can0 0CF00400#FF7D7D000000FFFF
(1785000261.957989) can0 18F01D21#B8811680B8811680
(1785000261.969386) can0 0CF00400#FF7D7D000000FFFF
(1785000261.976481) can0 18FF50E0#001287FF7F0080B1
(1785000261.984591) can0 09F11219#C6FEFFFF7FFF7FFC
(1785000261.989405) can0 0CF00400#FF7D7D000000FFFF
(1785000262.009384) can0 0CF00400#FF7D7D000000FFFF
(1785000262.029381) can0 0CF00400#FF7D7D000000FFFF
(1785000262.031616) can0 09F112F8#FF4E760000FF7FFD
(1785000262.038537) can0 19F10D13#4541014801000186
(1785000262.050516) can0 0CF00400#FF7D7D000000FFFF
(1785000262.058514) can0 18F01D21#B8811680B8811680
(1785000262.069680) can0 0CF00400#FF7D7D000000FFFF
(1785000262.083739) can0 18FF50E0#00128700800080B2
(1785000262.088605) can0 09F11219#C7FEFFFF7FFF7FFC
(1785000262.089377) can0 0CF00400#FF7D7D000000FFFF
(1785000262.109383) can0 0CF00400#FF7D7D000000FFFF
(1785000262.129396) can0 0CF00400#FF7D7D000000FFFF
(1785000262.138525) can0 19F10D13#4643014801000185
(1785000262.150516) can0 0CF00400#FF7D7D000000FFFF
(1785000262.157675) can0 18F01D21#B8811680B8811680
(1785000262.169366) can0 0CF00400#FF7D7D000000FFFF
(1785000262.176098) can0 09F112F8#FF52760000FF7FFD
(1785000262.184564) can0 09F11219#C8FEFFFF7FFF7FFC
(1785000262.184656) can0 18FF50E0#00128700800080B3
(1785000262.189366) can0 0CF00400#FF7D7D000000FFFF
(1785000262.195580) can0 09F8021C#66FCBF1A0000FFFF
(1785000262.196433) can0 09F8011C#966D2618426B5BC1
(1785000262.201514) can0 18FEE81C#9E1300002164497E
(1785000262.209364) can0 0CF00400#FF7D7D000000FFFF
(1785000262.229429) can0 0CF00400#FF7D7D000000FFFF
(1785000262.238553) can0 19F10D13#4740014801000187
(1785000262.250139) can0 0CF00400#FF7D7D000000FFFF
(1785000262.258034) can0 18F01D21#B8811680B8811680
(1785000262.269780) can0 0CF00400#FF7D7D000000FFFF
(1785000262.284536) can0 09F11219#C9FEFFFF7FFF7FFC
(1785000262.285907) can0 18FF50E0#001287FE7F0080B4
(1785000262.289398) can0 0CF00400#FF7D7D000000FFFF
(1785000262.309412) can0 0CF00400#FF7D7D000000FFFF
(1785000262.325085) can0 09F112F8#FF55760000FF7FFD
(1785000262.329398) can0 0CF00400#FF7D7D000000FFFF
(1785000262.338571) can0 19F10D13#4841014801000186
(1785000262.351091) can0 0CF00400#FF7D7D000000FFFF
(1785000262.358401) can0 18F01D21#B8811680B8811680
(1785000262.367353) can0 18EEFF1C#0204450E00000042
(1785000262.369386) can0 0CF00400#FF7D7D000000FFFF
(1785000262.385623) can0 09F11219#CAFEFFFF7FFF7FFC
(1785000262.388588) can0 18FF50E0#00128700800080B5
(1785000262.389364) can0 0CF00400#FF7D7D000000FFFF
(1785000262.409380) can0 0CF00400#FF7D7D000000FFFF
(1785000262.429372) can0 0CF00400#FF7D7D000000FFFF
(1785000262.438573) can0 19F10D13#4941014801000186
(1785000262.450496) can0 0CF00400#FF7D7D000000FFFF
(1785000262.457800) can0 18F01D21#B8811680B8811680
(1785000262.466331) can0 09F112F8#FF57760000FF7FFD
(1785000262.469363) can0 0CF00400#FF7D7D000000FFFF
(1785000262.484483) can0 09F11219#CBFEFFFF7FFF7FFC
(1785000262.489392) can0 0CF00400#FF7D7D000000FFFF
(1785000262.489622) can0 18FF50E0#001287FB7F0080B6
(1785000262.509365) can0 0CF00400#FF7D7D000000FFFF
(1785000262.529392) can0 0CF00400#FF7D7D000000FFFF
(1785000262.538561) can0 19F10D13#4A41014801000186
(1785000262.550502) can0 0CF00400#FF7D7D000000FFFF
(1785000262.558128) can0 18F01D21#B8811680B8811680
(1785000262.569356) can0 0CF00400#FF7D7D000000FFFF
(1785000262.584522) can0 09F11219#CCFEFFFF7FFF7FFC
(1785000262.589365) can0 0CF00400#FF7D7D000000FFFF
(1785000262.590721) can0 18FF50E0#00128700800080B7
(1785000262.609370) can0 0CF00400#FF7D7D000000FFFF
(1785000262.616097) can0 09F112F8#FF57760000FF7FFD
(1785000262.629374) can0 0CF00400#FF7D7D000000FFFF
(1785000262.638558) can0 19F10D13#4B41014801000186
(1785000262.650508) can0 0CF00400#FF7D7D000000FFFF
(1785000262.658504) can0 18F01D21#B8811680B8811680
(1785000262.669374) can0 0CF00400#FF7D7D000000FFFF
(1785000262.684597) can0 09F11219#CDFEFFFF7FFF7FFC
(1785000262.689383) can0 0CF00400#FF7D7D000000FFFF
(1785000262.697626) can0 18FF50E0#00128700800080B8
(1785000262.700507) can0 09F8021C#67FCBF1A0000FFFF
(1785000262.701992) can0 09F8011C#9A6D2618426B5BC1
(1785000262.706291) can0 18FEE81C#9E13000021644A7E
(1785000262.709701) can0 0CF00400#FF7D7D000000FFFF
(1785000262.729356) can0 0CF00400#FF7D7D000000FFFF
(1785000262.738552) can0 19F10D13#4C41014801000186
(1785000262.750479) can0 0CF00400#FF7D7D000000FFFF
(1785000262.757858) can0 18F01D21#B8811680B8811680
(1785000262.764117) can0 09F112F8#FF53760000FF7FFD
(1785000262.769400) can0 0CF00400#FF7D7D000000FFFF
(1785000262.784526) can0 09F11219#CEFEFFFF7FFF7FFC
(1785000262.789386) can0 0CF00400#FF7D7D000000FFFF
(1785000262.800038) can0 18FF50E0#001287FE7F0080B9
(1785000262.809356) can0 0CF00400#FF7D7D000000FFFF
(1785000262.829363) can0 0CF00400#FF7D7D000000FFFF
(1785000262.838563) can0 19F10D13#4D41014801000186
(1785000262.850473) can0 0CF00400#FF7D7D000000FFFF
(1785000262.858188) can0 18F01D21#B8811680B8811680
(1785000262.869395) can0 0CF00400#FF7D7D000000FFFF
(1785000262.885258) can0 09F11219#CFFEFFFF7FFF7FFC
(1785000262.889379) can0 0CF00400#FF7D7D000000FFFF
(1785000262.902598) can0 18FF50E0#00128700800080BA
(1785000262.909381) can0 0CF00400#FF7D7D000000FFFF
(1785000262.912086) can0 09F112F8#FF51760000FF7FFD
(1785000262.929372) can0 0CF00400#FF7D7D000000FFFF
(1785000262.938575) can0 19F10D13#4E41014801000186
(1785000262.950499) can0 0CF00400#FF7D7D000000FFFF
(1785000262.958574) can0 18F01D21#B8811680B8811680
(1785000262.969389) can0 0CF00400#FF7D7D000000FFFF
(1785000262.984499) can0 09F11219#D0FEFFFF7FFF7FFC
(1785000262.989345) can0 0CF00400#FF7D7D000000FFFF
(1785000263.006455) can0 18FF50E0#00128703800080BB
(1785000263.009370) can0 0CF00400#FF7D7D000000FFFF
(1785000263.029377) can0 0CF00400#FF7D7D000000FFFF
(1785000263.038579) can0 19F10D13#4F41014801000186
(1785000263.050413) can0 0CF00400#FF7D7D000000FFFF
(1785000263.058644) can0 18F01D21#B8811680B8811680
(1785000263.064318) can0 09F112F8#FF4F760000FF7FFD
(1785000263.069405) can0 0CF00400#FF7D7D000000FFFF
(1785000263.089906) can0 09F11219#D1FEFFFF7FFF7FFC
(1785000263.090476) can0 0CF00400#FF7D7D000000FFFF
(1785000263.107550) can0 18FF50E0#00128700800080BC
(1785000263.109744) can0 0CF00400#FF7D7D000000FFFF
(1785000263.129343) can0 0CF00400#FF7D7D000000FFFF
(1785000263.138605) can0 19F10D13#5040014801000187
(1785000263.150060) can0 0CF00400#FF7D7D000000FFFF
(1785000263.158289) can0 18F01D21#B8811680B8811680
(1785000263.169667) can0 0CF00400#FF7D7D000000FFFF
(1785000263.184535) can0 09F11219#D2FEFFFF7FFF7FFC
(1785000263.189370) can0 0CF00400#FF7D7D000000FFFF
(1785000263.205148) can0 09F112F8#FF50760000FF7FFD
(1785000263.206542) can0 09F8021C#68FCBF1A0200FFFF
(1785000263.207542) can0 09F8011C#9E6D2618446B5BC1
(1785000263.210378) can0 0CF00400#FF7D7D000000FFFF
(1785000263.210943) can0 18FF50E0#00128700800080BD
(1785000263.211591) can0 18FEE81C#9E13000020644B7E
(1785000263.229742) can0 0CF00400#FF7D7D000000FFFF
(1785000263.238558) can0 19F10D13#5141014801000186
(1785000263.252138) can0 0CF00400#FF7D7D000000FFFF
(1785000263.257592) can0 18F01D21#B8811680B8811680
(1785000263.269338) can0 0CF00400#FF7D7D000000FFFF
(1785000263.284563) can0 09F11219#D3FEFFFF7FFF7FFC
(1785000263.289362) can0 0CF00400#FF7D7D000000FFFF
(1785000263.309606) can0 0CF00400#FF7D7D000000FFFF
(1785000263.313694) can0 18FF50E0#00128700800080BE
(1785000263.329358) can0 0CF00400#FF7D7D000000FFFF
(1785000263.338616) can0 19F10D13#5241014801000186
(1785000263.347108) can0 18EEFF1C#0204450E00000042
(1785000263.350455) can0 0CF00400#FF7D7D000000FFFF
(1785000263.355492) can0 09F112F8#FF52760000FF7FFD
(1785000263.357985) can0 18F01D21#B8811680B8811680
(1785000263.369351) can0 0CF00400#FF7D7D000000FFFF
(1785000263.385563) can0 09F11219#D4FEFFFF7FFF7FFC
(1785000263.389340) can0 0CF00400#FF7D7D000000FFFF
(1785000263.409567) can0 0CF00400#FF7D7D000000FFFF
(1785000263.417057) can0 18FF50E0#00128700800080BF
(1785000263.429336) can0 0CF00400#FF7D7D000000FFFF
(1785000263.438615) can0 19F10D13#5341014801000186
(1785000263.450466) can0 0CF00400#FF7D7D000000FFFF
(1785000263.458330) can0 18F01D21#B8811680B8811680
(1785000263.469343) can0 0CF00400#FF7D7D000000FFFF
(1785000263.484536) can0 09F11219#D5FEFFFF7FFF7FFC
(1785000263.489359) can0 0CF00400#FF7D7D000000FFFF
(1785000263.501696) can0 09F112F8#FF55760000FF7FFD
(1785000263.509589) can0 0CF00400#FF7D7D000000FFFF
(1785000263.520608) can0 18FF50E0#001287FE7F0080C0
(1785000263.529332) can0 0CF00400#FF7D7D000000FFFF
(1785000263.538566) can0 19F10D13#5441014801000186
(1785000263.550450) can0 0CF00400#FF7D7D000000FFFF
(1785000263.557703) can0 18F01D21#B8811680B8811680
(1785000263.569333) can0 0CF00400#FF7D7D000000FFFF
(1785000263.584527) can0 09F11219#D6FEFFFF7FFF7FFC
(1785000263.589318) can0 0CF00400#FF7D7D000000FFFF
(1785000263.609606) can0 0CF00400#FF7D7D000000FFFF
(1785000263.624032) can0 18FF50E0#00128700800080C1
(1785000263.629344) can0 0CF00400#FF7D7D000000FFFF
(1785000263.638560) can0 19F10D13#5540014801000187
(1785000263.647457) can0 09F112F8#FF58760000FF7FFD
(1785000263.650477) can0 0CF00400#FF7D7D000000FFFF
(1785000263.658027) can0 18F01D21#B8811680B8811680
(1785000263.669300) can0 0CF00400#FF7D7D000000FFFF
(1785000263.684493) can0 09F11219#D7FEFFFF7FFF7FFC
(1785000263.689342) can0 0CF00400#FF7D7D000000FFFF
(1785000263.709343) can0 0CF00400#FF7D7D000000FFFF
(1785000263.711571) can0 09F8021C#69FCBF1A0000FFFF
(1785000263.713109) can0 09F8011C#9E6D2618466B5BC1
(1785000263.717169) can0 18FEE81C#9E13000020644C7E
(1785000263.725805) can0 18FF50E0#00128700800080C2
(1785000263.729333) can0 0CF00400#FF7D7D000000FFFF
(1785000263.738585) can0 19F10D13#5643014801000185
(1785000263.750032) can0 0CF00400#FF7D7D000000FFFF
(1785000263.758413) can0 18F01D21#B8811680B8811680
(1785000263.769332) can0 0CF00400#FF7D7D000000FFFF
(1785000263.784501) can0 09F11219#D8FEFFFF7FFF7FFC
(1785000263.789316) can0 0CF00400#FF7D7D000000FFFF
(1785000263.797105) can0 09F112F8#FF5B760000FF7FFD
(1785000263.809343) can0 0CF00400#FF7D7D000000FFFF
(1785000263.829031) can0 18FF50E0#001287FC7F0080C3
(1785000263.829315) can0 0CF00400#FF7D7D000000FFFF
(1785000263.838567) can0 19F10D13#5741014801000186
(1785000263.850429) can0 0CF00400#FF7D7D000000FFFF
(1785000263.857735) can0 18F01D21#B8811680B8811680
(1785000263.869305) can0 0CF00400#FF7D7D000000FFFF
(1785000263.885124) can0 09F11219#D9FEFFFF7FFF7FFC
(1785000263.889310) can0 0CF00400#FF7D7D000000FFFF
(1785000263.909311) can0 0CF00400#FF7D7D000000FFFF
(1785000263.929315) can0 0CF00400#FF7D7D000000FFFF
(1785000263.930100) can0 18FF50E0#00128700800080C4
(1785000263.938553) can0 19F10D13#5841014801000186
(1785000263.946161) can0 09F112F8#FF5F760000FF7FFD
(1785000263.950423) can0 0CF00400#FF7D7D000000FFFF
(1785000263.958321) can0 18F01D21#B8811680B8811680
(1785000263.969300) can0 0CF00400#FF7D7D000000FFFF
(1785000263.984470) can0 09F11219#DAFEFFFF7FFF7FFC
(1785000263.989319) can0 0CF00400#FF7D7D000000FFFF
(1785000264.009316) can0 0CF00400#FF7D7D000000FFFF
(1785000264.029304) can0 0CF00400#FF7D7D000000FFFF
(1785000264.031805) can0 18FF50E0#001287FB7F0080C5
(1785000264.038569) can0 19F10D13#5941014801000186
(1785000264.050500) can0 0CF00400#FF7D7D000000FFFF
(1785000264.058487) can0 18F01D21#B8811680B8811680
(1785000264.069580) can0 0CF00400#FF7D7D000000FFFF
(1785000264.089155) can0 09F11219#DBFEFFFF7FFF7FFC
(1785000264.090825) can0 0CF00400#FF7D7D000000FFFF
(1785000264.091980) can0 09F112F8#FF63760000FF7FFD
(1785000264.109318) can0 0CF00400#FF7D7D000000FFFF
(1785000264.129329) can0 0CF00400#FF7D7D000000FFFF
(1785000264.137937) can0 18FF50E0#00138700800080C6
(1785000264.138548) can0 19F10D13#5A42014801000186
(1785000264.150981) can0 0CF00400#FF7D7D000000FFFF
(1785000264.157877) can0 18F01D21#B8811680B8811680
(1785000264.169309) can0 0CF00400#FF7D7D000000FFFF
(1785000264.184548) can0 09F11219#DCFEFFFF7FFF7FFC
(1785000264.189318) can0 0CF00400#FF7D7D000000FFFF
(1785000264.209284) can0 0CF00400#FF7D7D000000FFFF
(1785000264.221838) can0 09F8021C#6AFCBF1A0300FFFF
(1785000264.222933) can0 09F8011C#9E6D2618446B5BC1
(1785000264.226934) can0 18FEE81C#9E13000020644D7E
(1785000264.229757) can0 0CF00400#FF7D7D000000FFFF
(1785000264.238631) can0 19F10D13#5B41014801000186
(1785000264.240864) can0 09F112F8#FF64760000FF7FFD
(1785000264.244932) can0 18FF50E0#00138700800080C7
(1785000264.250834) can0 0CF00400#FF7D7D000000FFFF
(1785000264.258222) can0 18F01D21#B8811680B8811680
(1785000264.269317) can0 0CF00400#FF7D7D000000FFFF
(1785000264.284508) can0 09F11219#DDFEFFFF7FFF7FFC
(1785000264.289325) can0 0CF00400#FF7D7D000000FFFF
(1785000264.309316) can0 0CF00400#FF7D7D000000FFFF
(1785000264.329328) can0 0CF00400#FF7D7D000000FFFF
(1785000264.338563) can0 19F10D13#5C42014801000186
(1785000264.347112) can0 18EEFF1C#0204450E00000042
(1785000264.347937) can0 18FF50E0#001387FD7F0080C8
(1785000264.350197) can0 0CF00400#FF7D7D000000FFFF
(1785000264.358558) can0 18F01D21#B8811680B8811680
(1785000264.369318) can0 0CF00400#FF7D7D000000FFFF
(1785000264.383477) can0 09F112F8#FF68760000FF7FFD
(1785000264.385751) can0 09F11219#DEFEFFFF7FFF7FFC
(1785000264.389315) can0 0CF00400#FF7D7D000000FFFF
(1785000264.409309) can0 0CF00400#FF7D7D000000FFFF
(1785000264.429284) can0 0CF00400#FF7D7D000000FFFF
(1785000264.438563) can0 19F10D13#5D42014801000186
(1785000264.449324) can0 18FF50E0#00138700800080C9
(1785000264.450441) can0 0CF00400#FF7D7D000000FFFF
(1785000264.457890) can0 18F01D21#B8811680B8811680
(1785000264.469308) can0 0CF00400#FF7D7D000000FFFF
(1785000264.484578) can0 09F11219#DFFEFFFF7FFF7FFC
(1785000264.489310) can0 0CF00400#FF7D7D000000FFFF
(1785000264.509290) can0 0CF00400#FF7D7D000000FFFF
(1785000264.529294) can0 0CF00400#FF7D7D000000FFFF
(1785000264.535243) can0 09F112F8#FF68760000FF7FFD
(1785000264.538553) can0 19F10D13#5E41014801000186
(1785000264.550397) can0 0CF00400#FF7D7D000000FFFF
(1785000264.558314) can0 18F01D21#B8811680B8811680
(1785000264.561976) can0 18FF50E0#001387FD7F0080CA
(1785000264.569297) can0 0CF00400#FF7D7D000000FFFF
(1785000264.584541) can0 09F11219#E0FEFFFF7FFF7FFC
(1785000264.589273) can0 0CF00400#FF7D7D000000FFFF
(1785000264.609288) can0 0CF00400#FF7D7D000000FFFF
(1785000264.629303) can0 0CF00400#FF7D7D000000FFFF
(1785000264.638557) can0 19F10D13#5F42014801000186
(1785000264.650431) can0 0CF00400#FF7D7D000000FFFF
(1785000264.658668) can0 18F01D21#B8811680B8811680
(1785000264.663320) can0 18FF50E0#00138700800080CB
(1785000264.669281) can0 0CF00400#FF7D7D000000FFFF
(1785000264.680801) can0 09F112F8#FF69760000FF7FFD
(1785000264.684562) can0 09F11219#E1FEFFFF7FFF7FFC
(1785000264.689288) can0 0CF00400#FF7D7D000000FFFF
(1785000264.709278) can0 0CF00400#FF7D7D000000FFFF
(1785000264.728658) can0 09F8021C#6BFCBF1A0000FFFF
(1785000264.729245) can0 09F8011C#9E6D2618446B5BC1
(1785000264.729812) can0 0CF00400#FF7D7D000000FFFF
(1785000264.732607) can0 18FEE81C#9E13000020644E7E
(1785000264.738966) can0 19F10D13#6042014801000186
(1785000264.750097) can0 0CF00400#FF7D7D000000FFFF
(1785000264.758194) can0 18F01D21#B8811680B8811680
(1785000264.767177) can0 18FF50E0#00138700800080CC
(1785000264.769293) can0 0CF00400#FF7D7D000000FFFF
(1785000264.784611) can0 09F11219#E2FEFFFF7FFF7FFC
(1785000264.789290) can0 0CF00400#FF7D7D000000FFFF
(1785000264.809281) can0 0CF00400#FF7D7D000000FFFF
(1785000264.829288) can0 0CF00400#FF7D7D000000FFFF
(1785000264.831736) can0 09F112F8#FF6A760000FF7FFD
(1785000264.838582) can0 19F10D13#6140014801000187
(1785000264.850431) can0 0CF00400#FF7D7D000000FFFF
(1785000264.858324) can0 18F01D21#B8811680B8811680
(1785000264.869194) can0 18FF50E0#001387FF7F0080CD
(1785000264.869270) can0 0CF00400#FF7D7D000000FFFF
(1785000264.885315) can0 09F11219#E3FEFFFF7FFF7FFC
(1785000264.889278) can0 0CF00400#FF7D7D000000FFFF
(1785000264.909276) can0 0CF00400#FF7D7D000000FFFF
(1785000264.929292) can0 0CF00400#FF7D7D000000FFFF
(1785000264.939130) can0 19F10D13#6241014801000186
(1785000264.950393) can0 0CF00400#FF7D7D000000FFFF
(1785000264.958706) can0 18F01D21#B8811680B8811680
(1785000264.969465) can0 0CF00400#FF7D7D000000FFFF
(1785000264.972618) can0 18FF50E0#00138700800080CE
(1785000264.981766) can0 09F112F8#FF69760000FF7FFD
(1785000264.984706) can0 09F11219#E4FEFFFF7FFF7FFC
(1785000264.990210) can0 0CF00400#FF7D7D000000FFFF
(1785000265.009339) can0 0CF00400#FF7D7D000000FFFF
(1785000265.029311) can0 0CF00400#FF7D7D000000FFFF
(1785000265.038565) can0 19F10D13#6341014801000186
(1785000265.050535) can0 0CF00400#FF7D7D000000FFFF
(1785000265.058204) can0 18F01D21#B8811680B8811680
(1785000265.069390) can0 0CF00400#FF7D7D000000FFFF
(1785000265.075110) can0 18FF50E0#00138700800080CF
(1785000265.089949) can0 09F11219#E5FEFFFF7FFF7FFC
(1785000265.091024) can0 0CF00400#FF7D7D000000FFFF
(1785000265.109272) can0 0CF00400#FF7D7D000000FFFF
(1785000265.125187) can0 09F112F8#FF6B760000FF7FFD
(1785000265.129270) can0 0CF00400#FF7D7D000000FFFF
(1785000265.138541) can0 19F10D13#6442014801000186
(1785000265.150437) can0 0CF00400#FF7D7D000000FFFF
(1785000265.158430) can0 18F01D21#B8811680B8811680
(1785000265.169277) can0 0CF00400#FF7D7D000000FFFF
(1785000265.176442) can0 18FF50E0#00138700800080D0
(1785000265.184562) can0 09F11219#E6FEFFFF7FFF7FFC
(1785000265.189277) can0 0CF00400#FF7D7D000000FFFF
(1785000265.209288) can0 0CF00400#FF7D7D000000FFFF
(1785000265.229263) can0 0CF00400#FF7D7D000000FFFF
(1785000265.236861) can0 09F8021C#6CFCBF1A0000FFFF
(1785000265.237849) can0 09F8011C#9C6D2618446B5BC1
(1785000265.238554) can0 19F10D13#6540014801000187
(1785000265.243975) can0 18FEE81C#9E13000020644E7E
(1785000265.250349) can0 0CF00400#FF7D7D000000FFFF
(1785000265.258779) can0 18F01D21#B8811680B8811680
(1785000265.269267) can0 0CF00400#FF7D7D000000FFFF
(1785000265.275154) can0 09F112F8#FF6F760000FF7FFD
(1785000265.277419) can0 18FF50E0#00138700800080D1
(1785000265.284545) can0 09F11219#E7FEFFFF7FFF7FFC
(1785000265.289245) can0 0CF00400#FF7D7D000000FFFF
(1785000265.309266) can0 0CF00400#FF7D7D000000FFFF
(1785000265.329244) can0 0CF00400#FF7D7D000000FFFF
(1785000265.338568) can0 19F10D13#6641014801000186
(1785000265.350397) can0 0CF00400#FF7D7D000000FFFF
(1785000265.358150) can0 18F01D21#B8811680B8811680
(1785000265.369257) can0 0CF00400#FF7D7D000000FFFF
(1785000265.379406) can0 18FF50E0#001387FC7F0080D2
(1785000265.385628) can0 09F11219#E8FEFFFF7FFF7FFC
(1785000265.389284) can0 0CF00400#FF7D7D000000FFFF
(1785000265.406759) can0 18EEFF1C#0204450E00000042
(1785000265.409278) can0 0CF00400#FF7D7D000000FFFF
(1785000265.421085) can0 09F112F8#FF72760000FF7FFD
(1785000265.429278) can0 0CF00400#FF7D7D000000FFFF
(1785000265.438589) can0 19F10D13#6741014801000186
(1785000265.450420) can0 0CF00400#FF7D7D000000FFFF
(1785000265.458563) can0 18F01D21#B8811680B8811680
(1785000265.469250) can0 0CF00400#FF7D7D000000FFFF
(1785000265.482838) can0 18FF50E0#00148700800080D3
(1785000265.484611) can0 09F11219#E9FEFFFF7FFF7FFC
(1785000265.489264) can0 0CF00400#FF7D7D000000FFFF
(1785000265.509302) can0 0CF00400#FF7D7D000000FFFF
(1785000265.529313) can0 0CF00400#FF7D7D000000FFFF
(1785000265.538564) can0 19F10D13#6841014801000186
(1785000265.550426) can0 0CF00400#FF7D7D000000FFFF
(1785000265.558899) can0 18F01D21#B8811680B8811680
(1785000265.569251) can0 0CF00400#FF7D7D000000FFFF
(1785000265.572175) can0 09F112F8#FF74760000FF7FFD
(1785000265.584607) can0 09F11219#EAFEFFFF7FFF7FFC
(1785000265.587014) can0 18FF50E0#001487FE7F0080D4
(1785000265.589291) can0 0CF00400#FF7D7D000000FFFF
(1785000265.609254) can0 0CF00400#FF7D7D000000FFFF
(1785000265.629275) can0 0CF00400#FF7D7D000000FFFF
(1785000265.638606) can0 19F10D13#6940014801000187
(1785000265.650389) can0 0CF00400#FF7D7D000000FFFF
(1785000265.658250) can0 18F01D21#B8811680B8811680
(1785000265.669229) can0 0CF00400#FF7D7D000000FFFF
(1785000265.684555) can0 09F11219#EBFEFFFF7FFF7FFC
(1785000265.689243) can0 18FF50E0#00148700800080D5
(1785000265.689323) can0 0CF00400#FF7D7D000000FFFF
(1785000265.709253) can0 0CF00400#FF7D7D000000FFFF
(1785000265.717670) can0 09F112F8#FF76760000FF7FFD
(1785000265.729240) can0 0CF00400#FF7D7D000000FFFF
(1785000265.738547) can0 19F10D13#6A41014801000186
(1785000265.744765) can0 09F8021C#6DFCBF1A0000FFFF
(1785000265.745417) can0 09F8011C#9C6D2618446B5BC1
(1785000265.750390) can0 0CF00400#FF7D7D000000FFFF
(1785000265.750978) can0 18FEE81C#9E1300002064507E
(1785000265.758574) can0 18F01D21#0F821680B8811680
(1785000265.769353) can0 0CF00400#FF7D7D000000FFFF
(1785000265.784559) can0 09F11219#ECFEFFFF7FFF7FFC
(1785000265.789265) can0 0CF00400#FF7D7D000000FFFF
(1785000265.799725) can0 18FF50E0#00148700800080D6
(1785000265.809231) can0 0CF00400#FF7D7D000000FFFF
(1785000265.829243) can0 0CF00400#FF7D7D000000FFFF
(1785000265.838996) can0 19F10D13#6B41014801000186
(1785000265.850091) can0 0CF00400#FF7D7D000000FFFF
(1785000265.859234) can0 18F01D21#B8811680B8811680
(1785000265.866412) can0 09F112F8#FF79760000FF7FFD
(1785000265.869380) can0 0CF00400#FF7D7D000000FFFF
(1785000265.885208) can0 09F11219#EDFEFFFF7FFF7FFC
(1785000265.890156) can0 0CF00400#FF7D7D000000FFFF
(1785000265.901354) can0 18FF50E0#001487FD7F0080D7
(1785000265.909229) can0 0CF00400#FF7D7D000000FFFF
(1785000265.929230) can0 0CF00400#FF7D7D000000FFFF
(1785000265.938556) can0 19F10D13#6C43014801000185
(1785000265.950884) can0 0CF00400#FF7D7D000000FFFF
(1785000265.958261) can0 18F01D21#B8811680B8811680
(1785000265.969233) can0 0CF00400#FF7D7D000000FFFF
(1785000265.984569) can0 09F11219#EEFEFFFF7FFF7FFC
(1785000265.989256) can0 0CF00400#FF7D7D000000FFFF
(1785000266.002127) can0 18FF50E0#00148700800080D8
(1785000266.009242) can0 0CF00400#FF7D7D000000FFFF
(1785000266.013838) can0 09F112F8#FF7E760000FF7FFD
(1785000266.029249) can0 0CF00400#FF7D7D000000FFFF
(1785000266.038590) can0 19F10D13#6D40014801000187
(1785000266.050133) can0 0CF00400#FF7D7D000000FFFF
(1785000266.059021) can0 18F01D21#B8811680B8811680
(1785000266.069749) can0 0CF00400#FF7D7D000000FFFF
(1785000266.087231) can0 09F11219#EFFEFFFF7FFF7FFC
(1785000266.089217) can0 0CF00400#FF7D7D000000FFFF
(1785000266.105831) can0 18FF50E0#001487FB7F0080D9
(1785000266.109283) can0 0CF00400#FF7D7D000000FFFF
(1785000266.129239) can0 0CF00400#FF7D7D000000FFFF
(1785000266.138593) can0 19F10D13#6E41014801000186
(1785000266.150380) can0 0CF00400#FF7D7D000000FFFF
(1785000266.159067) can0 18F01D21#B8811680B8811680
(1785000266.160231) can0 09F112F8#FF85760000FF7FFD
(1785000266.169213) can0 0CF00400#FF7D7D000000FFFF
(1785000266.184604) can0 09F11219#F0FEFFFF7FFF7FFC
(1785000266.189242) can0 0CF00400#FF7D7D000000FFFF
(1785000266.208700) can0 18FF50E0#00158700800080DA
(1785000266.209212) can0 0CF00400#FF7D7D000000FFFF
(1785000266.229185) can0 0CF00400#FF7D7D000000FFFF
(1785000266.238560) can0 19F10D13#6F41014801000186
(1785000266.250349) can0 0CF00400#FF7D7D000000FFFF
(1785000266.251073) can0 09F8021C#6EFCBF1A0100FFFF
(1785000266.252003) can0 09F8011C#9A6D2618426B5BC1
(1785000266.257114) can0 18FEE81C#9E1300002064507E
(1785000266.258359) can0 18F01D21#B8811680B8811680
(1785000266.269241) can0 0CF00400#FF7D7D000000FFFF
(1785000266.285004) can0 09F11219#F1FEFFFF7FFF7FFC
(1785000266.289232) can0 0CF00400#FF7D7D000000FFFF
(1785000266.309216) can0 0CF00400#FF7D7D000000FFFF
(1785000266.311725) can0 09F112F8#FF8A760000FF7FFD
(1785000266.317873) can0 18FF50E0#00158700800080DB
(1785000266.329215) can0 0CF00400#FF7D7D000000FFFF
(1785000266.338593) can0 19F10D13#7042014801000186
(1785000266.347155) can0 18EEFF1C#0204450E00000042
(1785000266.350351) can0 0CF00400#FF7D7D000000FFFF
(1785000266.358698) can0 18F01D21#B8811680B8811680
(1785000266.369243) can0 0CF00400#FF7D7D000000FFFF
(1785000266.386008) can0 09F11219#F2FEFFFF7FFF7FFC
(1785000266.389239) can0 0CF00400#FF7D7D000000FFFF
(1785000266.409223) can0 0CF00400#FF7D7D000000FFFF
(1785000266.421397) can0 18FF50E0#001587F97F0080DC
(1785000266.429240) can0 0CF00400#FF7D7D000000FFFF
(1785000266.438572) can0 19F10D13#7140014801000187
(1785000266.450359) can0 0CF00400#FF7D7D000000FFFF
(1785000266.455876) can0 09F112F8#FF8F760000FF7FFD
(1785000266.458080) can0 18F01D21#B8811680B8811680
(1785000266.469237) can0 0CF00400#FF7D7D000000FFFF
(1785000266.484595) can0 09F11219#F3FEFFFF7FFF7FFC
(1785000266.489270) can0 0CF00400#FF7D7D000000FFFF
(1785000266.509202) can0 0CF00400#FF7D7D000000FFFF
(1785000266.522441) can0 18FF50E0#00158700800080DD
(1785000266.529212) can0 0CF00400#FF7D7D000000FFFF
(1785000266.538590) can0 19F10D13#7240014801000187
(1785000266.550338) can0 0CF00400#FF7D7D000000FFFF
(1785000266.558449) can0 18F01D21#B8811680B8811680
(1785000266.569226) can0 0CF00400#FF7D7D000000FFFF
(1785000266.584571) can0 09F11219#F4FEFFFF7FFF7FFC
(1785000266.589204) can0 0CF00400#FF7D7D000000FFFF
(1785000266.605162) can0 09F112F8#FF92760000FF7FFD
(1785000266.609222) can0 0CF00400#FF7D7D000000FFFF
(1785000266.623592) can0 18FF50E0#001587FD7F0080DE
(1785000266.629220) can0 0CF00400#FF7D7D000000FFFF
(1785000266.638576) can0 19F10D13#7341014801000186
(1785000266.650339) can0 0CF00400#FF7D7D000000FFFF
(1785000266.658766) can0 18F01D21#B8811680B8811680
(1785000266.669207) can0 0CF00400#FF7D7D000000FFFF
(1785000266.684597) can0 09F11219#F5FEFFFF7FFF7FFC
(1785000266.689231) can0 0CF00400#FF7D7D000000FFFF
(1785000266.709195) can0 0CF00400#FF7D7D000000FFFF
(1785000266.725561) can0 18FF50E0#00158700800080DF
(1785000266.729289) can0 0CF00400#FF7D7D000000FFFF
(1785000266.738891) can0 19F10D13#7441014801000186
