(1784920223.951288) can0 0CF00400#FF96AED87200FFFF
(1784920223.971356) can0 0CF00400#FF96AEC07200FFFF
(1784920223.987854) can0 18F01D21#33C21980FFFFFFFF
(1784920223.991272) can0 0CF00400#FF96AE787200FFFF
(1784920224.011290) can0 0CF00400#FF96AF907200FFFF
(1784920224.022989) can0 19F10D13#1630014902600091
(1784920224.032261) can0 0CF00400#FF96AE887200FFFF
(1784920224.032819) can0 09F112F8#FF90E50000FF7FFD
(1784920224.051280) can0 0CF00400#FF96AF807200FFFF
(1784920224.071177) can0 0CF00400#FF96AF707200FFFF
(1784920224.088195) can0 18F01D21#B94A1980FFFFFFFF
(1784920224.091257) can0 0CF00400#FF96AF607200FFFF
(1784920224.111291) can0 0CF00400#FF96AF387200FFFF
(1784920224.122939) can0 19F10D13#173401490260008F
(1784920224.132307) can0 0CF00400#FF96AF207200FFFF
(1784920224.151292) can0 0CF00400#FF96AF107200FFFF
(1784920224.171228) can0 0CF00400#FF96AFF87100FFFF
(1784920224.174896) can0 09F112F8#FF06E60000FF7FFD
(1784920224.188719) can0 18F01D21#55BF1880FFFFFFFF
(1784920224.191275) can0 0CF00400#FF96AF007200FFFF
(1784920224.211289) can0 0CF00400#FF96AFC87100FFFF
(1784920224.222993) can0 19F10D13#183A01490260008B
(1784920224.232432) can0 0CF00400#FF96AFD87100FFFF
(1784920224.251186) can0 0CF00400#FF96AFD87100FFFF
(1784920224.271139) can0 0CF00400#FF96AFC07100FFFF
(1784920224.287893) can0 18F01D21#DB301880FFFFFFFF
(1784920224.291170) can0 0CF00400#FF96AFD87100FFFF
(1784920224.311287) can0 0CF00400#FF96AFD07100FFFF
(1784920224.313925) can0 09F112F8#FF65E60000FF7FFD
(1784920224.322908) can0 19F10D13#193F014902600088
(1784920224.332442) can0 0CF00400#FF96AFD87100FFFF
(1784920224.351279) can0 0CF00400#FF96AFD07100FFFF
(1784920224.371166) can0 0CF00400#FF96AFB87100FFFF
(1784920224.388415) can0 18F01D21#83B21780FFFFFFFF
(1784920224.391487) can0 0CF00400#FF96AFC87100FFFF
(1784920224.393435) can0 09F8021C#69FCDC0C0004FFFF
(1784920224.394582) can0 09F8011C#14222918D09353C1
(1784920224.397910) can0 18FEE81C#6F09E0246C675F81
(1784920224.411205) can0 0CF00400#FF96AFC87100FFFF
(1784920224.423362) can0 19F10D13#1A44014902600084
(1784920224.432098) can0 0CF00400#FF96AFB87100FFFF
(1784920224.451598) can0 0CF00400#FF96AFA07100FFFF
(1784920224.452291) can0 09F112F8#FFB3E60000FF7FFD
(1784920224.471260) can0 0CF00400#FF96AF887100FFFF
(1784920224.488699) can0 18F01D21#D0551780FFFFFFFF
(1784920224.491255) can0 0CF00400#FF96AF787100FFFF
(1784920224.511303) can0 0CF00400#FF96AF787100FFFF
(1784920224.522819) can0 19F10D13#1B45014902600084
(1784920224.532840) can0 0CF00400#FF96AF807100FFFF
(1784920224.551287) can0 0CF00400#FF96AF407100FFFF
(1784920224.571253) can0 0CF00400#FF96AF687100FFFF
(1784920224.588017) can0 18F01D21#8E2A1780FFFFFFFF
(1784920224.591215) can0 0CF00400#FF96AF507100FFFF
(1784920224.593184) can0 09F112F8#FFEBE60000FF7FFD
(1784920224.611159) can0 0CF00400#FF96AF487100FFFF
(1784920224.622889) can0 19F10D13#1C45014902600084
(1784920224.632234) can0 0CF00400#FF96AFF07000FFFF
(1784920224.651261) can0 0CF00400#FF96AFE07000FFFF
(1784920224.671271) can0 0CF00400#FF96AFF07000FFFF
(1784920224.688409) can0 18F01D21#080D1780FFFFFFFF
(1784920224.691155) can0 0CF00400#FF96AFF07000FFFF
(1784920224.711143) can0 0CF00400#FF96AF007100FFFF
(1784920224.722897) can0 19F10D13#1D47014902600083
(1784920224.729404) can0 09F112F8#FF16E70000FF7FFD
(1784920224.732277) can0 0CF00400#FF96AFF07000FFFF
(1784920224.751222) can0 0CF00400#FF96AF007100FFFF
(1784920224.771263) can0 0CF00400#FF96AFE87000FFFF
(1784920224.788801) can0 18F01D21#84CD1680FFFFFFFF
(1784920224.791296) can0 0CF00400#FF96AF107100FFFF
(1784920224.811153) can0 0CF00400#FF96AF107100FFFF
(1784920224.822893) can0 19F10D13#1E4B014902600080
(1784920224.832280) can0 0CF00400#FF96AF107100FFFF
(1784920224.851259) can0 0CF00400#FF96AF107100FFFF
(1784920224.866236) can0 09F112F8#FF3AE70000FF7FFD
(1784920224.871223) can0 0CF00400#FF96AF007100FFFF
(1784920224.888209) can0 18F01D21#7D651680FFFFFFFF
(1784920224.891138) can0 0CF00400#FF96AF087100FFFF
(1784920224.898025) can0 09F8021C#6AFCBB0EFC03FFFF
(1784920224.898965) can0 09F8011C#6C232918809453C1
(1784920224.902322) can0 18FEE81C#CE0AC02436675F81
(1784920224.911239) can0 0CF00400#FF96AFF07000FFFF
(1784920224.923006) can0 19F10D13#1F4F01490260007E
(1784920224.932399) can0 0CF00400#FF96AFE07000FFFF
(1784920224.951265) can0 0CF00400#FF96AFD07000FFFF
(1784920224.971120) can0 0CF00400#FF96AFC87000FFFF
(1784920224.988561) can0 18F01D21#A7E11580FFFFFFFF
(1784920224.991261) can0 0CF00400#FF96AFE07000FFFF
(1784920225.003923) can0 09F112F8#FF54E70000FF7FFD
(1784920225.011156) can0 0CF00400#FF96AFC07000FFFF
(1784920225.022894) can0 19F10D13#205301490260007C
(1784920225.032416) can0 0CF00400#FF96AFC87000FFFF
(1784920225.051259) can0 0CF00400#FF96AFB87000FFFF
(1784920225.071253) can0 0CF00400#FF96AFA87000FFFF
(1784920225.088835) can0 18F01D21#315F1580FFFFFFFF
(1784920225.091105) can0 0CF00400#FF96AFD07000FFFF
(1784920225.111265) can0 0CF00400#FF96AFC07000FFFF
(1784920225.123019) can0 19F10D13#2158014902600079
(1784920225.132410) can0 0CF00400#FF96AFC07000FFFF
(1784920225.142003) can0 09F112F8#FF5EE70000FF7FFD
(1784920225.151257) can0 0CF00400#FF96AFE07000FFFF
(1784920225.171256) can0 0CF00400#FF96AFD87000FFFF
(1784920225.188045) can0 18F01D21#BEE81480FFFFFFFF
(1784920225.191108) can0 0CF00400#FF96AF087100FFFF
(1784920225.211166) can0 0CF00400#FF96AFE87000FFFF
(1784920225.222950) can0 19F10D13#225A014902600078
(1784920225.232277) can0 0CF00400#FF96AFF07000FFFF
(1784920225.251210) can0 0CF00400#FF96AFF87000FFFF
(1784920225.271143) can0 0CF00400#FF96AFD87000FFFF
(1784920225.274914) can0 09F112F8#FF56E70000FF7FFD
(1784920225.288645) can0 18F01D21#3A921480FFFFFFFF
(1784920225.291210) can0 0CF00400#FF96AFF87000FFFF
(1784920225.311232) can0 0CF00400#FF96AF007100FFFF
(1784920225.323060) can0 19F10D13#235F014902600075
(1784920225.331817) can0 0CF00400#FF96AFE87000FFFF
(1784920225.351499) can0 0CF00400#FF96AFF07000FFFF
(1784920225.371260) can0 0CF00400#FF96AFE87000FFFF
(1784920225.388902) can0 18F01D21#F5881480FFFFFFFF
(1784920225.391278) can0 0CF00400#FF96AFE07000FFFF
(1784920225.407656) can0 09F8021C#6BFCC410FE03FFFF
(1784920225.408717) can0 09F8011C#68252918AC9553C1
(1784920225.411578) can0 0CF00400#FF96AFE87000FFFF
(1784920225.413811) can0 18FEE81C#4C0CD02419675E81
(1784920225.416288) can0 09F112F8#FF3BE70000FF7FFD
(1784920225.423370) can0 19F10D13#245E014902600076
(1784920225.432593) can0 0CF00400#FF96AFC87000FFFF
(1784920225.451111) can0 0CF00400#FF96AFC87000FFFF
(1784920225.471238) can0 0CF00400#FF96AFC07000FFFF
(1784920225.488304) can0 18F01D21#F5881480FFFFFFFF
(1784920225.491256) can0 0CF00400#FF96AFD87000FFFF
(1784920225.511206) can0 0CF00400#FF96AFD07000FFFF
(1784920225.523378) can0 19F10D13#255F014902600075
(1784920225.532414) can0 0CF00400#FF96AFC87000FFFF
(1784920225.551285) can0 0CF00400#FF96AFF07000FFFF
(1784920225.553859) can0 09F112F8#FF18E70000FF7FFD
(1784920225.571230) can0 0CF00400#FF96AFB07000FFFF
(1784920225.588776) can0 18F01D21#4D891480FFFFFFFF
(1784920225.591228) can0 0CF00400#FF96AFA07000FFFF
(1784920225.611123) can0 0CF00400#FF96AFA07000FFFF
(1784920225.622886) can0 19F10D13#2661014902600074
(1784920225.632114) can0 0CF00400#FF96AFB07000FFFF
(1784920225.651244) can0 0CF00400#FF96AFA07000FFFF
(1784920225.671239) can0 0CF00400#FF96AFA07000FFFF
(1784920225.689037) can0 18F01D21#4D891480FFFFFFFF
(1784920225.690303) can0 09F112F8#FFECE60000FF7FFD
(1784920225.691228) can0 0CF00400#FF96AF887000FFFF
(1784920225.711119) can0 0CF00400#FF96AF807000FFFF
(1784920225.722891) can0 19F10D13#275F014902600075
(1784920225.732340) can0 0CF00400#FF96AF487000FFFF
(1784920225.751233) can0 0CF00400#FF96AF587000FFFF
(1784920225.771049) can0 0CF00400#FF96AF687000FFFF
(1784920225.788519) can0 18F01D21#60801480FFFFFFFF
(1784920225.791221) can0 0CF00400#FF96AF587000FFFF
(1784920225.811138) can0 0CF00400#FF96AF587000FFFF
(1784920225.822898) can0 19F10D13#285F014902600075
(1784920225.827345) can0 09F112F8#FFBBE60000FF7FFD
(1784920225.832363) can0 0CF00400#FF95AF387000FFFF
(1784920225.851139) can0 0CF00400#FF96AF487000FFFF
(1784920225.871241) can0 0CF00400#FF96AF307000FFFF
(1784920225.888847) can0 18F01D21#C5541480FFFFFFFF
(1784920225.891139) can0 0CF00400#FF96AF607000FFFF
(1784920225.911214) can0 0CF00400#FF96AF687000FFFF
(1784920225.914675) can0 09F8021C#6CFC3A11FD03FFFF
(1784920225.916384) can0 09F8011C#BA2629187A9653C1
(1784920225.921680) can0 18FEE81C#A30CE02419675E81
(1784920225.923333) can0 19F10D13#2960014902600074
(1784920225.932418) can0 0CF00400#FF96AF607000FFFF
(1784920225.951261) can0 0CF00400#FF96AF707000FFFF
(1784920225.971143) can0 0CF00400#FF96AF787000FFFF
(1784920225.972916) can0 09F112F8#FF7CE60000FF7FFD
(1784920225.987894) can0 18F01D21#7C3F1480FFFFFFFF
(1784920225.991134) can0 0CF00400#FF96AF787000FFFF
(1784920226.011232) can0 0CF00400#FF96AF807000FFFF
(1784920226.023003) can0 19F10D13#2A61014902600074
(1784920226.032353) can0 0CF00400#FF96AF987000FFFF
(1784920226.051242) can0 0CF00400#FF96AFB07000FFFF
(1784920226.071154) can0 0CF00400#FF96AFA87000FFFF
(1784920226.088483) can0 18F01D21#753E1480FFFFFFFF
(1784920226.091128) can0 0CF00400#FF96AFA07000FFFF
(1784920226.110314) can0 09F112F8#FF4AE60000FF7FFD
(1784920226.111238) can0 0CF00400#FF96AFA07000FFFF
(1784920226.123003) can0 19F10D13#2B61014902600074
(1784920226.132346) can0 0CF00400#FF96AF807000FFFF
(1784920226.151240) can0 0CF00400#FF96AF907000FFFF
(1784920226.171130) can0 0CF00400#FF96AF807000FFFF
(1784920226.188859) can0 18F01D21#1D3E1480FFFFFFFF
(1784920226.191145) can0 0CF00400#FF96AF887000FFFF
(1784920226.211226) can0 0CF00400#FF96AF807000FFFF
(1784920226.222975) can0 19F10D13#2C61014902600074
(1784920226.231769) can0 0CF00400#FF96AF607000FFFF
(1784920226.250322) can0 09F112F8#FF23E60000FF7FFD
(1784920226.251393) can0 0CF00400#FF96AF907000FFFF
(1784920226.271168) can0 0CF00400#FF96AF687000FFFF
(1784920226.288048) can0 18F01D21#C1311480FFFFFFFF
(1784920226.291254) can0 0CF00400#FF96AF907000FFFF
(1784920226.311260) can0 0CF00400#FF96AF907000FFFF
(1784920226.323008) can0 19F10D13#2D62014902600073
(1784920226.332794) can0 0CF00400#FF96AF807000FFFF
(1784920226.351256) can0 0CF00400#FF96AF907000FFFF
(1784920226.371247) can0 0CF00400#FF96AF987000FFFF
(1784920226.388503) can0 18F01D21#3A141480FFFFFFFF
(1784920226.391238) can0 0CF00400#FF96AFB07000FFFF
(1784920226.391968) can0 09F112F8#FF0EE60000FF7FFD
(1784920226.411136) can0 0CF00400#FF96AFB07000FFFF
(1784920226.423475) can0 19F10D13#2E62014902600073
(1784920226.425888) can0 09F8021C#6DFC18110E04FFFF
(1784920226.426822) can0 09F8011C#B4282918B69753C1
(1784920226.429824) can0 18FEE81C#8A0C6025FF665E81
(1784920226.432122) can0 0CF00400#FF96AF907000FFFF
(1784920226.451639) can0 0CF00400#FF96AFB87000FFFF
(1784920226.471125) can0 0CF00400#FF96AFA87000FFFF
(1784920226.488857) can0 18F01D21#DDD91380FFFFFFFF
(1784920226.491134) can0 0CF00400#FF96AF987000FFFF
(1784920226.511250) can0 0CF00400#FF96AF987000FFFF
(1784920226.523009) can0 19F10D13#2F65014902600072
(1784920226.526692) can0 09F112F8#FFFDE50000FF7FFD
(1784920226.532338) can0 0CF00400#FF96AFA87000FFFF
(1784920226.551257) can0 0CF00400#FF96AFB07000FFFF
(1784920226.571060) can0 0CF00400#FF96AFA87000FFFF
(1784920226.588111) can0 18F01D21#827D1380FFFFFFFF
(1784920226.591079) can0 0CF00400#FF96AF807000FFFF
(1784920226.611149) can0 0CF00400#FF96AF907000FFFF
(1784920226.622892) can0 19F10D13#306901490260006F
(1784920226.632340) can0 0CF00400#FF96AF987000FFFF
(1784920226.651251) can0 0CF00400#FF96AFA87000FFFF
(1784920226.669496) can0 09F112F8#FFDBE50000FF7FFD
(1784920226.671138) can0 0CF00400#FF96AFC07000FFFF
(1784920226.688723) can0 18F01D21#00051380FFFFFFFF
(1784920226.691264) can0 0CF00400#FF96AFB07000FFFF
(1784920226.711245) can0 0CF00400#FF96AFB07000FFFF
(1784920226.723209) can0 19F10D13#316E01490260006D
(1784920226.732257) can0 0CF00400#FF96AFA87000FFFF
(1784920226.751252) can0 0CF00400#FF96AF987000FFFF
(1784920226.771064) can0 0CF00400#FF96AFA07000FFFF
(1784920226.788957) can0 18F01D21#37A51280FFFFFFFF
(1784920226.791178) can0 0CF00400#FF96AFB07000FFFF
(1784920226.811148) can0 0CF00400#FF96AFA87000FFFF
(1784920226.812954) can0 09F112F8#FFA0E50000FF7FFD
(1784920226.822904) can0 19F10D13#327001490260006C
(1784920226.832298) can0 0CF00400#FF96AF887000FFFF
(1784920226.851154) can0 0CF00400#FF96AFB07000FFFF
(1784920226.871167) can0 0CF00400#FF96AFC87000FFFF
(1784920226.888429) can0 18F01D21#58871280FFFFFFFF
(1784920226.891177) can0 0CF00400#FF96AFC87000FFFF
(1784920226.911151) can0 0CF00400#FF96AFC07000FFFF
(1784920226.923413) can0 19F10D13#3374014902600069
(1784920226.932281) can0 0CF00400#FF96AFB87000FFFF
(1784920226.933366) can0 09F8021C#6EFCA8101404FFFF
(1784920226.934521) can0 09F8011C#B42A2918F09853C1
(1784920226.939408) can0 18FEE81C#380C9825E9665D81
(1784920226.951255) can0 09F112F8#FF55E50000FF7FFD
(1784920226.951661) can0 0CF00400#FF96AFC07000FFFF
(1784920226.971075) can0 0CF00400#FF96AFC87000FFFF
(1784920226.988651) can0 18F01D21#B0871280FFFFFFFF
(1784920226.991254) can0 0CF00400#FF96AFC07000FFFF
(1784920227.011263) can0 0CF00400#FF96AFC87000FFFF
(1784920227.023026) can0 19F10D13#3474014902600069
(1784920227.032279) can0 0CF00400#FF96AFC87000FFFF
(1784920227.051260) can0 0CF00400#FF96AFF07000FFFF
(1784920227.071250) can0 0CF00400#FF96AFF87000FFFF
(1784920227.088894) can0 18F01D21#58871280FFFFFFFF
(1784920227.089447) can0 09F112F8#FF09E50000FF7FFD
(1784920227.091173) can0 0CF00400#FF96AFE07000FFFF
(1784920227.111261) can0 0CF00400#FF96AFC07000FFFF
(1784920227.123035) can0 19F10D13#3574014902600069
(1784920227.131073) can0 0CF00400#FF96AFA87000FFFF
(1784920227.151293) can0 0CF00400#FF96AFD07000FFFF
(1784920227.172195) can0 0CF00400#FF96AFD87000FFFF
(1784920227.188388) can0 18F01D21#A9861280FFFFFFFF
(1784920227.191082) can0 0CF00400#FF96AFB87000FFFF
(1784920227.211079) can0 0CF00400#FF96AFB87000FFFF
(1784920227.223232) can0 19F10D13#3675014902600069
(1784920227.229503) can0 09F112F8#FFBEE40000FF7FFD
(1784920227.232798) can0 0CF00400#FF96AFB87000FFFF
(1784920227.251455) can0 0CF00400#FF96AFD07000FFFF
(1784920227.271267) can0 0CF00400#FF96AFF07000FFFF
(1784920227.288766) can0 18F01D21#51861280FFFFFFFF
(1784920227.291084) can0 0CF00400#FF96AFF07000FFFF
(1784920227.311173) can0 0CF00400#FF96AFC87000FFFF
(1784920227.323209) can0 19F10D13#3775014902600069
(1784920227.332248) can0 0CF00400#FF96AFC07000FFFF
(1784920227.351588) can0 0CF00400#FF96AFB07000FFFF
(1784920227.365028) can0 09F112F8#FF7EE40000FF7FFD
(1784920227.371084) can0 0CF00400#FF96AFB07000FFFF
(1784920227.389182) can0 18F01D21#2E761280FFFFFFFF
(1784920227.391187) can0 0CF00400#FF96AFA07000FFFF
(1784920227.411185) can0 0CF00400#FF96AFB87000FFFF
(1784920227.423236) can0 19F10D13#3876014902600068
(1784920227.432107) can0 0CF00400#FF96AFA87000FFFF
(1784920227.438319) can0 09F8021C#6FFCE70F1E04FFFF
(1784920227.439979) can0 09F8011C#102C2918BC9953C1
(1784920227.446022) can0 18FEE81C#AA0BF825D4665D81
(1784920227.451619) can0 0CF00400#FF96AFC87000FFFF
(1784920227.471191) can0 0CF00400#FF96AFF07000FFFF
(1784920227.488513) can0 18F01D21#034E1280FFFFFFFF
(1784920227.491088) can0 0CF00400#FF96AFE07000FFFF
(1784920227.501893) can0 09F112F8#FF44E40000FF7FFD
(1784920227.511179) can0 0CF00400#FF96AFD07000FFFF
(1784920227.522969) can0 19F10D13#3977014902600068
(1784920227.532300) can0 0CF00400#FF96AFD07000FFFF
(1784920227.551465) can0 0CF00400#FF96AFE87000FFFF
(1784920227.571059) can0 0CF00400#FF96AFE07000FFFF
(1784920227.588832) can0 18F01D21#5D2C1280FFFFFFFF
(1784920227.591180) can0 0CF00400#FF96AFC07000FFFF
(1784920227.611075) can0 0CF00400#FF96AFA07000FFFF
(1784920227.622895) can0 19F10D13#3A78014902600067
(1784920227.632328) can0 0CF00400#FF96AFB87000FFFF
(1784920227.635897) can0 09F112F8#FF08E40000FF7FFD
(1784920227.652150) can0 0CF00400#FF96AFC07000FFFF
(1784920227.671183) can0 0CF00400#FF96AFC87000FFFF
(1784920227.689311) can0 18F01D21#14171280FFFFFFFF
(1784920227.691061) can0 0CF00400#FF96AFC07000FFFF
(1784920227.711066) can0 0CF00400#FF96AFA87000FFFF
(1784920227.722895) can0 19F10D13#3B79014902600067
(1784920227.732281) can0 0CF00400#FF96AF987000FFFF
(1784920227.751056) can0 0CF00400#FF96AFA07000FFFF
(1784920227.771183) can0 0CF00400#FF96AFB87000FFFF
(1784920227.773028) can0 09F112F8#FFC6E30000FF7FFD
(1784920227.788502) can0 18F01D21#CF0D1280FFFFFFFF
(1784920227.791084) can0 0CF00400#FF96AFB07000FFFF
(1784920227.811183) can0 0CF00400#FF96AF807000FFFF
(1784920227.823041) can0 19F10D13#3C7A014902600066
(1784920227.832307) can0 0CF00400#FF96AF687000FFFF
(1784920227.851141) can0 0CF00400#FF96AF587000FFFF
(1784920227.871086) can0 0CF00400#FF96AF507000FFFF
(1784920227.888969) can0 18F01D21#59091280FFFFFFFF
(1784920227.891199) can0 0CF00400#FF96AF507000FFFF
(1784920227.910474) can0 09F112F8#FF83E30000FF7FFD
(1784920227.911060) can0 0CF00400#FF96AF507000FFFF
(1784920227.922890) can0 19F10D13#3D79014902600067
(1784920227.932264) can0 0CF00400#FF96AF507000FFFF
(1784920227.951200) can0 0CF00400#FF96AF687000FFFF
(1784920227.951682) can0 09F8021C#70FC210F2404FFFF
(1784920227.952780) can0 09F8011C#1C2E2918EC9A53C1
(1784920227.956733) can0 18FEE81C#190B3026D4665D81
(1784920227.971925) can0 0CF00400#FF96AF587000FFFF
(1784920227.989315) can0 18F01D21#01091280FFFFFFFF
(1784920227.991080) can0 0CF00400#FF96AF507000FFFF
(1784920228.011168) can0 0CF00400#FF96AF587000FFFF
(1784920228.023003) can0 19F10D13#3E7A014902600066
(1784920228.032320) can0 0CF00400#FF96AF707000FFFF
(1784920228.047056) can0 09F112F8#FF48E30000FF7FFD
(1784920228.051159) can0 0CF00400#FF96AF987000FFFF
(1784920228.072004) can0 0CF00400#FF96AFA87000FFFF
(1784920228.088786) can0 18F01D21#04FE1180FFFFFFFF
(1784920228.091069) can0 0CF00400#FF96AFA87000FFFF
(1784920228.111145) can0 0CF00400#FF96AF887000FFFF
(1784920228.123208) can0 19F10D13#3F7A014902600066
(1784920228.132735) can0 0CF00400#FF96AF987000FFFF
(1784920228.151150) can0 0CF00400#FF96AFA87000FFFF
(1784920228.171160) can0 0CF00400#FF96AFE07000FFFF
(1784920228.186043) can0 09F112F8#FF0CE30000FF7FFD
(1784920228.188902) can0 18F01D21#02B91180FFFFFFFF
(1784920228.191101) can0 0CF00400#FF96AFD07000FFFF
(1784920228.211645) can0 0CF00400#FF96AFE87000FFFF
(1784920228.223201) can0 19F10D13#407D014902600064
(1784920228.232194) can0 0CF00400#FF96AFF87000FFFF
(1784920228.251130) can0 0CF00400#FF96AF087100FFFF
(1784920228.271157) can0 0CF00400#FF96AF187100FFFF
(1784920228.289369) can0 18F01D21#0B531180FFFFFFFF
(1784920228.291158) can0 0CF00400#FF96AF187100FFFF
(1784920228.311117) can0 0CF00400#FF96AF187100FFFF
(1784920228.321933) can0 09F112F8#FFDCE20000FF7FFD
(1784920228.322931) can0 19F10D13#4180014902600063
(1784920228.332270) can0 0CF00400#FF96AF207100FFFF
(1784920228.351094) can0 0CF00400#FF96AF487100FFFF
(1784920228.371157) can0 0CF00400#FF96AF587100FFFF
(1784920228.388848) can0 18F01D21#7B061180FFFFFFFF
(1784920228.391112) can0 0CF00400#FF96AF807100FFFF
(1784920228.411075) can0 0CF00400#FF96AF887100FFFF
(1784920228.422925) can0 19F10D13#4283014902600061
(1784920228.432282) can0 0CF00400#FF96AF987100FFFF
(1784920228.451254) can0 0CF00400#FF96AFB87100FFFF
(1784920228.458375) can0 09F8021C#71FC520E3704FFFF
(1784920228.459401) can0 09F8011C#842F2918AE9B53C1
(1784920228.463352) can0 18FEE81C#810AE02671665C81
(1784920228.466277) can0 09F112F8#FFAAE20000FF7FFD
(1784920228.471172) can0 0CF00400#FF96AFC87100FFFF
(1784920228.489201) can0 18F01D21#17F91080FFFFFFFF
(1784920228.491114) can0 0CF00400#FF96AFE07100FFFF
(1784920228.511182) can0 0CF00400#FF96AFE87100FFFF
(1784920228.523031) can0 19F10D13#4385014902600060
(1784920228.532280) can0 0CF00400#FF96AFE07100FFFF
(1784920228.551128) can0 0CF00400#FF96AF007200FFFF
(1784920228.571134) can0 0CF00400#FF96AF087200FFFF
(1784920228.589538) can0 18F01D21#10F81080FFFFFFFF
(1784920228.591147) can0 0CF00400#FF96AFF87100FFFF
(1784920228.599447) can0 09F112F8#FF71E20000FF7FFD
(1784920228.611054) can0 0CF00400#FF96AF087200FFFF
(1784920228.622918) can0 19F10D13#4485014902600060
(1784920228.632170) can0 0CF00400#FF96AFF87100FFFF
(1784920228.651154) can0 0CF00400#FF96AFE07100FFFF
(1784920228.671052) can0 0CF00400#FF96AFE87100FFFF
(1784920228.688802) can0 18F01D21#60F71080FFFFFFFF
(1784920228.691130) can0 0CF00400#FF96AFE07100FFFF
(1784920228.711057) can0 0CF00400#FF96AFC87100FFFF
(1784920228.722919) can0 19F10D13#4585014902600060
(1784920228.732283) can0 0CF00400#FF96AFD87100FFFF
(1784920228.742313) can0 09F112F8#FF16E20000FF7FFD
(1784920228.751166) can0 0CF00400#FF96AF987100FFFF
(1784920228.771060) can0 0CF00400#FF96AF807100FFFF
(1784920228.789310) can0 18F01D21#60F71080FFFFFFFF
(1784920228.791166) can0 0CF00400#FF96AF907100FFFF
(1784920228.811079) can0 0CF00400#FF96AFA07100FFFF
(1784920228.823223) can0 19F10D13#4685014902600060
(1784920228.832287) can0 0CF00400#FF96AFB87100FFFF
(1784920228.851126) can0 0CF00400#FF96AFA87100FFFF
(1784920228.871179) can0 0CF00400#FF96AFA87100FFFF
(1784920228.883967) can0 09F112F8#FFB7E10000FF7FFD
(1784920228.889591) can0 18F01D21#08F71080FFFFFFFF
(1784920228.891073) can0 0CF00400#FF96AFA07100FFFF
(1784920228.911163) can0 0CF00400#FF96AFB07100FFFF
(1784920228.922996) can0 19F10D13#4784014902600061
(1784920228.932226) can0 0CF00400#FF96AFA87100FFFF
(1784920228.951177) can0 0CF00400#FF96AF907100FFFF
(1784920228.965726) can0 09F8021C#72FC290D3604FFFF
(1784920228.966805) can0 09F8011C#A8312918BC9C53C1
(1784920228.969805) can0 18FEE81C#A709D02696665C81
(1784920228.972191) can0 0CF00400#FF96AF807100FFFF
(1784920228.988719) can0 18F01D21#58F61080FFFFFFFF
(1784920228.991532) can0 0CF00400#FF96AF887100FFFF
(1784920229.011128) can0 0CF00400#FF96AFA87100FFFF
(1784920229.022995) can0 19F10D13#4885014902600060
(1784920229.025066) can0 09F112F8#FF4EE10000FF7FFD
(1784920229.032697) can0 0CF00400#FF96AFA07100FFFF
(1784920229.051021) can0 0CF00400#FF96AF987100FFFF
(1784920229.071124) can0 0CF00400#FF96AF787100FFFF
(1784920229.089232) can0 18F01D21#58DF1080FFFFFFFF
(1784920229.091132) can0 0CF00400#FF96AF707100FFFF
(1784920229.111135) can0 0CF00400#FF96AF907100FFFF
(1784920229.123543) can0 19F10D13#4986014902600060
(1784920229.132301) can0 0CF00400#FF96AFB07100FFFF
(1784920229.151134) can0 0CF00400#FF96AF987100FFFF
(1784920229.164491) can0 09F112F8#FFEBE00000FF7FFD
(1784920229.171059) can0 0CF00400#FF96AF907100FFFF
(1784920229.188650) can0 18F01D21#BBD51080FFFFFFFF
(1784920229.191057) can0 0CF00400#FF96AF787100FFFF
(1784920229.211123) can0 0CF00400#FF96AF887100FFFF
(1784920229.222897) can0 19F10D13#4A86014902600060
(1784920229.232196) can0 0CF00400#FF96AF887100FFFF
(1784920229.251134) can0 0CF00400#FF96AF987100FFFF
(1784920229.271146) can0 0CF00400#FF96AFC07100FFFF
(1784920229.289000) can0 18F01D21#8DCF1080FFFFFFFF
(1784920229.291075) can0 0CF00400#FF96AFD07100FFFF
(1784920229.304089) can0 09F112F8#FF8CE00000FF7FFD
(1784920229.311055) can0 0CF00400#FF96AFD87100FFFF
(1784920229.322897) can0 19F10D13#4B86014902600060
(1784920229.332242) can0 0CF00400#FF96AFC07100FFFF
(1784920229.351152) can0 0CF00400#FF96AFC07100FFFF
(1784920229.371059) can0 0CF00400#FF96AFD07100FFFF
(1784920229.389383) can0 18F01D21#CDB51080FFFFFFFF
(1784920229.391114) can0 0CF00400#FF96AFD87100FFFF
(1784920229.411051) can0 0CF00400#FF96AFB87100FFFF
(1784920229.422896) can0 19F10D13#4C8701490260005F
(1784920229.432193) can0 0CF00400#FF96AF987100FFFF
(1784920229.445118) can0 09F112F8#FF2EE00000FF7FFD
(1784920229.451007) can0 0CF00400#FF96AF987100FFFF
(1784920229.471120) can0 0CF00400#FF96AFB87100FFFF
(1784920229.471693) can0 09F8021C#73FC050C3E04FFFF
(1784920229.472676) can0 09F8011C#1A3329185A9D53C1
(1784920229.477850) can0 18FEE81C#D108202796665C81
(1784920229.489226) can0 18F01D21#367F1080FFFFFFFF
(1784920229.491096) can0 0CF00400#FF96AFD07100FFFF
(1784920229.510970) can0 0CF00400#FF96AFC87100FFFF
(1784920229.523089) can0 19F10D13#4D8A01490260005D
(1784920229.532244) can0 0CF00400#FF96AFA87100FFFF
(1784920229.551115) can0 0CF00400#FF96AFB07100FFFF
(1784920229.570954) can0 0CF00400#FF96AFA87100FFFF
(1784920229.584426) can0 09F112F8#FFCEDF0000FF7FFD
(1784920229.588886) can0 18F01D21#A7321080FFFFFFFF
(1784920229.591047) can0 0CF00400#FF96AFB07100FFFF
(1784920229.611099) can0 0CF00400#FF96AFC87100FFFF
(1784920229.623013) can0 19F10D13#4E8E01490260005B
(1784920229.632239) can0 0CF00400#FF96AFB87100FFFF
(1784920229.651115) can0 0CF00400#FF96AFD87100FFFF
(1784920229.671124) can0 0CF00400#FF96AFC87100FFFF
(1784920229.689301) can0 18F01D21#2DD20F80FFFFFFFF
(1784920229.691036) can0 0CF00400#FF96AFB87100FFFF
(1784920229.711127) can0 0CF00400#FF96AFC07100FFFF
(1784920229.722006) can0 09F112F8#FF6DDF0000FF7FFD
(1784920229.723015) can0 19F10D13#4F91014902600059
(1784920229.732251) can0 0CF00400#FF96AFB87100FFFF
(1784920229.750998) can0 0CF00400#FF96AFB07100FFFF
(1784920229.771022) can0 0CF00400#FF96AFB87100FFFF
(1784920229.788785) can0 18F01D21#A0630F80FFFFFFFF
(1784920229.791143) can0 0CF00400#FF96AFB87100FFFF
(1784920229.811009) can0 0CF00400#FF96AFA87100FFFF
(1784920229.823019) can0 19F10D13#5096014902600057
(1784920229.832205) can0 0CF00400#FF96AFA87100FFFF
(1784920229.851115) can0 0CF00400#FF96AF907100FFFF
(1784920229.857362) can0 09F112F8#FF0EDF0000FF7FFD
(1784920229.871786) can0 0CF00400#FF96AF907100FFFF
(1784920229.889005) can0 18F01D21#E6EE0E80FFFFFFFF
(1784920229.891394) can0 0CF00400#FF96AF787100FFFF
(1784920229.911117) can0 0CF00400#FF96AF587100FFFF
(1784920229.923013) can0 19F10D13#5199014902600055
(1784920229.932675) can0 0CF00400#FF96AF707100FFFF
(1784920229.951127) can0 0CF00400#FF96AF687100FFFF
(1784920229.971111) can0 0CF00400#FF96AF587100FFFF
(1784920229.977207) can0 09F8021C#74FCB8094504FFFF
(1784920229.978327) can0 09F8011C#4C3529182E9E53C1
(1784920229.983168) can0 18FEE81C#2107602788665B81
(1784920229.989561) can0 18F01D21#6B600E80FFFFFFFF
(1784920229.991174) can0 0CF00400#FF96AF587100FFFF
(1784920229.996561) can0 09F112F8#FF94DE0000FF7FFD
(1784920230.010947) can0 0CF00400#FF96AF407100FFFF
(1784920230.023438) can0 19F10D13#529E014902600052
(1784920230.032229) can0 0CF00400#FF96AF507100FFFF
(1784920230.051098) can0 0CF00400#FF97AF487100FFFF
(1784920230.070989) can0 0CF00400#FF99B0187100FFFF
(1784920230.088933) can0 18F01D21#75AA0D80FFFFFFFF
(1784920230.091133) can0 0CF00400#FF9AB1107100FFFF
(1784920230.110953) can0 0CF00400#FF9AB2087100FFFF
(1784920230.122887) can0 19F10D13#53A601490260004E
(1784920230.132077) can0 0CF00400#FF9BB3607100FFFF
(1784920230.132967) can0 09F112F8#FF13DE0000FF7FFD
(1784920230.151133) can0 0CF00400#FF9BB3C07100FFFF
(1784920230.171131) can0 0CF00400#FF9BB4387200FFFF
(1784920230.189252) can0 18F01D21#CBE70C80FFFFFFFF
(1784920230.191009) can0 0CF00400#FF9BB4707200FFFF
(1784920230.211115) can0 0CF00400#FF9BB3F07200FFFF
(1784920230.223033) can0 19F10D13#54AD01490260004A
(1784920230.232169) can0 0CF00400#FF9BB3687300FFFF
(1784920230.251107) can0 0CF00400#FF9BB3C87300FFFF
(1784920230.266594) can0 09F112F8#FF8FDD0000FF7FFD
(1784920230.270957) can0 0CF00400#FF9BB3207400FFFF
(1784920230.289589) can0 18F01D21#F96F0C80FFFFFFFF
(1784920230.291025) can0 0CF00400#FF9BB3707400FFFF
(1784920230.311140) can0 0CF00400#FF9BB3B87400FFFF
(1784920230.323067) can0 19F10D13#55B0014902600048
(1784920230.332213) can0 0CF00400#FF9BB3087500FFFF
(1784920230.351100) can0 0CF00400#FF9BB3407500FFFF
(1784920230.371102) can0 0CF00400#FF9BB3687500FFFF
(1784920230.388940) can0 18F01D21#8D4A0C80FFFFFFFF
(1784920230.391139) can0 0CF00400#FF9BB3B07500FFFF
(1784920230.403338) can0 09F112F8#FFEADC0000FF7FFD
(1784920230.410947) can0 0CF00400#FF9BB3F07500FFFF
(1784920230.422902) can0 19F10D13#56B0014902600048
(1784920230.432219) can0 0CF00400#FF9BB3007600FFFF
(1784920230.451100) can0 0CF00400#FF9BB2287600FFFF
(1784920230.470900) can0 0CF00400#FF9BB2487600FFFF
(1784920230.485530) can0 09F8021C#75FC95074104FFFF
(1784920230.486664) can0 09F8011C#CA362918A09E53C1
(1784920230.489148) can0 18F01D21#7C1A0C80FFFFFFFF
(1784920230.490790) can0 18FEE81C#9005382787665A81
(1784920230.491502) can0 0CF00400#FF9BB2807600FFFF
(1784920230.511408) can0 0CF00400#FF9BB2A87600FFFF
(1784920230.522870) can0 19F10D13#57B2014902600047
(1784920230.532120) can0 0CF00400#FF9BB2D07600FFFF
(1784920230.537263) can0 09F112F8#FF42DC0000FF7FFD
(1784920230.551099) can0 0CF00400#FF9BB2E87600FFFF
(1784920230.570953) can0 0CF00400#FF9BB2107700FFFF
(1784920230.589682) can0 18F01D21#110C0C80FFFFFFFF
(1784920230.591025) can0 0CF00400#FF9BB2007700FFFF
(1784920230.611095) can0 0CF00400#FF9BB2287700FFFF
(1784920230.622900) can0 19F10D13#58B3014902600047
(1784920230.632137) can0 0CF00400#FF9BB2607700FFFF
(1784920230.651105) can0 0CF00400#FF9BB2687700FFFF
(1784920230.670966) can0 0CF00400#FF9BB2707700FFFF
(1784920230.679645) can0 09F112F8#FF72DB0000FF7FFD
(1784920230.689038) can0 18F01D21#E3050C80FFFFFFFF
(1784920230.691075) can0 0CF00400#FF9BB2707700FFFF
(1784920230.710984) can0 0CF00400#FF9BB2A07700FFFF
(1784920230.723159) can0 19F10D13#59B3014902600047
(1784920230.732224) can0 0CF00400#FF9BB2B87700FFFF
(1784920230.750980) can0 0CF00400#FF9BB2D87700FFFF
(1784920230.771673) can0 0CF00400#FF9BB2E87700FFFF
(1784920230.789433) can0 18F01D21#33050C80FFFFFFFF
(1784920230.791466) can0 0CF00400#FF9BB2D87700FFFF
(1784920230.811106) can0 0CF00400#FF9BB2D87700FFFF
(1784920230.816139) can0 09F112F8#FF8FDA0000FF7FFD
(1784920230.822916) can0 19F10D13#5AB4014902600046
(1784920230.832764) can0 0CF00400#FF9BB2087800FFFF
(1784920230.851152) can0 0CF00400#FF9BB2307800FFFF
(1784920230.871111) can0 0CF00400#FF9BB2287800FFFF
(1784920230.889851) can0 18F01D21#DB040C80FFFFFFFF
(1784920230.890978) can0 0CF00400#FF9BB2207800FFFF
(1784920230.911071) can0 0CF00400#FF9BB2207800FFFF
(1784920230.922895) can0 19F10D13#5BB3014902600047
(1784920230.932085) can0 0CF00400#FF9BB2487800FFFF
(1784920230.950564) can0 09F112F8#FFAFD90000FF7FFD
(1784920230.950969) can0 0CF00400#FF9BB2387800FFFF
(1784920230.970950) can0 0CF00400#FF9BB2487800FFFF
(1784920230.989029) can0 18F01D21#83040C80FFFFFFFF
(1784920230.989574) can0 09F8021C#76FCD5045104FFFF
(1784920230.991420) can0 09F8011C#0E3929181C9F53C1
(1784920230.992104) can0 0CF00400#FF9BB2587800FFFF
(1784920230.996500) can0 18FEE81C#8C03D02784665A81
(1784920231.011114) can0 0CF00400#FF9BB2787800FFFF
(1784920231.022956) can0 19F10D13#5CB4014902600046
(1784920231.032186) can0 0CF00400#FF9BB2707800FFFF
(1784920231.051030) can0 0CF00400#FF9BB2907800FFFF
(1784920231.071085) can0 0CF00400#FF9BB2887800FFFF
(1784920231.089548) can0 18F01D21#2C040C80FFFFFFFF
(1784920231.090555) can0 09F112F8#FFDFD80000FF7FFD
(1784920231.090997) can0 0CF00400#FF9BB2787800FFFF
(1784920231.111047) can0 0CF00400#FF9BB2887800FFFF
(1784920231.123048) can0 19F10D13#5DB4014902600046
(1784920231.132189) can0 0CF00400#FF9BB2B07800FFFF
(1784920231.151135) can0 0CF00400#FF9BB2C07800FFFF
(1784920231.170972) can0 0CF00400#FF9BB2C07800FFFF
(1784920231.189907) can0 18F01D21#2C040C80FFFFFFFF
(1784920231.190944) can0 0CF00400#FF9BB2B87800FFFF
(1784920231.210997) can0 0CF00400#FF9BB2D07800FFFF
(1784920231.222905) can0 19F10D13#5EB4014902600046
(1784920231.232194) can0 0CF00400#FF9BB2C07800FFFF
(1784920231.233038) can0 09F112F8#FF20D80000FF7FFD
(1784920231.251039) can0 0CF00400#FF9BB2D87800FFFF
(1784920231.271809) can0 0CF00400#FF9BB2107900FFFF
(1784920231.289125) can0 18F01D21#2C040C80FFFFFFFF
(1784920231.291051) can0 0CF00400#FF9BB2007900FFFF
(1784920231.310921) can0 0CF00400#FF9BB2107900FFFF
(1784920231.322903) can0 19F10D13#5FB4014902600046
(1784920231.332193) can0 0CF00400#FF9BB2207900FFFF
(1784920231.351132) can0 0CF00400#FF9BB2207900FFFF
(1784920231.370936) can0 0CF00400#FF9BB2307900FFFF
(1784920231.373158) can0 09F112F8#FF5DD70000FF7FFD
(1784920231.389600) can0 18F01D21#2C040C80FFFFFFFF
(1784920231.390932) can0 0CF00400#FF9BB2507900FFFF
(1784920231.411058) can0 0CF00400#FF9BB2707900FFFF
(1784920231.423157) can0 19F10D13#60B3014902600047
(1784920231.432173) can0 0CF00400#FF9BB2587900FFFF
(1784920231.451060) can0 0CF00400#FF9BB2687900FFFF
(1784920231.471787) can0 0CF00400#FF9BB2787900FFFF
(1784920231.489889) can0 18F01D21#83040C80FFFFFFFF
(1784920231.490963) can0 0CF00400#FF9BB2787900FFFF
(1784920231.497708) can0 09F8021C#77FC1B025004FFFF
(1784920231.499706) can0 09F8011C#9A3A29184A9F53C1
(1784920231.502894) can0 18FEE81C#8C01C82751665A81
(1784920231.511339) can0 0CF00400#FF9BB2807900FFFF
(1784920231.522169) can0 09F112F8#FF95D60000FF7FFD
(1784920231.523278) can0 19F10D13#61B5014902600046
(1784920231.532136) can0 0CF00400#FF9BB2607900FFFF
(1784920231.551041) can0 0CF00400#FF9BB2807900FFFF
(1784920231.571819) can0 0CF00400#FF9BB2687900FFFF
(1784920231.589226) can0 18F01D21#2C040C80FFFFFFFF
(1784920231.590930) can0 0CF00400#FF9BB2807900FFFF
(1784920231.610991) can0 0CF00400#FF9BB2887900FFFF
(1784920231.623067) can0 19F10D13#62B3014902600047
(1784920231.632161) can0 0CF00400#FF9BB2887900FFFF
(1784920231.650980) can0 0CF00400#FF9BB2987900FFFF
(1784920231.653180) can0 09F112F8#FFD0D50000FF7FFD
(1784920231.672244) can0 0CF00400#FF9BB2C07900FFFF
(1784920231.689617) can0 18F01D21#A6FD0B80FFFFFFFF
(1784920231.691262) can0 0CF00400#FF9BB2C07900FFFF
(1784920231.711437) can0 0CF00400#FF9BB2C07900FFFF
(1784920231.722908) can0 19F10D13#63B4014902600046
(1784920231.732644) can0 0CF00400#FF9BB2E07900FFFF
(1784920231.750985) can0 0CF00400#FF9BB2E07900FFFF
(1784920231.772580) can0 0CF00400#FF9BB2D87900FFFF
(1784920231.789895) can0 18F01D21#DAD60B80FFFFFFFF
(1784920231.790418) can0 09F112F8#FF13D50000FF7FFD
(1784920231.791115) can0 0CF00400#FF9BB2D07900FFFF
(1784920231.811062) can0 0CF00400#FF9BB2F87900FFFF
(1784920231.822903) can0 19F10D13#64B4014902600046
(1784920231.832066) can0 0CF00400#FF9BB2087A00FFFF
(1784920231.850937) can0 0CF00400#FF9BB2F07900FFFF
(1784920231.871874) can0 0CF00400#FF9BB2F87900FFFF
(1784920231.889377) can0 18F01D21#66990B80FFFFFFFF
(1784920231.891002) can0 0CF00400#FF9BB2107A00FFFF
(1784920231.911119) can0 0CF00400#FF9BB2F87900FFFF
(1784920231.923067) can0 19F10D13#65B7014902600045
(1784920231.932176) can0 09F112F8#FF50D40000FF7FFD
(1784920231.932598) can0 0CF00400#FF9CB2E87900FFFF
(1784920231.951056) can0 0CF00400#FF9CB2007A00FFFF
(1784920231.971094) can0 0CF00400#FF9CB2007A00FFFF
(1784920231.989666) can0 18F01D21#B85F0B80FFFFFFFF
(1784920231.990909) can0 0CF00400#FF9CB2107A00FFFF
(1784920232.008242) can0 09F8021C#78FC2BF34A04FFFF
(1784920232.009237) can0 09F8011C#EC3C29183E9F53C1
(1784920232.011422) can0 0CF00400#FF9DB2F87900FFFF
(1784920232.013657) can0 18FEE81C#5AB288277F665A81
(1784920232.016738) can0 18FEE81C#5AB288277F665A81
(1784920232.023274) can0 19F10D13#66B6014902600045
(1784920232.031712) can0 0CF00400#FF9DB3E87900FFFF
(1784920232.051060) can0 0CF00400#FF9DB3007A00FFFF
(1784920232.066572) can0 09F112F8#FF8AD30000FF7FFD
(1784920232.070967) can0 0CF00400#FF9DB3207A00FFFF
(1784920232.090056) can0 18F01D21#9C390B80FFFFFFFF
(1784920232.090913) can0 0CF00400#FF9DB3407A00FFFF
(1784920232.111062) can0 0CF00400#FF9DB3587A00FFFF
(1784920232.123203) can0 19F10D13#67BA014902600043
(1784920232.132103) can0 0CF00400#FF9DB3807A00FFFF
(1784920232.151074) can0 0CF00400#FF9DB3A07A00FFFF
(1784920232.170896) can0 0CF00400#FF9DB3987A00FFFF
(1784920232.189427) can0 18F01D21#E5370B80FFFFFFFF
(1784920232.190900) can0 0CF00400#FF9DB3B87A00FFFF
(1784920232.206066) can0 09F112F8#FFA1D20000FF7FFD
(1784920232.211062) can0 0CF00400#FF9DB3C07A00FFFF
(1784920232.223068) can0 19F10D13#68BC014902600042
(1784920232.232171) can0 0CF00400#FF9DB3D07A00FFFF
(1784920232.250953) can0 0CF00400#FF9DB3E87A00FFFF
(1784920232.270949) can0 0CF00400#FF9DB3107B00FFFF
(1784920232.289791) can0 18F01D21#E5370B80FFFFFFFF
(1784920232.290921) can0 0CF00400#FF9DB3187B00FFFF
(1784920232.311082) can0 0CF00400#FF9DB3207B00FFFF
(1784920232.322919) can0 19F10D13#69BB014902600042
(1784920232.332083) can0 0CF00400#FF9DB3387B00FFFF
(1784920232.345045) can0 09F112F8#FFB4D10000FF7FFD
(1784920232.350916) can0 0CF00400#FF9DB3607B00FFFF
(1784920232.371939) can0 0CF00400#FF9DB3587B00FFFF
(1784920232.389146) can0 18F01D21#8D370B80FFFFFFFF
(1784920232.390919) can0 0CF00400#FF9DB3507B00FFFF
(1784920232.411064) can0 0CF00400#FF9DB3787B00FFFF
(1784920232.423059) can0 19F10D13#6ABB014902600042
(1784920232.432135) can0 0CF00400#FF9DB3807B00FFFF
(1784920232.450781) can0 0CF00400#FF9DB3807B00FFFF
(1784920232.470897) can0 0CF00400#FF9DB3A87B00FFFF
(1784920232.480621) can0 09F112F8#FFC2D00000FF7FFD
(1784920232.489476) can0 18F01D21#8D370B80FFFFFFFF
(1784920232.490881) can0 0CF00400#FF9CB3A07B00FFFF
(1784920232.510916) can0 0CF00400#FF9BB2987B00FFFF
(1784920232.521948) can0 09F8021C#79FC66EE4604FFFF
(1784920232.523200) can0 09F8011C#763E2918009F53C1
(1784920232.523732) can0 19F10D13#6BBA014902600043
(1784920232.527133) can0 18FEE81C#DAAEA027C4665B81
(1784920232.530945) can0 0CF00400#FF9AB2987B00FFFF
(1784920232.550976) can0 0CF00400#FF99B1707B00FFFF
(1784920232.571126) can0 0CF00400#FF99B0507B00FFFF
(1784920232.589868) can0 18F01D21#E5370B80FFFFFFFF
(1784920232.591096) can0 0CF00400#FF99B0207B00FFFF
(1784920232.611467) can0 0CF00400#FF99AFC87A00FFFF
(1784920232.619898) can0 09F112F8#FFC2CF0000FF7FFD
(1784920232.622969) can0 19F10D13#6CBB014902600042
(1784920232.632720) can0 0CF00400#FF99AF887A00FFFF
(1784920232.651058) can0 0CF00400#FF98AF407A00FFFF
(1784920232.670915) can0 0CF00400#FF97AFF07900FFFF
(1784920232.689247) can0 18F01D21#E5370B80FFFFFFFF
(1784920232.690915) can0 0CF00400#FF97AFB07900FFFF
(1784920232.711044) can0 0CF00400#FF96AE807900FFFF
(1784920232.722927) can0 19F10D13#6DBB014902600042
(1784920232.732178) can0 0CF00400#FF95AE107900FFFF
(1784920232.751070) can0 0CF00400#FF95ADA87800FFFF
(1784920232.757167) can0 09F112F8#FFDBCE0000FF7FFD
(1784920232.771073) can0 0CF00400#FF95AC507800FFFF
(1784920232.789560) can0 18F01D21#E5370B80FFFFFFFF
(1784920232.791064) can0 0CF00400#FF95ACF07700FFFF
(1784920232.811014) can0 0CF00400#FF95AC807700FFFF
(1784920232.823780) can0 19F10D13#6EBB014902600042
(1784920232.831924) can0 0CF00400#FF95AC007700FFFF
(1784920232.850990) can0 0CF00400#FF95AC787600FFFF
(1784920232.871042) can0 0CF00400#FF95ACF87500FFFF
(1784920232.889905) can0 09F112F8#FF0CCE0000FF7FFD
(1784920232.890287) can0 18F01D21#8D370B80FFFFFFFF
(1784920232.890930) can0 0CF00400#FF94AC887500FFFF
(1784920232.911049) can0 0CF00400#FF94AC407500FFFF
(1784920232.922905) can0 19F10D13#6FBA014902600043
(1784920232.931978) can0 0CF00400#FF94ACE07400FFFF
(1784920232.951045) can0 0CF00400#FF94AC507400FFFF
(1784920232.971052) can0 0CF00400#FF94ACE07300FFFF
(1784920232.989220) can0 18F01D21#8D370B80FFFFFFFF
(1784920232.990901) can0 0CF00400#FF94AC707300FFFF
(1784920233.010917) can0 0CF00400#FF94AC087300FFFF
(1784920233.022924) can0 19F10D13#70BB014902600042
(1784920233.029479) can0 09F8021C#7AFC3AEB6204FFFF
(1784920233.030466) can0 09F8011C#BE402918549E53C1
(1784920233.031627) can0 0CF00400#FF94ACB87200FFFF
(1784920233.039116) can0 18FEE81C#87AC682882665B81
(1784920233.050705) can0 09F112F8#FF1FCD0000FF7FFD
(1784920233.051378) can0 0CF00400#FF94AC487200FFFF
(1784920233.070999) can0 0CF00400#FF94ACD87100FFFF
(1784920233.089675) can0 18F01D21#EC380B80FFFFFFFF
(1784920233.090897) can0 0CF00400#FF94AC787100FFFF
(1784920233.111041) can0 0CF00400#FF94AC207100FFFF
(1784920233.123077) can0 19F10D13#71BB014902600042
(1784920233.132109) can0 0CF00400#FF94ADD87000FFFF
(1784920233.151045) can0 0CF00400#FF94ADB07000FFFF
(1784920233.170901) can0 0CF00400#FF94AD587000FFFF
(1784920233.174187) can0 09F112F8#FF3ACC0000FF7FFD
(1784920233.189888) can0 18F01D21#AC520B80FFFFFFFF
(1784920233.190898) can0 0CF00400#FF94AD087000FFFF
(1784920233.210898) can0 0CF00400#FF94ADD86F00FFFF
(1784920233.223070) can0 19F10D13#72BB014902600042
(1784920233.232113) can0 0CF00400#FF94ADA06F00FFFF
(1784920233.251001) can0 0CF00400#FF94AD606F00FFFF
(1784920233.270898) can0 0CF00400#FF94AD486F00FFFF
(1784920233.289388) can0 18F01D21#B28C0B80FFFFFFFF
(1784920233.291046) can0 0CF00400#FF94AD406F00FFFF
(1784920233.309608) can0 09F112F8#FF50CB0000FF7FFD
(1784920233.310995) can0 0CF00400#FF94AD206F00FFFF
(1784920233.323008) can0 19F10D13#73B8014902600044
(1784920233.332158) can0 0CF00400#FF94ADF06E00FFFF
(1784920233.351046) can0 0CF00400#FF94ADD86E00FFFF
(1784920233.370901) can0 0CF00400#FF94ADA06E00FFFF
(1784920233.389887) can0 18F01D21#CBD40B80FFFFFFFF
(1784920233.391052) can0 0CF00400#FF94AD906E00FFFF
(1784920233.410889) can0 0CF00400#FF93AD906E00FFFF
(1784920233.422927) can0 19F10D13#74B6014902600045
(1784920233.431926) can0 0CF00400#FF94ADA86E00FFFF
(1784920233.450558) can0 09F112F8#FF40CA0000FF7FFD
(1784920233.451204) can0 0CF00400#FF93AD906E00FFFF
(1784920233.470902) can0 0CF00400#FF93AD786E00FFFF
(1784920233.490002) can0 18F01D21#F72A0C80FFFFFFFF
(1784920233.491217) can0 0CF00400#FF93AD586E00FFFF
(1784920233.511216) can0 0CF00400#FF94AD506E00FFFF
(1784920233.523209) can0 19F10D13#75B1014902600048
(1784920233.532333) can0 0CF00400#FF93AD406E00FFFF
(1784920233.540289) can0 09F8021C#7BFCABE53704FFFF
(1784920233.542118) can0 09F8011C#F0422918509D53C1
(1784920233.545244) can0 18FEE81C#73A8E026D4665B81
(1784920233.552108) can0 0CF00400#FF93AD406E00FFFF
(1784920233.572192) can0 0CF00400#FF93AD286E00FFFF
(1784920233.589401) can0 18F01D21#93840C80FFFFFFFF
(1784920233.590893) can0 0CF00400#FF93AD086E00FFFF
(1784920233.594190) can0 09F112F8#FF4AC90000FF7FFD
(1784920233.611003) can0 0CF00400#FF93ADE86D00FFFF
(1784920233.623081) can0 19F10D13#76AF014902600049
(1784920233.632028) can0 0CF00400#FF93ADF06D00FFFF
(1784920233.650895) can0 0CF00400#FF93ADC86D00FFFF
(1784920233.670895) can0 0CF00400#FF93ADD06D00FFFF
(1784920233.689891) can0 18F01D21#A5E20C80FFFFFFFF
(1784920233.690839) can0 0CF00400#FF93ADC86D00FFFF
(1784920233.711052) can0 0CF00400#FF93ADC06D00FFFF
(1784920233.722970) can0 19F10D13#77AC01490260004B
(1784920233.732108) can0 0CF00400#FF93ADA06D00FFFF
(1784920233.732563) can0 09F112F8#FF6BC80000FF7FFD
(1784920233.751017) can0 0CF00400#FF93AD906D00FFFF
(1784920233.770988) can0 0CF00400#FF93AD886D00FFFF
(1784920233.790178) can0 18F01D21#21380D80FFFFFFFF
(1784920233.790846) can0 0CF00400#FF93AD906D00FFFF
(1784920233.810890) can0 0CF00400#FF93AD806D00FFFF
(1784920233.822977) can0 19F10D13#78A901490260004C
(1784920233.832121) can0 0CF00400#FF93AD806D00FFFF
(1784920233.850890) can0 0CF00400#FF93AD686D00FFFF
(1784920233.871021) can0 0CF00400#FF93AD886D00FFFF
(1784920233.874169) can0 09F112F8#FFACC70000FF7FFD
(1784920233.889493) can0 18F01D21#A9830D80FFFFFFFF
(1784920233.890889) can0 0CF00400#FF93AD806D00FFFF
(1784920233.910903) can0 0CF00400#FF93AD806D00FFFF
(1784920233.923218) can0 19F10D13#79A601490260004E
(1784920233.932106) can0 0CF00400#FF93AD706D00FFFF
(1784920233.951009) can0 0CF00400#FF93AD706D00FFFF
(1784920233.971030) can0 0CF00400#FF93AD606D00FFFF
(1784920233.989979) can0 18F01D21#1AB50D80FFFFFFFF
(1784920233.990884) can0 0CF00400#FF93AD706D00FFFF
(1784920234.010892) can0 0CF00400#FF93AD706D00FFFF
(1784920234.017222) can0 09F112F8#FFF5C60000FF7FFD
(1784920234.022984) can0 19F10D13#7AA401490260004F
(1784920234.032107) can0 0CF00400#FF93AD606D00FFFF
(1784920234.045716) can0 09F8021C#7CFCF8E22A04FFFF
(1784920234.047703) can0 09F8011C#4C4429186A9C53C1
(1784920234.050838) can0 18FEE81C#78A66826F1665C81
(1784920234.051382) can0 0CF00400#FF93AD606D00FFFF
(1784920234.070897) can0 0CF00400#FF93AD306D00FFFF
(1784920234.090333) can0 18F01D21#0BCA0D80FFFFFFFF
(1784920234.090868) can0 0CF00400#FF93AD286D00FFFF
(1784920234.110886) can0 0CF00400#FF93AD406D00FFFF
(1784920234.122985) can0 19F10D13#7BA3014902600050
(1784920234.131973) can0 0CF00400#FF93AD406D00FFFF
(1784920234.150985) can0 0CF00400#FF93AD406D00FFFF
(1784920234.155503) can0 09F112F8#FF41C60000FF7FFD
(1784920234.170888) can0 0CF00400#FF93AD386D00FFFF
(1784920234.189672) can0 18F01D21#1BE30D80FFFFFFFF
(1784920234.191407) can0 0CF00400#FF93AD486D00FFFF
(1784920234.210899) can0 0CF00400#FF93AD386D00FFFF
(1784920234.222995) can0 19F10D13#7CA1014902600051
(1784920234.231967) can0 0CF00400#FF93AD386D00FFFF
(1784920234.250942) can0 0CF00400#FF93AD386D00FFFF
(1784920234.271027) can0 0CF00400#FF93AD306D00FFFF
(1784920234.289771) can0 18F01D21#2F080E80FFFFFFFF
(1784920234.290826) can0 0CF00400#FF93AD286D00FFFF
(1784920234.295107) can0 09F112F8#FF9AC50000FF7FFD
(1784920234.310888) can0 0CF00400#FF93AD086D00FFFF
(1784920234.323078) can0 19F10D13#7DA1014902600051
(1784920234.332143) can0 0CF00400#FF93AD086D00FFFF
(1784920234.350825) can0 0CF00400#FF93AD186D00FFFF
(1784920234.370800) can0 0CF00400#FF93AD086D00FFFF
(1784920234.390321) can0 18F01D21#A6230E80FFFFFFFF
(1784920234.391311) can0 0CF00400#FF93AD006D00FFFF
(1784920234.411107) can0 0CF00400#FF93ADE86C00FFFF
(1784920234.422949) can0 19F10D13#7EA1014902600051
(1784920234.431921) can0 0CF00400#FF93ADE86C00FFFF
(1784920234.434508) can0 09F112F8#FF01C50000FF7FFD
(1784920234.451035) can0 0CF00400#FF93ADE06C00FFFF
(1784920234.471033) can0 0CF00400#FF93ADE86C00FFFF
(1784920234.489686) can0 18F01D21#724A0E80FFFFFFFF
(1784920234.490905) can0 0CF00400#FF93ADF06C00FFFF
(1784920234.511035) can0 0CF00400#FF93ADF06C00FFFF
(1784920234.523104) can0 19F10D13#7F9F014902600052
(1784920234.532542) can0 0CF00400#FF93ADF06C00FFFF
(1784920234.551414) can0 0CF00400#FF93ADE06C00FFFF
(1784920234.554725) can0 09F8021C#7DFC14DF1C04FFFF
(1784920234.556515) can0 09F8011C#38462918E09A53C1
(1784920234.559578) can0 18FEE81C#9EA3E025F1665C81
(1784920234.567241) can0 09F112F8#FF84C40000FF7FFD
(1784920234.571480) can0 0CF00400#FF93ADD86C00FFFF
(1784920234.590268) can0 18F01D21#DF860E80FFFFFFFF
(1784920234.591417) can0 0CF00400#FF93ADF86C00FFFF
(1784920234.611036) can0 0CF00400#FF93ADF06C00FFFF
(1784920234.623451) can0 19F10D13#809D014902600053
(1784920234.631952) can0 0CF00400#FF93AD106D00FFFF
(1784920234.650981) can0 0CF00400#FF93AD106D00FFFF
(1784920234.670894) can0 0CF00400#FF93AD006D00FFFF
(1784920234.690428) can0 18F01D21#26D50E80FFFFFFFF
(1784920234.690834) can0 0CF00400#FF93ADF86C00FFFF
(1784920234.705244) can0 09F112F8#FFF4C30000FF7FFD
(1784920234.710892) can0 0CF00400#FF93AD006D00FFFF
(1784920234.723006) can0 19F10D13#8199014902600055
(1784920234.732102) can0 0CF00400#FF93ADF86C00FFFF
(1784920234.751033) can0 0CF00400#FF93ADF06C00FFFF
(1784920234.770984) can0 0CF00400#FF93ADE86C00FFFF
(1784920234.789768) can0 18F01D21#35550F80FFFFFFFF
(1784920234.790830) can0 0CF00400#FF93ADE06C00FFFF
(1784920234.810890) can0 0CF00400#FF93ADD86C00FFFF
(1784920234.823006) can0 19F10D13#8295014902600057
(1784920234.832114) can0 0CF00400#FF92ADF06C00FFFF
(1784920234.843270) can0 09F112F8#FF4FC30000FF7FFD
(1784920234.851028) can0 0CF00400#FF91ADE86C00FFFF
(1784920234.871001) can0 0CF00400#FF90ACF86C00FFFF
(1784920234.890112) can0 18F01D21#01FA0F80FFFFFFFF
(1784920234.890828) can0 0CF00400#FF8FABE06C00FFFF
(1784920234.910888) can0 0CF00400#FF8EA9A86C00FFFF
(1784920234.922996) can0 19F10D13#838E01490260005B
(1784920234.932130) can0 0CF00400#FF8DA7486C00FFFF
(1784920234.950963) can0 0CF00400#FF8DA5E86B00FFFF
(1784920234.970892) can0 0CF00400#FF8DA4886B00FFFF
(1784920234.979133) can0 09F112F8#FFB2C20000FF7FFD
(1784920234.990570) can0 18F01D21#2CA01080FFFFFFFF
(1784920234.991014) can0 0CF00400#FF8DA3006B00FFFF
(1784920235.010890) can0 0CF00400#FF8DA2886A00FFFF
(1784920235.022973) can0 19F10D13#848701490260005F
(1784920235.032133) can0 0CF00400#FF8DA2F86900FFFF
(1784920235.050948) can0 0CF00400#FF8CA1706900FFFF
(1784920235.062782) can0 09F8021C#7EFC6BDC0E04FFFF
(1784920235.063897) can0 09F8011C#6C472918BE9953C1
(1784920235.067323) can0 18FEE81C#AAA1602553675D81
(1784920235.070317) can0 18FEE81C#AAA1602554675D81
(1784920235.071873) can0 0CF00400#FF8CA1D06800FFFF
(1784920235.089716) can0 18F01D21#331F1180FFFFFFFF
(1784920235.090889) can0 0CF00400#FF8CA1586800FFFF
(1784920235.110937) can0 0CF00400#FF8CA1F06700FFFF
(1784920235.111471) can0 09F112F8#FF0EC20000FF7FFD
(1784920235.123058) can0 19F10D13#8581014902600062
(1784920235.131925) can0 0CF00400#FF8CA1886700FFFF
(1784920235.151322) can0 0CF00400#FF8CA1106700FFFF
(1784920235.170871) can0 0CF00400#FF8CA1A86600FFFF
(1784920235.190175) can0 18F01D21#DD631180FFFFFFFF
(1784920235.190830) can0 0CF00400#FF8CA1406600FFFF
(1784920235.210944) can0 0CF00400#FF8CA1E06500FFFF
(1784920235.223115) can0 19F10D13#867F014902600063
(1784920235.231944) can0 0CF00400#FF8CA1986500FFFF
(1784920235.247271) can0 09F112F8#FF89C10000FF7FFD
(1784920235.250957) can0 0CF00400#FF8CA1306500FFFF
(1784920235.270823) can0 0CF00400#FF8CA1F06400FFFF
(1784920235.290809) can0 18F01D21#45661180FFFFFFFF
(1784920235.291327) can0 0CF00400#FF8CA1B06400FFFF
(1784920235.311020) can0 0CF00400#FF8CA1706400FFFF
(1784920235.323085) can0 19F10D13#877F014902600063
(1784920235.331823) can0 0CF00400#FF8CA1406400FFFF
(1784920235.350953) can0 0CF00400#FF8CA1286400FFFF
(1784920235.370763) can0 0CF00400#FF8CA1F86300FFFF
(1784920235.383162) can0 09F112F8#FF15C10000FF7FFD
(1784920235.389958) can0 18F01D21#ED651180FFFFFFFF
(1784920235.390944) can0 0CF00400#FF8CA1D06300FFFF
(1784920235.410934) can0 0CF00400#FF8CA1886300FFFF
(1784920235.423370) can0 19F10D13#887F014902600063
(1784920235.432412) can0 0CF00400#FF8CA1706300FFFF
(1784920235.450956) can0 0CF00400#FF8CA1686300FFFF
(1784920235.470892) can0 0CF00400#FF8CA1506300FFFF
(1784920235.490287) can0 18F01D21#ED651180FFFFFFFF
(1784920235.491330) can0 0CF00400#FF8CA1386300FFFF
(1784920235.510928) can0 0CF00400#FF8CA1286300FFFF
(1784920235.523332) can0 19F10D13#897F014902600063
(1784920235.525455) can0 09F112F8#FFA4C00000FF7FFD
(1784920235.531937) can0 0CF00400#FF8CA1006300FFFF
(1784920235.550973) can0 0CF00400#FF8CA1E86200FFFF
(1784920235.570793) can0 0CF00400#FF8CA1E86200FFFF
(1784920235.571332) can0 09F8021C#7FFC92D9F803FFFF
(1784920235.572456) can0 09F8011C#1A492918E29753C1
(1784920235.576603) can0 18FEE81C#949F9824B0675E81
(1784920235.589732) can0 18F01D21#3D651180FFFFFFFF
(1784920235.590854) can0 0CF00400#FF8CA1C86200FFFF
(1784920235.610956) can0 0CF00400#FF8CA1B06200FFFF
(1784920235.623167) can0 19F10D13#8A80014902600063
(1784920235.631960) can0 0CF00400#FF8CA1A86200FFFF
(1784920235.650966) can0 0CF00400#FF8CA1906200FFFF
(1784920235.667165) can0 09F112F8#FF3BC00000FF7FFD
(1784920235.670974) can0 0CF00400#FF8CA1786200FFFF
(1784920235.690235) can0 18F01D21#3B9E1180FFFFFFFF
(1784920235.691347) can0 0CF00400#FF8CA1406200FFFF
(1784920235.710966) can0 0CF00400#FF8CA1486200FFFF
(1784920235.723133) can0 19F10D13#8B7D014902600064
(1784920235.731961) can0 0CF00400#FF8CA1486200FFFF
(1784920235.750922) can0 0CF00400#FF8CA1386200FFFF
(1784920235.770880) can0 0CF00400#FF8CA1206200FFFF
(1784920235.790451) can0 18F01D21#CA511280FFFFFFFF
(1784920235.790851) can0 0CF00400#FF8CA1306200FFFF
(1784920235.802267) can0 09F112F8#FFD9BF0000FF7FFD
(1784920235.810863) can0 0CF00400#FF8CA1206200FFFF
(1784920235.823010) can0 19F10D13#8C75014902600069
(1784920235.831910) can0 0CF00400#FF8CA1086200FFFF
(1784920235.850948) can0 0CF00400#FF8CA1F86100FFFF
(1784920235.870892) can0 0CF00400#FF8CA1E86100FFFF
(1784920235.889696) can0 18F01D21#55101380FFFFFFFF
(1784920235.891207) can0 0CF00400#FF8CA1D06100FFFF
(1784920235.910942) can0 0CF00400#FF8CA2B86100FFFF
(1784920235.923095) can0 19F10D13#8D6D01490260006D
(1784920235.931951) can0 0CF00400#FF8CA2B06100FFFF
(1784920235.944329) can0 09F112F8#FF82BF0000FF7FFD
(1784920235.950887) can0 0CF00400#FF8CA2B06100FFFF
(1784920235.970939) can0 0CF00400#FF8CA2986100FFFF
(1784920235.989914) can0 18F01D21#FAAF1380FFFFFFFF
(1784920235.991200) can0 0CF00400#FF8CA2A06100FFFF
(1784920236.010936) can0 0CF00400#FF8CA2706100FFFF
(1784920236.023108) can0 19F10D13#8E67014902600071
(1784920236.031908) can0 0CF00400#FF8CA2686100FFFF
(1784920236.050924) can0 0CF00400#FF8CA2686100FFFF
(1784920236.070807) can0 0CF00400#FF8CA2506100FFFF
(1784920236.077950) can0 09F8021C#80FC4DD8E503FFFF
(1784920236.080344) can0 09F8011C#264A29189E9653C1
(1784920236.085219) can0 18FEE81C#A59EE823B9675F81
(1784920236.089698) can0 09F112F8#FF43BF0000FF7FFD
(1784920236.090457) can0 18F01D21#35F11380FFFFFFFF
(1784920236.090860) can0 0CF00400#FF8CA2306100FFFF
(1784920236.110907) can0 0CF00400#FF8CA2186100FFFF
(1784920236.123005) can0 19F10D13#8F65014902600072
(1784920236.131912) can0 0CF00400#FF8CA2186100FFFF
(1784920236.150804) can0 0CF00400#FF8CA2006100FFFF
(1784920236.170769) can0 0CF00400#FF8CA2006100FFFF
(1784920236.189768) can0 18F01D21#E5F11380FFFFFFFF
(1784920236.190820) can0 0CF00400#FF8CA2006100FFFF
(1784920236.210910) can0 0CF00400#FF8CA2006100FFFF
(1784920236.222956) can0 19F10D13#9063014902600073
(1784920236.223533) can0 09F112F8#FF1EBF0000FF7FFD
(1784920236.231721) can0 0CF00400#FF8CA2086100FFFF
(1784920236.251309) can0 0CF00400#FF8CA2F06000FFFF
(1784920236.270934) can0 0CF00400#FF8CA2C86000FFFF
(1784920236.289995) can0 18F01D21#E5F11380FFFFFFFF
(1784920236.290802) can0 0CF00400#FF8CA2D06000FFFF
(1784920236.310953) can0 0CF00400#FF8CA2C06000FFFF
(1784920236.322996) can0 19F10D13#9162014902600073
(1784920236.332473) can0 0CF00400#FF8CA2C86000FFFF
(1784920236.350724) can0 0CF00400#FF8CA2D86000FFFF
(1784920236.365302) can0 09F112F8#FF10BF0000FF7FFD
(1784920236.370888) can0 0CF00400#FF8CA2E86000FFFF
(1784920236.390461) can0 18F01D21#E5F11380FFFFFFFF
(1784920236.391124) can0 0CF00400#FF8CA2C06000FFFF
(1784920236.410913) can0 0CF00400#FF8CA2B86000FFFF
(1784920236.423298) can0 19F10D13#9263014902600073
(1784920236.431876) can0 0CF00400#FF8CA2D06000FFFF
(1784920236.450895) can0 0CF00400#FF8CA2B86000FFFF
(1784920236.470904) can0 0CF00400#FF8CA2A86000FFFF
(1784920236.489895) can0 18F01D21#3DF21380FFFFFFFF
(1784920236.490774) can0 0CF00400#FF8CA2906000FFFF
(1784920236.505341) can0 09F112F8#FF08BF0000FF7FFD
(1784920236.510897) can0 0CF00400#FF8CA2806000FFFF
(1784920236.522997) can0 19F10D13#9362014902600073
(1784920236.531915) can0 0CF00400#FF8CA2906000FFFF
(1784920236.550917) can0 0CF00400#FF8CA2906000FFFF
(1784920236.571774) can0 0CF00400#FF8CA2806000FFFF
(1784920236.585494) can0 09F8021C#81FC53D7CD03FFFF
(1784920236.586587) can0 09F8011C#A84B2918B29453C1
(1784920236.589594) can0 18FEE81C#EE9D1023C0675E81
(1784920236.590219) can0 18F01D21#E61F1480FFFFFFFF
(1784920236.591285) can0 0CF00400#FF8CA2906000FFFF
(1784920236.610805) can0 0CF00400#FF8CA2906000FFFF
(1784920236.623116) can0 19F10D13#9463014902600073
(1784920236.631859) can0 0CF00400#FF8CA2886000FFFF
(1784920236.641356) can0 09F112F8#FF01BF0000FF7FFD
(1784920236.650864) can0 0CF00400#FF8CA2786000FFFF
(1784920236.670898) can0 0CF00400#FF8CA2886000FFFF
(1784920236.690632) can0 18F01D21#897A1480FFFFFFFF
(1784920236.691238) can0 0CF00400#FF8CA2886000FFFF
(1784920236.710914) can0 0CF00400#FF8CA2906000FFFF
(1784920236.723023) can0 19F10D13#955F014902600075
(1784920236.731835) can0 0CF00400#FF8CA2806000FFFF
(1784920236.750903) can0 0CF00400#FF8CA2706000FFFF
(1784920236.770889) can0 0CF00400#FF8CA2706000FFFF
(1784920236.783304) can0 09F112F8#FFF2BE0000FF7FFD
(1784920236.789943) can0 18F01D21#7CBD1480FFFFFFFF
(1784920236.790778) can0 0CF00400#FF8CA2886000FFFF
(1784920236.810868) can0 0CF00400#FF8CA2686000FFFF
(1784920236.823299) can0 19F10D13#965A014902600078
(1784920236.831857) can0 0CF00400#FF8CA2706000FFFF
(1784920236.850945) can0 0CF00400#FF8CA2706000FFFF
(1784920236.870884) can0 0CF00400#FF8CA2686000FFFF
(1784920236.890286) can0 18F01D21#16D21480FFFFFFFF
(1784920236.890767) can0 0CF00400#FF8CA2586000FFFF
(1784920236.910895) can0 0CF00400#FF8CA2506000FFFF
(1784920236.916525) can0 09F112F8#FFE8BE0000FF7FFD
(1784920236.923012) can0 19F10D13#975A014902600078
(1784920236.931881) can0 0CF00400#FF8CA2586000FFFF
(1784920236.950924) can0 0CF00400#FF8CA2486000FFFF
(1784920236.970918) can0 0CF00400#FF8CA2206000FFFF
(1784920236.990522) can0 18F01D21#16D21480FFFFFFFF
(1784920236.991157) can0 0CF00400#FF8CA2286000FFFF
(1784920237.010863) can0 0CF00400#FF8CA2186000FFFF
(1784920237.023132) can0 19F10D13#985A014902600078
(1784920237.031817) can0 0CF00400#FF8CA2106000FFFF
(1784920237.050635) can0 09F112F8#FFE3BE0000FF7FFD
(1784920237.051179) can0 0CF00400#FF8CA2186000FFFF
(1784920237.070812) can0 0CF00400#FF8CA2286000FFFF
(1784920237.090805) can0 0CF00400#FF8CA2406000FFFF
(1784920237.091526) can0 09F8021C#82FCB2D6BC03FFFF
(1784920237.091991) can0 18F01D21#16D21480FFFFFFFF
(1784920237.092482) can0 09F8011C#984C2918709353C1
(1784920237.096856) can0 18FEE81C#789D7022FD675E81
(1784920237.110831) can0 0CF00400#FF8CA2486000FFFF
(1784920237.123006) can0 19F10D13#995A014902600078
(1784920237.131598) can0 0CF00400#FF8CA2406000FFFF
(1784920237.151262) can0 0CF00400#FF8CA2406000FFFF
(1784920237.170889) can0 0CF00400#FF8CA2686000FFFF
(1784920237.190375) can0 18F01D21#0ED11480FFFFFFFF
(1784920237.190745) can0 0CF00400#FF8CA2386000FFFF
(1784920237.194349) can0 09F112F8#FFD9BE0000FF7FFD
(1784920237.210869) can0 0CF00400#FF8CA2386000FFFF
(1784920237.222957) can0 19F10D13#9A5A014902600078
(1784920237.232416) can0 0CF00400#FF8CA2206000FFFF
(1784920237.250891) can0 0CF00400#FF8CA2406000FFFF
(1784920237.270905) can0 0CF00400#FF8CA2486000FFFF
(1784920237.290688) can0 18F01D21#90CB1480FFFFFFFF
(1784920237.291126) can0 0CF00400#FF8CA2286000FFFF
(1784920237.310910) can0 0CF00400#FF8CA2086000FFFF
(1784920237.323259) can0 19F10D13#9B5C014902600077
(1784920237.331829) can0 0CF00400#FF8CA2F85F00FFFF
(1784920237.333238) can0 09F112F8#FFD3BE0000FF7FFD
(1784920237.350920) can0 0CF00400#FF8CA2F85F00FFFF
(1784920237.370879) can0 0CF00400#FF8CA2086000FFFF
(1784920237.390180) can0 18F01D21#3FCC1480FFFFFFFF
(1784920237.390767) can0 0CF00400#FF8CA2006000FFFF
(1784920237.410919) can0 0CF00400#FF8CA2E05F00FFFF
(1784920237.423005) can0 19F10D13#9C5B014902600077
(1784920237.431823) can0 0CF00400#FF8CA2D85F00FFFF
(1784920237.450871) can0 0CF00400#FF8CA2D85F00FFFF
(1784920237.467364) can0 09F112F8#FFCDBE0000FF7FFD
(1784920237.470916) can0 0CF00400#FF8CA2B85F00FFFF
(1784920237.490491) can0 18F01D21#3FCC1480FFFFFFFF
(1784920237.490895) can0 0CF00400#FF8CA2A05F00FFFF
(1784920237.510866) can0 0CF00400#FF8CA2B05F00FFFF
(1784920237.523395) can0 19F10D13#9D5B014902600077
(1784920237.531823) can0 0CF00400#FF8CA2C05F00FFFF
(1784920237.550881) can0 0CF00400#FF8CA2985F00FFFF
(1784920237.570886) can0 0CF00400#FF8CA2985F00FFFF
(1784920237.590759) can0 0CF00400#FF8CA2985F00FFFF
(1784920237.591427) can0 18F01D21#3FCC1480FFFFFFFF
(1784920237.596908) can0 09F8021C#83FC96D6A303FFFF
(1784920237.598130) can0 09F8011C#FA4D2918929153C1
(1784920237.602940) can0 18FEE81C#639D882157685E81
(1784920237.609798) can0 09F112F8#FFC0BE0000FF7FFD
(1784920237.610876) can0 0CF00400#FF8CA2B05F00FFFF
(1784920237.623464) can0 19F10D13#9E5A014902600078
(1784920237.631814) can0 0CF00400#FF8CA2985F00FFFF
(1784920237.650913) can0 0CF00400#FF8CA2985F00FFFF
(1784920237.671690) can0 0CF00400#FF8CA2805F00FFFF
(1784920237.690177) can0 18F01D21#97CC1480FFFFFFFF
(1784920237.690765) can0 0CF00400#FF8CA2685F00FFFF
(1784920237.710859) can0 0CF00400#FF8CA2685F00FFFF
(1784920237.723005) can0 19F10D13#9F5B014902600077
(1784920237.731821) can0 0CF00400#FF8CA2485F00FFFF
(1784920237.740768) can0 09F112F8#FFB5BE0000FF7FFD
(1784920237.750854) can0 0CF00400#FF8CA2385F00FFFF
(1784920237.770848) can0 0CF00400#FF8CA2405F00FFFF
(1784920237.790498) can0 18F01D21#28C91480FFFFFFFF
(1784920237.790943) can0 0CF00400#FF8CA2385F00FFFF
(1784920237.810872) can0 0CF00400#FF8CA2285F00FFFF
(1784920237.823023) can0 19F10D13#A05B014902600077
(1784920237.831825) can0 0CF00400#FF8CA2105F00FFFF
(1784920237.850891) can0 0CF00400#FF8CA2105F00FFFF
(1784920237.871779) can0 0CF00400#FF8CA2F85E00FFFF
(1784920237.876875) can0 09F112F8#FFAFBE0000FF7FFD
(1784920237.890860) can0 0CF00400#FF8CA2005F00FFFF
(1784920237.891404) can0 18F01D21#21C81480FFFFFFFF
(1784920237.910860) can0 0CF00400#FF8CA3005F00FFFF
(1784920237.923151) can0 19F10D13#A15A014902600078
(1784920237.931875) can0 0CF00400#FF8CA2085F00FFFF
(1784920237.950897) can0 0CF00400#FF8CA3005F00FFFF
(1784920237.970892) can0 0CF00400#FF8CA3085F00FFFF
(1784920237.990299) can0 18F01D21#9EB61480FFFFFFFF
(1784920237.990708) can0 0CF00400#FF8CA3085F00FFFF
(1784920238.010815) can0 0CF00400#FF8CA3005F00FFFF
(1784920238.013365) can0 09F112F8#FFABBE0000FF7FFD
(1784920238.023004) can0 19F10D13#A25B014902600077
(1784920238.031805) can0 0CF00400#FF8CA2E05E00FFFF
(1784920238.050850) can0 0CF00400#FF8CA3E05E00FFFF
(1784920238.070862) can0 0CF00400#FF8CA3E05E00FFFF
(1784920238.090715) can0 18F01D21#279B1480FFFFFFFF
(1784920238.091316) can0 0CF00400#FF8CA3E85E00FFFF
(1784920238.107343) can0 09F8021C#84FC56D69403FFFF
(1784920238.108429) can0 09F8011C#DE4E2918509053C1
(1784920238.110929) can0 0CF00400#FF8CA3E85E00FFFF
(1784920238.111473) can0 18FEE81C#349D00217E685F81
(1784920238.123151) can0 19F10D13#A35D014902600076
(1784920238.131565) can0 0CF00400#FF8CA3F05E00FFFF
(1784920238.150849) can0 0CF00400#FF8CA3F85E00FFFF
(1784920238.154765) can0 09F112F8#FFA3BE0000FF7FFD
(1784920238.170886) can0 0CF00400#FF8CA3F05E00FFFF
(1784920238.190844) can0 0CF00400#FF8CA3E05E00FFFF
(1784920238.191275) can0 18F01D21#A07D1480FFFFFFFF
(1784920238.210848) can0 0CF00400#FF8CA3D05E00FFFF
(1784920238.223329) can0 19F10D13#A45D014902600076
(1784920238.231810) can0 0CF00400#FF8CA3785E00FFFF
(1784920238.250858) can0 0CF00400#FF8CA3805E00FFFF
(1784920238.270889) can0 0CF00400#FF8CA3785E00FFFF
(1784920238.290333) can0 18F01D21#44711480FFFFFFFF
(1784920238.290823) can0 0CF00400#FF8CA3685E00FFFF
(1784920238.293380) can0 09F112F8#FFA4BE0000FF7FFD
(1784920238.310679) can0 0CF00400#FF8CA3585E00FFFF
(1784920238.323154) can0 19F10D13#A55E014902600076
(1784920238.331860) can0 0CF00400#FF8CA3585E00FFFF
(1784920238.350850) can0 0CF00400#FF8CA3605E00FFFF
(1784920238.370859) can0 0CF00400#FF8CA3685E00FFFF
(1784920238.390642) can0 18F01D21#9C711480FFFFFFFF
(1784920238.391257) can0 0CF00400#FF8CA3705E00FFFF
(1784920238.410851) can0 0CF00400#FF8CA3605E00FFFF
(1784920238.423031) can0 19F10D13#A65E014902600076
(1784920238.431297) can0 09F112F8#FFA0BE0000FF7FFD
(1784920238.432411) can0 0CF00400#FF8CA3905E00FFFF
(1784920238.450849) can0 0CF00400#FF8CA3805E00FFFF
(1784920238.470894) can0 0CF00400#FF8CA3805E00FFFF
(1784920238.490849) can0 0CF00400#FF8CA3705E00FFFF
(1784920238.491227) can0 18F01D21#9C711480FFFFFFFF
(1784920238.510850) can0 0CF00400#FF8CA3685E00FFFF
(1784920238.523031) can0 19F10D13#A75E014902600076
(1784920238.531790) can0 0CF00400#FF8CA3605E00FFFF
(1784920238.550711) can0 0CF00400#FF8CA3485E00FFFF
(1784920238.570841) can0 09F112F8#FF9EBE0000FF7FFD
(1784920238.572004) can0 0CF00400#FF8CA3405E00FFFF
(1784920238.590507) can0 18F01D21#9C711480FFFFFFFF
(1784920238.591454) can0 0CF00400#FF8CA3505E00FFFF
(1784920238.611854) can0 0CF00400#FF8CA3305E00FFFF
(1784920238.614827) can0 09F8021C#85FCA9D68203FFFF
(1784920238.615923) can0 09F8011C#30502918848E53C1
(1784920238.618807) can0 18FEE81C#719D582095685F81
(1784920238.623279) can0 19F10D13#A85F014902600075
(1784920238.632402) can0 0CF00400#FF8CA3285E00FFFF
(1784920238.651933) can0 0CF00400#FF8CA3105E00FFFF
(1784920238.670824) can0 0CF00400#FF8CA3085E00FFFF
(1784920238.690739) can0 18F01D21#9C711480FFFFFFFF
(1784920238.691283) can0 0CF00400#FF8CA3E85D00FFFF
(1784920238.710861) can0 0CF00400#FF8CA3E85D00FFFF
(1784920238.712525) can0 09F112F8#FFA3BE0000FF7FFD
(1784920238.723444) can0 19F10D13#A95F014902600075
(1784920238.731824) can0 0CF00400#FF8CA3C85D00FFFF
(1784920238.750867) can0 0CF00400#FF8CA3D85D00FFFF
(1784920238.770874) can0 0CF00400#FF8CA3D05D00FFFF
(1784920238.790174) can0 18F01D21#9C711480FFFFFFFF
(1784920238.791283) can0 0CF00400#FF8DA3E85D00FFFF
(1784920238.810840) can0 0CF00400#FF8DA3005E00FFFF
(1784920238.823041) can0 19F10D13#AA5D014902600076
(1784920238.831823) can0 0CF00400#FF8DA3E85D00FFFF
(1784920238.850282) can0 09F112F8#FFACBE0000FF7FFD
(1784920238.850735) can0 0CF00400#FF8DA4F85D00FFFF
(1784920238.870835) can0 0CF00400#FF8DA4F85D00FFFF
(1784920238.890443) can0 18F01D21#9C711480FFFFFFFF
(1784920238.890922) can0 0CF00400#FF8DA4105E00FFFF
(1784920238.910869) can0 0CF00400#FF8DA4285E00FFFF
(1784920238.923407) can0 19F10D13#AB5E014902600076
(1784920238.931820) can0 0CF00400#FF8DA4285E00FFFF
(1784920238.950680) can0 0CF00400#FF8DA4405E00FFFF
(1784920238.970830) can0 0CF00400#FF8DA4405E00FFFF
(1784920238.990870) can0 0CF00400#FF8DA4505E00FFFF
(1784920238.991259) can0 18F01D21#9C711480FFFFFFFF
(1784920238.992400) can0 09F112F8#FFB9BE0000FF7FFD
(1784920239.010827) can0 0CF00400#FF8DA5605E00FFFF
(1784920239.023131) can0 19F10D13#AC5F014902600075
(1784920239.031822) can0 0CF00400#FF8DA5605E00FFFF
(1784920239.050821) can0 0CF00400#FF8EA5585E00FFFF
(1784920239.070829) can0 0CF00400#FF8FA5405E00FFFF
(1784920239.090044) can0 18F01D21#9C711480FFFFFFFF
(1784920239.090760) can0 0CF00400#FF8FA6385E00FFFF
(1784920239.110840) can0 0CF00400#FF8FA7485E00FFFF
(1784920239.122831) can0 09F8021C#86FC5BD77A03FFFF
(1784920239.123413) can0 19F10D13#AD5F014902600075
(1784920239.124535) can0 09F8011C#7E512918BC8C53C1
(1784920239.131590) can0 0CF00400#FF90A8685E00FFFF
(1784920239.132205) can0 18FEE81C#F49D102052685F81
(1784920239.137373) can0 09F112F8#FFC5BE0000FF7FFD
(1784920239.150831) can0 0CF00400#FF90A8905E00FFFF
(1784920239.170827) can0 0CF00400#FF90A9B05E00FFFF
(1784920239.190567) can0 18F01D21#9C711480FFFFFFFF
(1784920239.191009) can0 0CF00400#FF90A9D85E00FFFF
(1784920239.210841) can0 0CF00400#FF90A9005F00FFFF
(1784920239.222996) can0 19F10D13#AE5E014902600076
(1784920239.231787) can0 0CF00400#FF90A9305F00FFFF
(1784920239.250839) can0 0CF00400#FF90A9785F00FFFF
(1784920239.270086) can0 09F112F8#FFD1BE0000FF7FFD
(1784920239.270684) can0 0CF00400#FF90A9B05F00FFFF
(1784920239.290626) can0 0CF00400#FF90A9F05F00FFFF
(1784920239.291186) can0 18F01D21#F4711480FFFFFFFF
(1784920239.310832) can0 0CF00400#FF90A9306000FFFF
(1784920239.323000) can0 19F10D13#AF5E014902600076
(1784920239.331818) can0 0CF00400#FF90A9706000FFFF
(1784920239.350825) can0 0CF00400#FF90A9906000FFFF
(1784920239.370777) can0 0CF00400#FF90A9E06000FFFF
(1784920239.390354) can0 18F01D21#148D1480FFFFFFFF
(1784920239.390851) can0 0CF00400#FF90A9206100FFFF
(1784920239.405432) can0 09F112F8#FFDDBE0000FF7FFD
(1784920239.410843) can0 0CF00400#FF90A9406100FFFF
(1784920239.423010) can0 19F10D13#B05E014902600076
(1784920239.431958) can0 0CF00400#FF90A9586100FFFF
(1784920239.450834) can0 0CF00400#FF90A9786100FFFF
(1784920239.471380) can0 0CF00400#FF90A9A06100FFFF
(1784920239.490987) can0 0CF00400#FF90A9886100FFFF
(1784920239.491543) can0 18F01D21#C4A41480FFFFFFFF
(1784920239.511150) can0 0CF00400#FF90A9786100FFFF
(1784920239.523187) can0 19F10D13#B15E014902600076
(1784920239.532436) can0 0CF00400#FF90A9786100FFFF
(1784920239.540858) can0 09F112F8#FFEABE0000FF7FFD
(1784920239.550835) can0 0CF00400#FF90A9806100FFFF
(1784920239.570806) can0 0CF00400#FF90A9706100FFFF
(1784920239.590803) can0 0CF00400#FF90A9606100FFFF
(1784920239.591187) can0 18F01D21#97B51480FFFFFFFF
(1784920239.610836) can0 0CF00400#FF90A9506100FFFF
(1784920239.623563) can0 19F10D13#B25C014902600077
(1784920239.631649) can0 0CF00400#FF90A9306100FFFF
(1784920239.637193) can0 09F8021C#87FC95D77103FFFF
(1784920239.638255) can0 09F8011C#60522918968B53C1
(1784920239.641239) can0 18FEE81C#1E9EB81F23685F81
(1784920239.651370) can0 0CF00400#FF90A9606100FFFF
(1784920239.671550) can0 0CF00400#FF90A9406100FFFF
(1784920239.682530) can0 09F112F8#FFF3BE0000FF7FFD
(1784920239.690323) can0 18F01D21#A2C21480FFFFFFFF
(1784920239.690774) can0 0CF00400#FF90A9606100FFFF
(1784920239.711238) can0 0CF00400#FF90A9786100FFFF
(1784920239.723510) can0 19F10D13#B35B014902600077
(1784920239.731803) can0 0CF00400#FF90A9B86100FFFF
(1784920239.750798) can0 0CF00400#FF90A9D86100FFFF
(1784920239.770853) can0 0CF00400#FF90A9C06100FFFF
(1784920239.790850) can0 0CF00400#FF90A9E06100FFFF
(1784920239.791241) can0 18F01D21#AAC31480FFFFFFFF
(1784920239.810793) can0 0CF00400#FF90A9086200FFFF
(1784920239.817412) can0 09F112F8#FFF9BE0000FF7FFD
(1784920239.823016) can0 19F10D13#B45A014902600078
(1784920239.831807) can0 0CF00400#FF90A9106200FFFF
(1784920239.850800) can0 0CF00400#FF90A9006200FFFF
(1784920239.870840) can0 0CF00400#FF90A9186200FFFF
(1784920239.890812) can0 0CF00400#FF90A9486200FFFF
(1784920239.891242) can0 18F01D21#C9C71480FFFFFFFF
(1784920239.911071) can0 0CF00400#FF90A9586200FFFF
(1784920239.923144) can0 19F10D13#B55A014902600078
(1784920239.931820) can0 0CF00400#FF90A9706200FFFF
(1784920239.950838) can0 0CF00400#FF90A9806200FFFF
(1784920239.951267) can0 09F112F8#FF06BF0000FF7FFD
(1784920239.970810) can0 0CF00400#FF90A9986200FFFF
(1784920239.990409) can0 18F01D21#90E21480FFFFFFFF
(1784920239.990869) can0 0CF00400#FF90A9A86200FFFF
(1784920240.011089) can0 0CF00400#FF91A9A06200FFFF
(1784920240.023188) can0 19F10D13#B65A014902600078
(1784920240.031820) can0 0CF00400#FF91AAB06200FFFF
(1784920240.050806) can0 0CF00400#FF91AAE06200FFFF
(1784920240.070808) can0 0CF00400#FF92AA086300FFFF
(1784920240.090141) can0 09F112F8#FF19BF0000FF7FFD
(1784920240.090658) can0 0CF00400#FF93AB306300FFFF
(1784920240.091305) can0 18F01D21#A9131580FFFFFFFF
(1784920240.111079) can0 0CF00400#FF93AB786300FFFF
(1784920240.123030) can0 19F10D13#B758014902600079
(1784920240.131819) can0 0CF00400#FF94ACA06300FFFF
(1784920240.142900) can0 09F8021C#88FCC3D77703FFFF
(1784920240.144009) can0 09F8011C#B2532918E28953C1
(1784920240.148810) can0 18FEE81C#409EF81F12685F81
(1784920240.150803) can0 0CF00400#FF94ADE06300FFFF
(1784920240.170657) can0 0CF00400#FF95AE586400FFFF
(1784920240.190809) can0 0CF00400#FF95AEE86400FFFF
(1784920240.191205) can0 18F01D21#F74B1580FFFFFFFF
(1784920240.211094) can0 0CF00400#FF95AE886500FFFF
(1784920240.223018) can0 19F10D13#B857014902600079
(1784920240.230242) can0 09F112F8#FF32BF0000FF7FFD
(1784920240.230660) can0 0CF00400#FF95AF186600FFFF
(1784920240.250763) can0 0CF00400#FF95AF986600FFFF
(1784920240.270797) can0 0CF00400#FF96AF206700FFFF
(1784920240.290599) can0 18F01D21#41781580FFFFFFFF
(1784920240.291044) can0 0CF00400#FF96B0986700FFFF
(1784920240.310804) can0 0CF00400#FF97B0186800FFFF
(1784920240.323465) can0 19F10D13#B95601490260007A
(1784920240.331817) can0 0CF00400#FF97B0986800FFFF
(1784920240.350679) can0 0CF00400#FF97B1006900FFFF
(1784920240.365467) can0 09F112F8#FF4ABF0000FF7FFD
(1784920240.370628) can0 0CF00400#FF97B1686900FFFF
(1784920240.390837) can0 0CF00400#FF97B1C06900FFFF
(1784920240.391459) can0 18F01D21#17951580FFFFFFFF
(1784920240.411087) can0 0CF00400#FF97B1306A00FFFF
(1784920240.423033) can0 19F10D13#BA5401490260007B
(1784920240.432349) can0 0CF00400#FF97B1A86A00FFFF
(1784920240.450772) can0 0CF00400#FF97B1006B00FFFF
(1784920240.470830) can0 0CF00400#FF98B1606B00FFFF
(1784920240.490818) can0 0CF00400#FF98B1B86B00FFFF
(1784920240.491208) can0 18F01D21#3BBC1580FFFFFFFF
(1784920240.502216) can0 09F112F8#FF6EBF0000FF7FFD
(1784920240.510823) can0 0CF00400#FF98B1F06B00FFFF
(1784920240.523001) can0 19F10D13#BB5201490260007C
(1784920240.531802) can0 0CF00400#FF98B1306C00FFFF
(1784920240.550767) can0 0CF00400#FF98B1706C00FFFF
(1784920240.570822) can0 0CF00400#FF98B1A06C00FFFF
(1784920240.590570) can0 18F01D21#CDE61580FFFFFFFF
(1784920240.591008) can0 0CF00400#FF98B1E86C00FFFF
(1784920240.610780) can0 0CF00400#FF98B1106D00FFFF
(1784920240.623445) can0 19F10D13#BC5101490260007D
(1784920240.631774) can0 0CF00400#FF98B1586D00FFFF
(1784920240.650642) can0 0CF00400#FF98B1806D00FFFF
(1784920240.654290) can0 09F8021C#89FC5CD87E03FFFF
(1784920240.655292) can0 09F8011C#9C542918BE8853C1
(1784920240.660251) can0 09F112F8#FF9ABF0000FF7FFD
(1784920240.660680) can0 18FEE81C#B09E382012686081
(1784920240.670632) can0 0CF00400#FF98B1B86D00FFFF
(1784920240.690789) can0 0CF00400#FF98B1006E00FFFF
(1784920240.691208) can0 18F01D21#500F1680FFFFFFFF
(1784920240.710623) can0 0CF00400#FF98B2286E00FFFF
(1784920240.723028) can0 19F10D13#BD5001490260007D
(1784920240.731773) can0 0CF00400#FF98B2506E00FFFF
(1784920240.750784) can0 0CF00400#FF98B1606E00FFFF
(1784920240.770785) can0 0CF00400#FF98B2886E00FFFF
(1784920240.785556) can0 09F112F8#FFCFBF0000FF7FFD
(1784920240.790817) can0 0CF00400#FF98B2C06E00FFFF
(1784920240.791245) can0 18F01D21#70411680FFFFFFFF
(1784920240.810778) can0 0CF00400#FF98B2D86E00FFFF
(1784920240.823179) can0 19F10D13#BE4E01490260007E
(1784920240.831778) can0 0CF00400#FF98B2006F00FFFF
(1784920240.850790) can0 0CF00400#FF98B2306F00FFFF
(1784920240.870749) can0 0CF00400#FF98B2386F00FFFF
(1784920240.891153) can0 0CF00400#FF98B2406F00FFFF
(1784920240.891863) can0 18F01D21#357E1680FFFFFFFF
(1784920240.910785) can0 0CF00400#FF98B2586F00FFFF
(1784920240.923172) can0 19F10D13#BF4C01490260007F
(1784920240.927817) can0 09F112F8#FF0CC00000FF7FFD
(1784920240.931773) can0 0CF00400#FF99B2986F00FFFF
(1784920240.950792) can0 0CF00400#FF99B2B06F00FFFF
(1784920240.970797) can0 0CF00400#FF99B2D86F00FFFF
(1784920240.990779) can0 0CF00400#FF99B2D06F00FFFF
(1784920240.991162) can0 18F01D21#1CB41680FFFFFFFF
(1784920241.010791) can0 0CF00400#FF99B2F06F00FFFF
(1784920241.023454) can0 19F10D13#C049014902600081
(1784920241.031729) can0 0CF00400#FF99B2207000FFFF
(1784920241.050817) can0 0CF00400#FF99B2307000FFFF
(1784920241.070259) can0 09F112F8#FF5DC00000FF7FFD
(1784920241.071336) can0 0CF00400#FF9AB2587000FFFF
(1784920241.090684) can0 0CF00400#FF9AB2587000FFFF
(1784920241.091425) can0 18F01D21#71D61680FFFFFFFF
(1784920241.110785) can0 0CF00400#FF9BB2807000FFFF
(1784920241.123396) can0 19F10D13#C148014902600082
(1784920241.131769) can0 0CF00400#FF9BB3B07000FFFF
(1784920241.150769) can0 0CF00400#FF9CB4D07000FFFF
(1784920241.164833) can0 09F8021C#8AFCFED89203FFFF
(1784920241.165806) can0 09F8011C#005629180E8753C1
(1784920241.169910) can0 18FEE81C#279FF0203E686181
(1784920241.170678) can0 0CF00400#FF9CB4187100FFFF
(1784920241.190690) can0 0CF00400#FF9CB4487100FFFF
(1784920241.191401) can0 18F01D21#B6DF1680FFFFFFFF
(1784920241.210814) can0 0CF00400#FF9CB4A07100FFFF
(1784920241.211220) can0 09F112F8#FFB0C00000FF7FFD
(1784920241.223182) can0 19F10D13#C248014902600082
(1784920241.231772) can0 0CF00400#FF9CB4E07100FFFF
(1784920241.250650) can0 0CF00400#FF9CB4107200FFFF
(1784920241.270636) can0 0CF00400#FF9CB4587200FFFF
(1784920241.290728) can0 0CF00400#FF9CB4807200FFFF
(1784920241.291327) can0 18F01D21#B6DF1680FFFFFFFF
(1784920241.311132) can0 0CF00400#FF9CB4B07200FFFF
(1784920241.323047) can0 19F10D13#C348014902600082
(1784920241.332407) can0 0CF00400#FF9CB4E87200FFFF
(1784920241.350802) can0 0CF00400#FF9CB4287300FFFF
(1784920241.351764) can0 09F112F8#FF0EC10000FF7FFD
(1784920241.370799) can0 0CF00400#FF9CB4507300FFFF
(1784920241.390789) can0 0CF00400#FF9CB3887300FFFF
(1784920241.391917) can0 18F01D21#6EF81680FFFFFFFF
(1784920241.410784) can0 0CF00400#FF9CB3D87300FFFF
(1784920241.423216) can0 19F10D13#C447014902600083
(1784920241.431747) can0 0CF00400#FF9CB3F87300FFFF
(1784920241.450817) can0 0CF00400#FF9CB3007400FFFF
(1784920241.470809) can0 0CF00400#FF9CB3287400FFFF
(1784920241.490371) can0 09F112F8#FF77C10000FF7FFD
(1784920241.490933) can0 0CF00400#FF9CB3387400FFFF
(1784920241.491515) can0 18F01D21#1D601780FFFFFFFF
(1784920241.510759) can0 0CF00400#FF9CB3507400FFFF
(1784920241.523296) can0 19F10D13#C543014902600085
(1784920241.531763) can0 0CF00400#FF9CB3787400FFFF
(1784920241.550790) can0 0CF00400#FF9CB3887400FFFF
(1784920241.570687) can0 0CF00400#FF9CB3A87400FFFF
(1784920241.590660) can0 0CF00400#FF9CB3B07400FFFF
(1784920241.591195) can0 18F01D21#B5C41780FFFFFFFF
(1784920241.610771) can0 0CF00400#FF9CB3D87400FFFF
(1784920241.623080) can0 19F10D13#C63F014902600088
(1784920241.631192) can0 09F112F8#FFEDC10000FF7FFD
(1784920241.632324) can0 0CF00400#FF9CB3F07400FFFF
(1784920241.650703) can0 0CF00400#FF9CB3107500FFFF
(1784920241.671712) can0 0CF00400#FF9BB3307500FFFF
(1784920241.675587) can0 09F8021C#8BFCAAD99803FFFF
(1784920241.676553) can0 09F8011C#F8562918F28553C1
(1784920241.679491) can0 18FEE81C#A59F282189686181
(1784920241.690762) can0 0CF00400#FF9BB3307500FFFF
(1784920241.691770) can0 18F01D21#9D111880FFFFFFFF
(1784920241.710645) can0 0CF00400#FF9BB3407500FFFF
(1784920241.723039) can0 19F10D13#C73D014902600089
(1784920241.731657) can0 0CF00400#FF9AB3487500FFFF
(1784920241.750805) can0 0CF00400#FF9AB3687500FFFF
(1784920241.767492) can0 09F112F8#FF67C20000FF7FFD
(1784920241.770614) can0 0CF00400#FF9AB2787500FFFF
(1784920241.790773) can0 0CF00400#FF99B2707500FFFF
(1784920241.791189) can0 18F01D21#783A1880FFFFFFFF
(1784920241.810676) can0 0CF00400#FF99B2A07500FFFF
(1784920241.823068) can0 19F10D13#C83C01490260008A
(1784920241.831746) can0 0CF00400#FF98B1907500FFFF
(1784920241.850827) can0 0CF00400#FF97B0707500FFFF
(1784920241.870716) can0 0CF00400#FF96B0407500FFFF
(1784920241.890685) can0 0CF00400#FF96AF007500FFFF
(1784920241.891311) can0 18F01D21#68381880FFFFFFFF
(1784920241.904506) can0 09F112F8#FFFEC20000FF7FFD
(1784920241.910772) can0 0CF00400#FF95AEC07400FFFF
(1784920241.923163) can0 19F10D13#C93D014902600089
(1784920241.931764) can0 0CF00400#FF94AE807400FFFF
(1784920241.950764) can0 0CF00400#FF94AD207400FFFF
(1784920241.970681) can0 0CF00400#FF93ACC87300FFFF
(1784920241.990694) can0 18F01D21#D73B1880FFFFFFFF
(1784920241.991176) can0 0CF00400#FF92AC607300FFFF
(1784920242.010759) can0 0CF00400#FF92ABE87200FFFF
(1784920242.023040) can0 19F10D13#CA3C01490260008A
(1784920242.031750) can0 0CF00400#FF92AA687200FFFF
(1784920242.043410) can0 09F112F8#FFA3C30000FF7FFD
(1784920242.050828) can0 0CF00400#FF92AAE07100FFFF
(1784920242.070725) can0 0CF00400#FF92AA607100FFFF
(1784920242.090615) can0 0CF00400#FF92A9D07000FFFF
(1784920242.091808) can0 18F01D21#9E3F1880FFFFFFFF
(1784920242.110777) can0 0CF00400#FF92A9407000FFFF
(1784920242.123051) can0 19F10D13#CB3C01490260008A
(1784920242.131710) can0 0CF00400#FF92A9D06F00FFFF
(1784920242.150621) can0 0CF00400#FF92A9586F00FFFF
(1784920242.171604) can0 0CF00400#FF92A9E86E00FFFF
(1784920242.176710) can0 09F112F8#FF3AC40000FF7FFD
(1784920242.182061) can0 09F8021C#8CFC65DB9F03FFFF
(1784920242.183019) can0 09F8011C#7A582918528453C1
(1784920242.186776) can0 18FEE81C#EAA06821A4686281
(1784920242.190618) can0 0CF00400#FF92A9786E00FFFF
(1784920242.191746) can0 18F01D21#5D421880FFFFFFFF
(1784920242.210867) can0 0CF00400#FF92A9006E00FFFF
(1784920242.223402) can0 19F10D13#CC3C01490260008A
(1784920242.231668) can0 0CF00400#FF91AA806D00FFFF
(1784920242.251419) can0 0CF00400#FF91AA286D00FFFF
(1784920242.270775) can0 0CF00400#FF91AAD86C00FFFF
(1784920242.290683) can0 0CF00400#FF91AA986C00FFFF
(1784920242.291154) can0 18F01D21#0D431880FFFFFFFF
(1784920242.310573) can0 0CF00400#FF91AA486C00FFFF
(1784920242.312889) can0 09F112F8#FFDAC40000FF7FFD
(1784920242.323181) can0 19F10D13#CD3B01490260008A
(1784920242.332395) can0 0CF00400#FF91AAF86B00FFFF
(1784920242.350778) can0 0CF00400#FF91AAB06B00FFFF
(1784920242.370686) can0 0CF00400#FF91AA686B00FFFF
(1784920242.390654) can0 0CF00400#FF91AA386B00FFFF
(1784920242.391131) can0 18F01D21#0D431880FFFFFFFF
(1784920242.410742) can0 0CF00400#FF91AA106B00FFFF
(1784920242.423530) can0 19F10D13#CE3C01490260008A
(1784920242.431664) can0 0CF00400#FF91AAF06A00FFFF
(1784920242.450741) can0 0CF00400#FF91AAB06A00FFFF
(1784920242.453530) can0 09F112F8#FF75C50000FF7FFD
(1784920242.470732) can0 0CF00400#FF91AA886A00FFFF
(1784920242.490755) can0 0CF00400#FF91AA406A00FFFF
(1784920242.491401) can0 18F01D21#15441880FFFFFFFF
(1784920242.510732) can0 0CF00400#FF91AA086A00FFFF
(1784920242.523197) can0 19F10D13#CF3D014902600089
(1784920242.531705) can0 0CF00400#FF91AAD86900FFFF
(1784920242.550699) can0 0CF00400#FF91AAA86900FFFF
(1784920242.570663) can0 0CF00400#FF91AA706900FFFF
(1784920242.589383) can0 09F112F8#FFFBC50000FF7FFD
(1784920242.590689) can0 0CF00400#FF91AA506900FFFF
(1784920242.591176) can0 18F01D21#114F1880FFFFFFFF
(1784920242.610672) can0 0CF00400#FF91AA306900FFFF
(1784920242.623070) can0 19F10D13#D03B01490260008A
(1784920242.631719) can0 0CF00400#FF91AA186900FFFF
(1784920242.650702) can0 0CF00400#FF91AAE86800FFFF
(1784920242.671273) can0 0CF00400#FF91AAC86800FFFF
(1784920242.686671) can0 09F8021C#8DFC98DCAC03FFFF
(1784920242.687758) can0 09F8011C#845929184A8353C1
(1784920242.690698) can0 0CF00400#FF91AAC06800FFFF
(1784920242.691245) can0 18F01D21#F76D1880FFFFFFFF
(1784920242.691680) can0 18FEE81C#CBA1E02193686381
(1784920242.710586) can0 0CF00400#FF91AAB06800FFFF
(1784920242.724286) can0 19F10D13#D13A01490260008B
(1784920242.727859) can0 09F112F8#FF80C60000FF7FFD
(1784920242.731672) can0 0CF00400#FF91AAB06800FFFF
(1784920242.750707) can0 0CF00400#FF91AAA06800FFFF
(1784920242.770597) can0 0CF00400#FF91AA786800FFFF
(1784920242.790705) can0 0CF00400#FF91AA486800FFFF
(1784920242.791600) can0 18F01D21#FDBE1880FFFFFFFF
(1784920242.810657) can0 0CF00400#FF91AA406800FFFF
(1784920242.823203) can0 19F10D13#D23701490260008D
(1784920242.831673) can0 0CF00400#FF91AA306800FFFF
(1784920242.850703) can0 0CF00400#FF92AA286800FFFF
(1784920242.869910) can0 09F112F8#FF05C70000FF7FFD
(1784920242.870590) can0 0CF00400#FF92AA206800FFFF
(1784920242.890694) can0 0CF00400#FF92ABF06700FFFF
(1784920242.891284) can0 18F01D21#32161980FFFFFFFF
(1784920242.910665) can0 0CF00400#FF92ABC06700FFFF
(1784920242.924196) can0 19F10D13#D332014902600090
(1784920242.931676) can0 0CF00400#FF92ABA86700FFFF
(1784920242.950649) can0 0CF00400#FF92AB906700FFFF
(1784920242.970549) can0 0CF00400#FF93AC906700FFFF
(1784920242.990708) can0 0CF00400#FF93ACA06700FFFF
(1784920242.991299) can0 18F01D21#42461980FFFFFFFF
(1784920243.006530) can0 09F112F8#FF99C70000FF7FFD
(1784920243.010669) can0 0CF00400#FF93ACA86700FFFF
(1784920243.023073) can0 19F10D13#D432014902600090
(1784920243.031811) can0 0CF00400#FF94ACD86700FFFF
(1784920243.050685) can0 0CF00400#FF94ADF86700FFFF
(1784920243.070552) can0 0CF00400#FF95AE506800FFFF
(1784920243.090596) can0 0CF00400#FF96AE986800FFFF
(1784920243.091597) can0 18F01D21#345B1980FFFFFFFF
(1784920243.110776) can0 0CF00400#FF96AFF86800FFFF
(1784920243.123221) can0 19F10D13#D532014902600090
(1784920243.131557) can0 0CF00400#FF97B0706900FFFF
(1784920243.144635) can0 09F112F8#FF32C80000FF7FFD
(1784920243.150663) can0 0CF00400#FF98B0E86900FFFF
(1784920243.172249) can0 0CF00400#FF99B1686A00FFFF
(1784920243.190707) can0 0CF00400#FF99B2D86A00FFFF
(1784920243.191749) can0 18F01D21#21641980FFFFFFFF
(1784920243.193634) can0 09F8021C#8EFC01DFAC03FFFF
(1784920243.195063) can0 09F8011C#205B2918D68153C1
(1784920243.199317) can0 18FEE81C#90A3E0214B686281
(1784920243.210905) can0 0CF00400#FF9AB2606B00FFFF
(1784920243.223080) can0 19F10D13#D632014902600090
(1784920243.232379) can0 0CF00400#FF9BB3E06B00FFFF
(1784920243.250725) can0 0CF00400#FF9BB3886C00FFFF
(1784920243.270642) can0 0CF00400#FF9CB4186D00FFFF
(1784920243.283628) can0 09F112F8#FFCFC80000FF7FFD
(1784920243.290706) can0 0CF00400#FF9CB4A86D00FFFF
(1784920243.291372) can0 18F01D21#8C721980FFFFFFFF
(1784920243.310720) can0 0CF00400#FF9DB4386E00FFFF
(1784920243.323070) can0 19F10D13#D732014902600090
(1784920243.331675) can0 0CF00400#FF9DB5D06E00FFFF
(1784920243.350669) can0 0CF00400#FF9DB5486F00FFFF
(1784920243.370686) can0 0CF00400#FF9DB5D06F00FFFF
(1784920243.390631) can0 0CF00400#FF9DB5587000FFFF
(1784920243.391809) can0 18F01D21#D2921980FFFFFFFF
(1784920243.410721) can0 0CF00400#FF9DB5B07000FFFF
(1784920243.423087) can0 19F10D13#D831014902600091
(1784920243.427002) can0 09F112F8#FF79C90000FF7FFD
(1784920243.431656) can0 0CF00400#FF9DB5287100FFFF
(1784920243.450681) can0 0CF00400#FF9DB5787100FFFF
(1784920243.470666) can0 0CF00400#FF9DB5D07100FFFF
(1784920243.490697) can0 0CF00400#FF9DB5407200FFFF
(1784920243.491134) can0 18F01D21#E3C21980FFFFFFFF
(1784920243.510713) can0 0CF00400#FF9DB5A07200FFFF
(1784920243.523546) can0 19F10D13#D92E014902600093
(1784920243.531661) can0 0CF00400#FF9DB5007300FFFF
(1784920243.550648) can0 0CF00400#FF9DB5607300FFFF
(1784920243.563530) can0 09F112F8#FF2BCA0000FF7FFD
(1784920243.570639) can0 0CF00400#FF9DB4A87300FFFF
(1784920243.590627) can0 0CF00400#FF9DB4F07300FFFF
(1784920243.591343) can0 18F01D21#5BF51980FFFFFFFF
(1784920243.610563) can0 0CF00400#FF9DB4307400FFFF
(1784920243.623512) can0 19F10D13#DA2C014902600094
(1784920243.631636) can0 0CF00400#FF9DB4A07400FFFF
(1784920243.650679) can0 0CF00400#FF9DB4F07400FFFF
(1784920243.670671) can0 0CF00400#FF9DB4207500FFFF
(1784920243.690558) can0 0CF00400#FF9DB4507500FFFF
(1784920243.691693) can0 18F01D21#720F1A80FFFFFFFF
(1784920243.698850) can0 09F8021C#8FFC1DE0AC03FFFF
(1784920243.699712) can0 09F8011C#3C5C2918F08053C1
(1784920243.702764) can0 18FEE81C#60A4D8212D686281
(1784920243.703285) can0 09F112F8#FFE8CA0000FF7FFD
(1784920243.710560) can0 0CF00400#FF9DB4907500FFFF
(1784920243.723561) can0 19F10D13#DB2B014902600094
(1784920243.731684) can0 0CF00400#FF9DB4D87500FFFF
(1784920243.750678) can0 0CF00400#FF9DB4107600FFFF
(1784920243.770570) can0 0CF00400#FF9DB4407600FFFF
(1784920243.790629) can0 0CF00400#FF9DB4987600FFFF
(1784920243.791033) can0 18F01D21#82111A80FFFFFFFF
(1784920243.810633) can0 0CF00400#FF9DB4C07600FFFF
(1784920243.823196) can0 19F10D13#DC2C014902600094
(1784920243.831711) can0 0CF00400#FF9DB4F87600FFFF
(1784920243.845549) can0 09F112F8#FFB4CB0000FF7FFD
(1784920243.850676) can0 0CF00400#FF9DB4207700FFFF
(1784920243.870685) can0 0CF00400#FF9DB4487700FFFF
(1784920243.890664) can0 0CF00400#FF9DB4887700FFFF
(1784920243.891414) can0 18F01D21#82111A80FFFFFFFF
(1784920243.910666) can0 0CF00400#FF9DB4A87700FFFF
(1784920243.923223) can0 19F10D13#DD2B014902600094
(1784920243.931659) can0 0CF00400#FF9DB4D87700FFFF
(1784920243.950670) can0 0CF00400#FF9DB4107800FFFF
(1784920243.970574) can0 0CF00400#FF9DB4407800FFFF
(1784920243.984636) can0 09F112F8#FF8BCC0000FF7FFD
(1784920243.990572) can0 0CF00400#FF9DB4787800FFFF
(1784920243.991858) can0 18F01D21#82111A80FFFFFFFF
(1784920244.010669) can0 0CF00400#FF9DB3A87800FFFF
(1784920244.023234) can0 19F10D13#DE2B014902600094
(1784920244.031422) can0 0CF00400#FF9DB3C87800FFFF
(1784920244.051093) can0 0CF00400#FF9DB4F07800FFFF
(1784920244.070663) can0 0CF00400#FF9DB3087900FFFF
(1784920244.090643) can0 0CF00400#FF9DB3407900FFFF
(1784920244.091647) can0 18F01D21#82111A80FFFFFFFF
(1784920244.110659) can0 0CF00400#FF9EB3507900FFFF
(1784920244.122891) can0 09F112F8#FF60CD0000FF7FFD
(1784920244.123425) can0 19F10D13#DF2A014902600095
(1784920244.132141) can0 0CF00400#FF9DB3687900FFFF
(1784920244.150683) can0 0CF00400#FF9DB3907900FFFF
(1784920244.170498) can0 0CF00400#FF9EB3A87900FFFF
(1784920244.190668) can0 0CF00400#FF9EB3987900FFFF
(1784920244.191806) can0 18F01D21#82111A80FFFFFFFF
(1784920244.201704) can0 09F8021C#90FC45E3B403FFFF
(1784920244.204355) can0 09F8021C#91FC45E3B403FFFF
(1784920244.205332) can0 09F8011C#F85D2918B67F53C1
(1784920244.208403) can0 18FEE81C#B1A62822DF676081
(1784920244.210934) can0 0CF00400#FF9DB3A87900FFFF
(1784920244.223187) can0 19F10D13#E02B014902600094
(1784920244.231665) can0 0CF00400#FF9EB3E07900FFFF
(1784920244.250643) can0 0CF00400#FF9EB3F87900FFFF
(1784920244.263539) can0 09F112F8#FF2DCE0000FF7FFD
(1784920244.270658) can0 0CF00400#FF9DB3187A00FFFF
(1784920244.290683) can0 0CF00400#FF9EB3407A00FFFF
(1784920244.291954) can0 18F01D21#31121A80FFFFFFFF
(1784920244.310658) can0 0CF00400#FF9EB3587A00FFFF
(1784920244.323527) can0 19F10D13#E12B014902600094
(1784920244.331527) can0 0CF00400#FF9EB3707A00FFFF
(1784920244.350653) can0 0CF00400#FF9EB3987A00FFFF
(1784920244.370657) can0 0CF00400#FF9EB3B87A00FFFF
(1784920244.390655) can0 0CF00400#FF9EB3C07A00FFFF
(1784920244.391137) can0 18F01D21#89121A80FFFFFFFF
(1784920244.396650) can0 09F112F8#FFF0CE0000FF7FFD
(1784920244.410649) can0 0CF00400#FF9EB3F07A00FFFF
(1784920244.423240) can0 19F10D13#E22B014902600094
(1784920244.431545) can0 0CF00400#FF9EB3007B00FFFF
(1784920244.450664) can0 0CF00400#FF9EB3207B00FFFF
(1784920244.470663) can0 0CF00400#FF9EB3507B00FFFF
(1784920244.490660) can0 0CF00400#FF9EB3607B00FFFF
(1784920244.491676) can0 18F01D21#04231A80FFFFFFFF
(1784920244.510692) can0 0CF00400#FF9EB3587B00FFFF
(1784920244.523065) can0 19F10D13#E32A014902600095
(1784920244.531656) can0 0CF00400#FF9EB3887B00FFFF
(1784920244.534101) can0 09F112F8#FFC6CF0000FF7FFD
(1784920244.550535) can0 0CF00400#FF9EB3A07B00FFFF
(1784920244.570657) can0 0CF00400#FF9EB3987B00FFFF
(1784920244.590544) can0 0CF00400#FF9EB3B87B00FFFF
(1784920244.591901) can0 18F01D21#A9441A80FFFFFFFF
(1784920244.610656) can0 0CF00400#FF9EB3E87B00FFFF
(1784920244.623214) can0 19F10D13#E429014902600096
(1784920244.631672) can0 0CF00400#FF9EB3F07B00FFFF
(1784920244.650660) can0 0CF00400#FF9EB3E87B00FFFF
(1784920244.670660) can0 0CF00400#FF9EB3107C00FFFF
(1784920244.671275) can0 09F112F8#FF98D00000FF7FFD
(1784920244.690565) can0 0CF00400#FF9EB3207C00FFFF
(1784920244.691675) can0 18F01D21#33571A80FFFFFFFF
(1784920244.710554) can0 0CF00400#FF9EB3187C00FFFF
(1784920244.711237) can0 09F8021C#92FCB7E4CD03FFFF
(1784920244.712326) can0 09F8011C#2E5F2918F67E53C1
(1784920244.716233) can0 18FEE81C#4CA87023DF676081
(1784920244.723537) can0 19F10D13#E528014902600096
(1784920244.731297) can0 0CF00400#FF9EB3507C00FFFF
(1784920244.750654) can0 0CF00400#FF9EB3787C00FFFF
(1784920244.770652) can0 0CF00400#FF9EB3687C00FFFF
(1784920244.790664) can0 0CF00400#FF9EB3907C00FFFF
(1784920244.791582) can0 18F01D21#33571A80FFFFFFFF
(1784920244.810652) can0 0CF00400#FF9EB3B87C00FFFF
(1784920244.812660) can0 09F112F8#FF6AD10000FF7FFD
(1784920244.823224) can0 19F10D13#E628014902600096
(1784920244.831636) can0 0CF00400#FF9EB3B87C00FFFF
(1784920244.850698) can0 0CF00400#FF9EB3E07C00FFFF
(1784920244.871368) can0 0CF00400#FF9EB3E87C00FFFF
(1784920244.890543) can0 0CF00400#FF9EB3E87C00FFFF
(1784920244.891996) can0 18F01D21#8B571A80FFFFFFFF
(1784920244.910541) can0 0CF00400#FF9EB3F87C00FFFF
(1784920244.923229) can0 19F10D13#E729014902600096
(1784920244.931315) can0 0CF00400#FF9EB3007D00FFFF
(1784920244.947665) can0 09F112F8#FF36D20000FF7FFD
(1784920244.951004) can0 0CF00400#FF9EB3007D00FFFF
(1784920244.970553) can0 0CF00400#FF9EB3107D00FFFF
(1784920244.990662) can0 0CF00400#FF9EB3187D00FFFF
(1784920244.991649) can0 18F01D21#F2591A80FFFFFFFF
(1784920245.010678) can0 0CF00400#FF9EB3087D00FFFF
(1784920245.023220) can0 19F10D13#E827014902600097
(1784920245.032335) can0 0CF00400#FF9EB3087D00FFFF
(1784920245.050668) can0 0CF00400#FF9EB3087D00FFFF
(1784920245.070677) can0 0CF00400#FF9EB3E87C00FFFF
(1784920245.081107) can0 09F112F8#FF0FD30000FF7FFD
(1784920245.090668) can0 0CF00400#FF9EB3F07C00FFFF
(1784920245.091876) can0 18F01D21#3F641A80FFFFFFFF
(1784920245.110678) can0 0CF00400#FF9EB3187D00FFFF
(1784920245.123092) can0 19F10D13#E928014902600096
(1784920245.131650) can0 0CF00400#FF9EB3F07C00FFFF
(1784920245.150666) can0 0CF00400#FF9EB3107D00FFFF
(1784920245.170677) can0 0CF00400#FF9EB3187D00FFFF
(1784920245.190673) can0 0CF00400#FF9EB3087D00FFFF
(1784920245.191068) can0 18F01D21#407B1A80FFFFFFFF
(1784920245.210753) can0 0CF00400#FF9EB3207D00FFFF
(1784920245.218374) can0 09F8021C#93FCEEE7DF03FFFF
(1784920245.219479) can0 09F8011C#18612918FE7D53C1
(1784920245.224068) can0 19F10D13#EA26014902600098
(1784920245.224653) can0 18FEE81C#1CAAB0231F686081
(1784920245.226476) can0 09F112F8#FFE0D30000FF7FFD
(1784920245.231632) can0 0CF00400#FF9EB3207D00FFFF
(1784920245.250565) can0 0CF00400#FF9EB3187D00FFFF
(1784920245.270560) can0 0CF00400#FF9EB3207D00FFFF
(1784920245.290670) can0 0CF00400#FF9EB3207D00FFFF
(1784920245.291563) can0 18F01D21#4C881A80FFFFFFFF
(1784920245.310680) can0 0CF00400#FF9EB3287D00FFFF
(1784920245.323227) can0 19F10D13#EB26014902600098
(1784920245.331655) can0 0CF00400#FF9EB3207D00FFFF
(1784920245.350684) can0 0CF00400#FF9EB3187D00FFFF
(1784920245.364682) can0 09F112F8#FFAED40000FF7FFD
(1784920245.370674) can0 0CF00400#FF9EB3007D00FFFF
(1784920245.390688) can0 0CF00400#FF9EB3187D00FFFF
(1784920245.391804) can0 18F01D21#53891A80FFFFFFFF
(1784920245.410560) can0 0CF00400#FF9EB3287D00FFFF
(1784920245.423084) can0 19F10D13#EC27014902600097
(1784920245.431614) can0 0CF00400#FF9EB3207D00FFFF
(1784920245.450677) can0 0CF00400#FF9EB3187D00FFFF
(1784920245.470677) can0 0CF00400#FF9EB3187D00FFFF
(1784920245.490580) can0 0CF00400#FF9EB3F87C00FFFF
(1784920245.491290) can0 18F01D21#A4881A80FFFFFFFF
(1784920245.497666) can0 09F112F8#FF78D50000FF7FFD
(1784920245.510568) can0 0CF00400#FF9EB3E87C00FFFF
(1784920245.523108) can0 19F10D13#ED27014902600097
(1784920245.531617) can0 0CF00400#FF9EB3007D00FFFF
(1784920245.550680) can0 0CF00400#FF9EB3E07C00FFFF
(1784920245.570686) can0 0CF00400#FF9EB3F87C00FFFF
(1784920245.590564) can0 0CF00400#FF9EB3E07C00FFFF
(1784920245.591573) can0 18F01D21#44871A80FFFFFFFF
(1784920245.610600) can0 0CF00400#FF9EB3C07C00FFFF
(1784920245.623103) can0 19F10D13#EE27014902600097
(1784920245.631658) can0 0CF00400#FF9EB3C07C00FFFF
(1784920245.641207) can0 09F112F8#FF74D60000FF7FFD
(1784920245.650672) can0 0CF00400#FF9EB3B07C00FFFF
(1784920245.670581) can0 0CF00400#FF9EB3A07C00FFFF
(1784920245.690598) can0 0CF00400#FF9EB3907C00FFFF
(1784920245.691853) can0 18F01D21#3C861A80FFFFFFFF
(1784920245.710607) can0 0CF00400#FF9EB3887C00FFFF
(1784920245.723074) can0 19F10D13#EF26014902600098
(1784920245.729998) can0 09F8021C#94FC3CEBEA03FFFF
(1784920245.731296) can0 09F8011C#206329183E7D53C1
(1784920245.731700) can0 0CF00400#FF9EB3787C00FFFF
(1784920245.735270) can0 18FEE81C#88AC1824EA685F81
(1784920245.750884) can0 0CF00400#FF9EB3687C00FFFF
(1784920245.770665) can0 0CF00400#FF9EB3687C00FFFF
(1784920245.784681) can0 09F112F8#FF5FD70000FF7FFD
(1784920245.790508) can0 0CF00400#FF9EB3707C00FFFF
(1784920245.791321) can0 18F01D21#BE801A80FFFFFFFF
(1784920245.810628) can0 0CF00400#FF9EB3687C00FFFF
(1784920245.823094) can0 19F10D13#F027014902600097
(1784920245.831364) can0 0CF00400#FF9EB3707C00FFFF
(1784920245.850890) can0 0CF00400#FF9EB3387C00FFFF
(1784920245.870545) can0 0CF00400#FF9EB3307C00FFFF
(1784920245.890682) can0 0CF00400#FF9EB3407C00FFFF
(1784920245.891625) can0 18F01D21#A3711A80FFFFFFFF
(1784920245.910490) can0 0CF00400#FF9EB3207C00FFFF
(1784920245.921718) can0 09F112F8#FF3ED80000FF7FFD
(1784920245.923073) can0 19F10D13#F127014902600097
(1784920245.932119) can0 0CF00400#FF9EB3207C00FFFF
(1784920245.950600) can0 0CF00400#FF9EB3187C00FFFF
(1784920245.970599) can0 0CF00400#FF9EB3E87B00FFFF
(1784920245.990697) can0 0CF00400#FF9EB3D07B00FFFF
(1784920245.992450) can0 18F01D21#A6661A80FFFFFFFF
(1784920246.010591) can0 0CF00400#FF9EB3E07B00FFFF
(1784920246.023246) can0 19F10D13#F228014902600096
(1784920246.031673) can0 0CF00400#FF9EB3D87B00FFFF
(1784920246.050602) can0 0CF00400#FF9EB3B87B00FFFF
(1784920246.061343) can0 09F112F8#FF0ED90000FF7FFD
(1784920246.070592) can0 0CF00400#FF9EB3C87B00FFFF
(1784920246.090596) can0 0CF00400#FF9EB3B87B00FFFF
(1784920246.091371) can0 18F01D21#24551A80FFFFFFFF
(1784920246.110505) can0 0CF00400#FF9EB3B87B00FFFF
(1784920246.123097) can0 19F10D13#F32A014902600095
(1784920246.131614) can0 0CF00400#FF9EB3B07B00FFFF
(1784920246.150615) can0 0CF00400#FF9EB3707B00FFFF
(1784920246.171260) can0 0CF00400#FF9EB3907B00FFFF
(1784920246.190611) can0 0CF00400#FF9EB3A07B00FFFF
(1784920246.191787) can0 18F01D21#C43C1A80FFFFFFFF
(1784920246.201351) can0 09F112F8#FFD8D90000FF7FFD
(1784920246.210473) can0 0CF00400#FF9EB3A87B00FFFF
(1784920246.223515) can0 19F10D13#F42A014902600095
(1784920246.231302) can0 0CF00400#FF9EB3907B00FFFF
(1784920246.236784) can0 09F8021C#95FCE3EDF603FFFF
(1784920246.237962) can0 09F8011C#82642918D67C53C1
(1784920246.241930) can0 18FEE81C#7AAE8824DF686181
(1784920246.250492) can0 0CF00400#FF9EB3A87B00FFFF
(1784920246.271193) can0 0CF00400#FF9EB3887B00FFFF
(1784920246.290606) can0 0CF00400#FF9EB3887B00FFFF
(1784920246.292116) can0 18F01D21#A4211A80FFFFFFFF
(1784920246.310703) can0 0CF00400#FF9EB3987B00FFFF
(1784920246.323255) can0 19F10D13#F52C014902600094
(1784920246.331620) can0 0CF00400#FF9EB3887B00FFFF
(1784920246.334678) can0 09F112F8#FF8CDA0000FF7FFD
(1784920246.350516) can0 0CF00400#FF9EB3687B00FFFF
(1784920246.370566) can0 0CF00400#FF9EB3787B00FFFF
(1784920246.390599) can0 0CF00400#FF9EB3507B00FFFF
(1784920246.391422) can0 18F01D21#6E031A80FFFFFFFF
(1784920246.410602) can0 0CF00400#FF9EB3487B00FFFF
(1784920246.423243) can0 19F10D13#F62C014902600094
(1784920246.431576) can0 0CF00400#FF9EB3687B00FFFF
(1784920246.450598) can0 0CF00400#FF9EB3587B00FFFF
(1784920246.470579) can0 0CF00400#FF9EB3487B00FFFF
(1784920246.476820) can0 09F112F8#FF39DB0000FF7FFD
(1784920246.490476) can0 0CF00400#FF9EB3387B00FFFF
(1784920246.491849) can0 18F01D21#B2F51980FFFFFFFF
(1784920246.510559) can0 0CF00400#FF9EB3487B00FFFF
(1784920246.523079) can0 19F10D13#F72D014902600093
(1784920246.531577) can0 0CF00400#FF9EB3387B00FFFF
(1784920246.550597) can0 0CF00400#FF9EB3587B00FFFF
(1784920246.570577) can0 0CF00400#FF9EB3807B00FFFF
(1784920246.590483) can0 0CF00400#FF9EB3587B00FFFF
(1784920246.592247) can0 18F01D21#FBF31980FFFFFFFF
(1784920246.610570) can0 0CF00400#FF9EB3507B00FFFF
(1784920246.616192) can0 09F112F8#FFC5DB0000FF7FFD
(1784920246.623254) can0 19F10D13#F82C014902600094
(1784920246.631581) can0 0CF00400#FF9EB3587B00FFFF
(1784920246.650593) can0 0CF00400#FF9EB3707B00FFFF
(1784920246.671240) can0 0CF00400#FF9EB3607B00FFFF
(1784920246.690596) can0 0CF00400#FF9DB3907B00FFFF
(1784920246.691689) can0 18F01D21#F3F21980FFFFFFFF
(1784920246.710508) can0 0CF00400#FF9DB3907B00FFFF
(1784920246.723252) can0 19F10D13#F92D014902600093
(1784920246.731103) can0 0CF00400#FF9CB3907B00FFFF
(1784920246.742482) can0 09F8021C#96FC8AF00204FFFF
(1784920246.743601) can0 09F8011C#A8662918687C53C1
(1784920246.747519) can0 18FEE81C#6CB0F82450676081
(1784920246.750746) can0 0CF00400#FF9AB3A87B00FFFF
(1784920246.761326) can0 09F112F8#FF2FDC0000FF7FFD
(1784920246.771520) can0 0CF00400#FF97B2C07B00FFFF
(1784920246.790467) can0 0CF00400#FF95B0887B00FFFF
(1784920246.791810) can0 18F01D21#1DED1980FFFFFFFF
(1784920246.810593) can0 0CF00400#FF93AE407B00FFFF
(1784920246.823251) can0 19F10D13#FA2D014902600093
(1784920246.832284) can0 0CF00400#FF91ACC07A00FFFF
(1784920246.850619) can0 0CF00400#FF90A9187A00FFFF
(1784920246.871282) can0 0CF00400#FF90A7607900FFFF
(1784920246.886184) can0 09F112F8#FF8CDC0000FF7FFD
(1784920246.890569) can0 0CF00400#FF8FA5A87800FFFF
(1784920246.892356) can0 18F01D21#24D71980FFFFFFFF
(1784920246.910571) can0 0CF00400#FF8FA4D07700FFFF
(1784920246.923586) can0 19F10D13#FB2E014902600093
(1784920246.931586) can0 0CF00400#FF8FA3E87600FFFF
(1784920246.950537) can0 0CF00400#FF8FA3107600FFFF
(1784920246.970552) can0 0CF00400#FF8FA2187500FFFF
(1784920246.990573) can0 0CF00400#FF8FA3387400FFFF
(1784920246.991602) can0 18F01D21#3AC31980FFFFFFFF
(1784920247.010587) can0 0CF00400#FF8FA3587300FFFF
(1784920247.022881) can0 09F112F8#FF0ADD0000FF7FFD
(1784920247.023871) can0 19F10D13#FC2F014902600092
(1784920247.031637) can0 0CF00400#FF8FA3907200FFFF
(1784920247.050580) can0 0CF00400#FF8FA4F87100FFFF
(1784920247.070590) can0 0CF00400#FF8FA4507100FFFF
(1784920247.090430) can0 0CF00400#FF8FA5A87000FFFF
(1784920247.091773) can0 18F01D21#8BC21980FFFFFFFF
(1784920247.110570) can0 0CF00400#FF8FA5307000FFFF
(1784920247.123261) can0 19F10D13#FD30014902600091
(1784920247.131609) can0 0CF00400#FF8FA5C86F00FFFF
(1784920247.150568) can0 0CF00400#FF8FA5606F00FFFF
(1784920247.161247) can0 09F112F8#FF9EDD0000FF7FFD
(1784920247.170556) can0 0CF00400#FF8FA5F06E00FFFF
(1784920247.190511) can0 0CF00400#FF8FA5806E00FFFF
(1784920247.192310) can0 18F01D21#DBC11980FFFFFFFF
(1784920247.210564) can0 0CF00400#FF8FA5106E00FFFF
(1784920247.223097) can0 19F10D13#FE30014902600091
(1784920247.231593) can0 0CF00400#FF8FA5B86D00FFFF
(1784920247.248837) can0 09F8021C#97FCC1F21C04FFFF
(1784920247.250292) can0 09F8011C#246829183E7C53C1
(1784920247.250743) can0 0CF00400#FF8FA5686D00FFFF
(1784920247.254274) can0 18FEE81C#0CB2E825E9665E81
(1784920247.271075) can0 0CF00400#FF8FA5386D00FFFF
(1784920247.290586) can0 0CF00400#FF8FA5F06C00FFFF
(1784920247.291699) can0 18F01D21#83C11980FFFFFFFF
(1784920247.293713) can0 09F112F8#FF2BDE0000FF7FFD
(1784920247.310545) can0 0CF00400#FF8FA5906C00FFFF
(1784920247.323270) can0 19F10D13#FF2F014902600092
(1784920247.331595) can0 0CF00400#FF8FA6686C00FFFF
(1784920247.350545) can0 0CF00400#FF8FA5406C00FFFF
(1784920247.370485) can0 0CF00400#FF8FA6F86B00FFFF
(1784920247.390472) can0 0CF00400#FF8FA6E86B00FFFF
(1784920247.392109) can0 18F01D21#70B31980FFFFFFFF
(1784920247.410509) can0 0CF00400#FF8FA6D86B00FFFF
(1784920247.423181) can0 19F10D13#0030014902600091
(1784920247.431544) can0 09F112F8#FFC6DE0000FF7FFD
(1784920247.432234) can0 0CF00400#FF8FA6D06B00FFFF
(1784920247.450504) can0 0CF00400#FF8FA6A86B00FFFF
(1784920247.470504) can0 0CF00400#FF8FA6806B00FFFF
(1784920247.490530) can0 0CF00400#FF8FA6786B00FFFF
(1784920247.492404) can0 18F01D21#9C741980FFFFFFFF
