(1754520284.472678) can0 18F01D21#B4241C8000D11580
(1754520284.481225) can0 09F112F8#FFFF1D0000FF7FFD
(1754520284.483793) can0 18FF50E0#0102885B8000804B
(1754520284.484346) can0 0CF00400#FF7D7F001200FFFF
(1754520284.498565) can0 19F10D13#0D70015B0284006C
(1754520284.504387) can0 0CF00400#FF7D7FC81100FFFF
(1754520284.525506) can0 0CF00400#FF7D7F901100FFFF
(1754520284.544390) can0 0CF00400#FF7D7F881100FFFF
(1754520284.564411) can0 0CF00400#FF7D7FA01100FFFF
(1754520284.572967) can0 18F01D21#4BF41B8000D11580
(1754520284.584422) can0 0CF00400#FF7D80C81100FFFF
(1754520284.586422) can0 18FF50E0#0102885B8000804C
(1754520284.598608) can0 19F10D13#0E73015B0284006A
(1754520284.604367) can0 0CF00400#FF7D80F81100FFFF
(1754520284.620592) can0 09F112F8#FFFF1D0000FF7FFD
(1754520284.625498) can0 0CF00400#FF7D80181200FFFF
(1754520284.644955) can0 0CF00400#FF7D80001200FFFF
(1754520284.664428) can0 0CF00400#FF7D80E01100FFFF
(1754520284.672241) can0 18F01D21#FAC61B8000D11580
(1754520284.684578) can0 0CF00400#FF7D80D01100FFFF
(1754520284.687250) can0 18FF50E0#0102885B8000804D
(1754520284.698636) can0 19F10D13#0F74015B02840069
(1754520284.704422) can0 0CF00400#FF7D80E81100FFFF
(1754520284.725475) can0 0CF00400#FF7D80F81100FFFF
(1754520284.744926) can0 0CF00400#FF7D80081200FFFF
(1754520284.746116) can0 09F8021C#2FFC520FAB00FFFF
(1754520284.747157) can0 09F8011C#A27C2718589D53C1
(1754520284.750176) can0 18FEE81C#3D0B30061E644581
(1754520284.761231) can0 09F112F8#FF041E0000FF7FFD
(1754520284.764339) can0 0CF00400#FF7D80301200FFFF
(1754520284.772824) can0 18F01D21#6B911B8000D11580
(1754520284.784375) can0 0CF00400#FF7D80601200FFFF
(1754520284.788671) can0 18FF50E0#0102883B7F00804E
(1754520284.798598) can0 19F10D13#1076015B02840068
(1754520284.804378) can0 0CF00400#FF7D80901200FFFF
(1754520284.825481) can0 0CF00400#FF7D80C01200FFFF
(1754520284.844381) can0 0CF00400#FF7D80D01200FFFF
(1754520284.864343) can0 0CF00400#FF7D80C01200FFFF
(1754520284.873104) can0 18F01D21#56551B8000D11580
(1754520284.884608) can0 0CF00400#FF7D80B01200FFFF
(1754520284.891966) can0 18FF50E0#0102883B7F00804F
(1754520284.895276) can0 09F112F8#FF0F1E0000FF7FFD
(1754520284.898588) can0 19F10D13#1179015B02840067
(1754520284.904347) can0 0CF00400#FF7D80A81200FFFF
(1754520284.925035) can0 0CF00400#FF7D80E81200FFFF
(1754520284.944702) can0 0CF00400#FF7D80101300FFFF
(1754520284.965458) can0 0CF00400#FF7D80301300FFFF
(1754520284.972347) can0 18F01D21#7A151B8000AC1480
(1754520284.984518) can0 0CF00400#FF7D80581300FFFF
(1754520284.993792) can0 18FF50E0#0102883B7F008050
(1754520284.998584) can0 19F10D13#127B015B02840066
(1754520285.004346) can0 0CF00400#FF7D80781300FFFF
(1754520285.026010) can0 0CF00400#FF7D80781300FFFF
(1754520285.035105) can0 09F112F8#FF131E0000FF7FFD
(1754520285.044391) can0 0CF00400#FF7D7F601300FFFF
(1754520285.064375) can0 0CF00400#FF7D7F681300FFFF
(1754520285.072812) can0 18F01D21#DFBB1A8000AC1480
(1754520285.084385) can0 0CF00400#FF7D7F501300FFFF
(1754520285.094630) can0 18FF50E0#0102883B7F008051
(1754520285.098573) can0 19F10D13#137F015B02840063
(1754520285.104362) can0 0CF00400#FF7D7F281300FFFF
(1754520285.125509) can0 0CF00400#FF7D7F181300FFFF
(1754520285.144384) can0 0CF00400#FF7D7F101300FFFF
(1754520285.164349) can0 0CF00400#FF7D7F081300FFFF
(1754520285.172178) can0 18F01D21#3F561A8000AC1480
(1754520285.178202) can0 09F112F8#FF121E0000FF7FFD
(1754520285.184329) can0 0CF00400#FF7D7F201300FFFF
(1754520285.196031) can0 18FF50E0#0102883B7F008052
(1754520285.198560) can0 19F10D13#1482015B02840062
(1754520285.204356) can0 0CF00400#FF7D7F381300FFFF
(1754520285.225497) can0 0CF00400#FF7D7F481300FFFF
(1754520285.244347) can0 0CF00400#FF7D7F581300FFFF
(1754520285.255611) can0 09F8021C#30FC510DA900FFFF
(1754520285.256780) can0 09F8011C#C87C2718769D53C1
(1754520285.262033) can0 18FEE81C#C50918061E644381
(1754520285.264967) can0 0CF00400#FF7D7F381300FFFF
(1754520285.272393) can0 18F01D21#ABFD198000AC1480
(1754520285.284515) can0 0CF00400#FF7D7F201300FFFF
(1754520285.297172) can0 18FF50E0#0102886180008053
(1754520285.299148) can0 19F10D13#1585015B02840060
(1754520285.304323) can0 0CF00400#FF7D7F301300FFFF
(1754520285.311245) can0 09F112F8#FF091E0000FF7FFD
(1754520285.324931) can0 0CF00400#FF7D7F401300FFFF
(1754520285.344381) can0 0CF00400#FF7D7F201300FFFF
(1754520285.364918) can0 0CF00400#FF7D7F381300FFFF
(1754520285.372897) can0 18F01D21#59B9198000AC1480
(1754520285.384325) can0 0CF00400#FF7D7F601300FFFF
(1754520285.398195) can0 18FF50E0#0102886180008054
(1754520285.398642) can0 19F10D13#1689015B0284005E
(1754520285.404354) can0 0CF00400#FF7D7F601300FFFF
(1754520285.425419) can0 0CF00400#FF7D7F581300FFFF
(1754520285.444391) can0 0CF00400#FF7D7F281300FFFF
(1754520285.453876) can0 09F112F8#FFFB1D0000FF7FFD
(1754520285.464357) can0 0CF00400#FF7D7F001300FFFF
(1754520285.472131) can0 18F01D21#ED93198000AC1480
(1754520285.484374) can0 0CF00400#FF7D7FF81200FFFF
(1754520285.498577) can0 19F10D13#1789015B0284005E
(1754520285.500446) can0 18FF50E0#0102886180008055
(1754520285.504351) can0 0CF00400#FF7D7FF01200FFFF
(1754520285.525447) can0 0CF00400#FF7D7FC81200FFFF
(1754520285.544395) can0 0CF00400#FF7D7FA81200FFFF
(1754520285.564329) can0 0CF00400#FF7D7FA81200FFFF
(1754520285.572577) can0 18F01D21#D284198000AC1480
(1754520285.584371) can0 0CF00400#FF7D7FA01200FFFF
(1754520285.591099) can0 09F112F8#FFEB1D0000FF7FFD
(1754520285.598580) can0 19F10D13#188A015B0284005D
(1754520285.601463) can0 18FF50E0#0102886180008056
(1754520285.604353) can0 0CF00400#FF7D7FB01200FFFF
(1754520285.625435) can0 0CF00400#FF7D7FC81200FFFF
(1754520285.644325) can0 0CF00400#FF7D7FC01200FFFF
(1754520285.664924) can0 0CF00400#FF7D7FA81200FFFF
(1754520285.672912) can0 18F01D21#7283198000AC1480
(1754520285.684341) can0 0CF00400#FF7D7F781200FFFF
(1754520285.698562) can0 19F10D13#1989015B0284005E
(1754520285.702585) can0 18FF50E0#0102886180008057
(1754520285.704330) can0 0CF00400#FF7D7F901200FFFF
(1754520285.725403) can0 0CF00400#FF7D7FA01200FFFF
(1754520285.728240) can0 09F112F8#FFD31D0000FF7FFD
(1754520285.744391) can0 0CF00400#FF7D7FB01200FFFF
(1754520285.764470) can0 09F8021C#31FC1D0EA800FFFF
(1754520285.765540) can0 09F8011C#F27C27188C9D53C1
(1754520285.766102) can0 0CF00400#FF7D7FC01200FFFF
(1754520285.769347) can0 18FEE81C#5A0A10061E644381
(1754520285.772200) can0 18F01D21#6B82198000AC1480
(1754520285.784539) can0 0CF00400#FF7D7FB81200FFFF
(1754520285.798573) can0 19F10D13#1A89015B0284005E
(1754520285.804297) can0 0CF00400#FF7D7FA81200FFFF
(1754520285.804794) can0 18FF50E0#010288EC7F008058
(1754520285.824389) can0 0CF00400#FF7D7F981200FFFF
(1754520285.844935) can0 0CF00400#FF7D7F801200FFFF
(1754520285.865475) can0 0CF00400#FF7D7F401200FFFF
(1754520285.870496) can0 09F112F8#FFBD1D0000FF7FFD
(1754520285.872613) can0 18F01D21#6B82198000AC1480
(1754520285.884347) can0 0CF00400#FF7D7F401200FFFF
(1754520285.898584) can0 19F10D13#1B8A015B0284005D
(1754520285.904388) can0 0CF00400#FF7D7F481200FFFF
(1754520285.907805) can0 18FF50E0#010288EC7F008059
(1754520285.925976) can0 0CF00400#FF7D7F501200FFFF
(1754520285.944386) can0 0CF00400#FF7D7F701200FFFF
(1754520285.964305) can0 0CF00400#FF7D7F781200FFFF
(1754520285.973060) can0 18F01D21#1382198000AC1480
(1754520285.984312) can0 0CF00400#FF7D7F981200FFFF
(1754520285.998576) can0 19F10D13#1C8A015B0284005D
(1754520286.004332) can0 0CF00400#FF7D7FC81200FFFF
(1754520286.009417) can0 18FF50E0#010288EC7F00805A
(1754520286.013103) can0 09F112F8#FFA51D0000FF7FFD
(1754520286.025434) can0 0CF00400#FF7D7FE81200FFFF
(1754520286.044371) can0 0CF00400#FF7D7FC01200FFFF
(1754520286.064281) can0 0CF00400#FF7D7F981200FFFF
(1754520286.072298) can0 18F01D21#1382198000AC1480
(1754520286.084339) can0 0CF00400#FF7D7FB81200FFFF
(1754520286.098550) can0 19F10D13#1D8B015B0284005D
(1754520286.104288) can0 0CF00400#FF7D7FC01200FFFF
(1754520286.110398) can0 18FF50E0#010288EC7F00805B
(1754520286.125379) can0 0CF00400#FF7D7FC81200FFFF
(1754520286.144362) can0 0CF00400#FF7D7FD01200FFFF
(1754520286.147253) can0 09F112F8#FF921D0000FF7FFD
(1754520286.164283) can0 0CF00400#FF7D7FA81200FFFF
(1754520286.172602) can0 18F01D21#BB81198000AC1480
(1754520286.184297) can0 0CF00400#FF7D7FA01200FFFF
(1754520286.198573) can0 19F10D13#1E8A015B0284005D
(1754520286.204278) can0 0CF00400#FF7D7FC01200FFFF
(1754520286.212067) can0 18FF50E0#010288EC7F00805C
(1754520286.225378) can0 0CF00400#FF7D7FD01200FFFF
(1754520286.244386) can0 0CF00400#FF7D7FC81200FFFF
(1754520286.264286) can0 0CF00400#FF7D7FE01200FFFF
(1754520286.270802) can0 09F8021C#32FC720EAA00FFFF
(1754520286.271686) can0 09F8011C#427D2718BC9D53C1
(1754520286.273278) can0 18F01D21#6381198000AC1480
(1754520286.274977) can0 18FEE81C#990A200620644281
(1754520286.284863) can0 0CF00400#FF7D7FF01200FFFF
(1754520286.297618) can0 09F112F8#FF831D0000FF7FFD
(1754520286.298801) can0 19F10D13#1F89015B0284005E
(1754520286.304877) can0 0CF00400#FF7D7FF81200FFFF
(1754520286.313066) can0 18FF50E0#010288BB7F00805D
(1754520286.324946) can0 0CF00400#FF7D7FE81200FFFF
(1754520286.344397) can0 0CF00400#FF7D7FE01200FFFF
(1754520286.364310) can0 0CF00400#FF7D7FD81200FFFF
(1754520286.372388) can0 18F01D21#6381198000AC1480
(1754520286.384386) can0 0CF00400#FF7D7FD01200FFFF
(1754520286.398565) can0 19F10D13#208B015B0284005D
(1754520286.404313) can0 0CF00400#FF7D7FD81200FFFF
(1754520286.415267) can0 18FF50E0#010288BB7F00805E
(1754520286.425446) can0 0CF00400#FF7D7FF01200FFFF
(1754520286.427534) can0 09F112F8#FF781D0000FF7FFD
(1754520286.444375) can0 0CF00400#FF7D7FF81200FFFF
(1754520286.464264) can0 0CF00400#FF7D7FF81200FFFF
(1754520286.472657) can0 18F01D21#6381198000AC1480
(1754520286.484282) can0 0CF00400#FF7D7FF81200FFFF
(1754520286.498585) can0 19F10D13#218A015B0284005D
(1754520286.504260) can0 0CF00400#FF7D7FF01200FFFF
(1754520286.517838) can0 18FF50E0#010288BB7F00805F
(1754520286.525380) can0 0CF00400#FF7D7FE81200FFFF
(1754520286.544386) can0 0CF00400#FF7D7FE81200FFFF
(1754520286.564015) can0 09F112F8#FF6C1D0000FF7FFD
(1754520286.565127) can0 0CF00400#FF7D7FF01200FFFF
(1754520286.573087) can0 18F01D21#6381198000AC1480
(1754520286.584315) can0 0CF00400#FF7D7F001300FFFF
(1754520286.598563) can0 19F10D13#2289015B0284005E
(1754520286.604271) can0 0CF00400#FF7D7F101300FFFF
(1754520286.619168) can0 18FF50E0#010288BB7F008060
(1754520286.625436) can0 0CF00400#FF7D7F101300FFFF
(1754520286.644979) can0 0CF00400#FF7D7FF01200FFFF
(1754520286.664313) can0 0CF00400#FF7D7FD81200FFFF
(1754520286.672463) can0 18F01D21#6381198000AC1480
(1754520286.684261) can0 0CF00400#FF7D7FD01200FFFF
(1754520286.698587) can0 19F10D13#238A015B0284005D
(1754520286.699258) can0 09F112F8#FF571D0000FF7FFD
(1754520286.704285) can0 0CF00400#FF7D7FD01200FFFF
(1754520286.720561) can0 18FF50E0#010288BB7F008061
(1754520286.725394) can0 0CF00400#FF7D7FD81200FFFF
(1754520286.744917) can0 0CF00400#FF7D7FD01200FFFF
(1754520286.765222) can0 0CF00400#FF7D7FD81200FFFF
(1754520286.772805) can0 18F01D21#6381198000AC1480
(1754520286.776330) can0 09F8021C#33FC3F0EAC00FFFF
(1754520286.777287) can0 09F8011C#7C7D2718E29D53C1
(1754520286.781355) can0 18FEE81C#730A380620644181
(1754520286.785288) can0 0CF00400#FF7D7FF81200FFFF
(1754520286.798677) can0 19F10D13#248A015B0284005D
(1754520286.804253) can0 0CF00400#FF7D7F181300FFFF
(1754520286.823102) can0 18FF50E0#010288D97F008062
(1754520286.825810) can0 0CF00400#FF7D7F181300FFFF
(1754520286.834991) can0 09F112F8#FF3C1D0000FF7FFD
(1754520286.844403) can0 0CF00400#FF7D7FF81200FFFF
(1754520286.864979) can0 0CF00400#FF7D7FF01200FFFF
(1754520286.873191) can0 18F01D21#6381198000AC1480
(1754520286.884285) can0 0CF00400#FF7D7FD01200FFFF
(1754520286.898637) can0 19F10D13#258A015B0284005D
(1754520286.904288) can0 0CF00400#FF7D7FE01200FFFF
(1754520286.924193) can0 18FF50E0#010288D97F008063
(1754520286.925362) can0 0CF00400#FF7D7FC81200FFFF
(1754520286.944249) can0 0CF00400#FF7D7F901200FFFF
(1754520286.964930) can0 0CF00400#FF7D7FA01200FFFF
(1754520286.970641) can0 09F112F8#FF231D0000FF7FFD
(1754520286.972584) can0 18F01D21#6381198000AC1480
(1754520286.984306) can0 0CF00400#FF7D7FA81200FFFF
(1754520286.998571) can0 19F10D13#268A015B0284005D
(1754520287.004265) can0 0CF00400#FF7D7FB81200FFFF
(1754520287.025375) can0 0CF00400#FF7D7FB01200FFFF
(1754520287.025827) can0 18FF50E0#010288D97F008064
(1754520287.044235) can0 0CF00400#FF7D7F801200FFFF
(1754520287.064263) can0 0CF00400#FF7D7F681200FFFF
(1754520287.072894) can0 18F01D21#0B81198000AC1480
(1754520287.084365) can0 0CF00400#FF7D7F601200FFFF
(1754520287.098579) can0 19F10D13#2789015B0284005E
(1754520287.104321) can0 0CF00400#FF7D7F701200FFFF
(1754520287.108476) can0 09F112F8#FF071D0000FF7FFD
(1754520287.125348) can0 0CF00400#FF7D7F581200FFFF
(1754520287.127069) can0 18FF50E0#010288D97F008065
(1754520287.144265) can0 0CF00400#FF7D7F201200FFFF
(1754520287.164931) can0 0CF00400#FF7D7F401200FFFF
(1754520287.173316) can0 18F01D21#6381198000AC1480
(1754520287.184299) can0 0CF00400#FF7D7F681200FFFF
(1754520287.198565) can0 19F10D13#288A015B0284005D
(1754520287.204239) can0 0CF00400#FF7D7F901200FFFF
(1754520287.225359) can0 0CF00400#FF7D7F981200FFFF
(1754520287.228185) can0 18FF50E0#010288D97F008066
(1754520287.244295) can0 0CF00400#FF7D7F901200FFFF
(1754520287.245107) can0 09F112F8#FFE61C0000FF7FFD
(1754520287.265365) can0 0CF00400#FF7D7F301200FFFF
(1754520287.272593) can0 18F01D21#6381198000AC1480
(1754520287.284285) can0 0CF00400#FF7D7FF01100FFFF
(1754520287.285910) can0 09F8021C#34FC0F0DA900FFFF
(1754520287.286862) can0 09F8011C#AE7D2718FE9D53C1
(1754520287.290962) can0 18FEE81C#9409180620644081
(1754520287.298606) can0 19F10D13#298A015B0284005D
(1754520287.304463) can0 0CF00400#FF7D7FF81100FFFF
(1754520287.325404) can0 0CF00400#FF7D80181200FFFF
(1754520287.332819) can0 18FF50E0#0102888780008067
(1754520287.344393) can0 0CF00400#FF7D80201200FFFF
(1754520287.364973) can0 0CF00400#FF7D80481200FFFF
(1754520287.372863) can0 18F01D21#0B81198000AC1480
(1754520287.383825) can0 09F112F8#FFCA1C0000FF7FFD
(1754520287.384344) can0 0CF00400#FF7D80881200FFFF
(1754520287.398624) can0 19F10D13#2A8B015B0284005D
(1754520287.404227) can0 0CF00400#FF7D80981200FFFF
(1754520287.425054) can0 0CF00400#FF7D80A81200FFFF
(1754520287.434159) can0 18FF50E0#0102888780008068
(1754520287.444270) can0 0CF00400#FF7D80C01200FFFF
(1754520287.464979) can0 0CF00400#FF7D80A81200FFFF
(1754520287.473305) can0 18F01D21#6381198000AC1480
(1754520287.484252) can0 0CF00400#FF7D7F881200FFFF
(1754520287.498579) can0 19F10D13#2B8A015B0284005D
(1754520287.504239) can0 0CF00400#FF7D80901200FFFF
(1754520287.518448) can0 09F112F8#FFAA1C0000FF7FFD
(1754520287.525063) can0 0CF00400#FF7D80B81200FFFF
(1754520287.535218) can0 18FF50E0#0102888780008069
(1754520287.544253) can0 0CF00400#FF7D7FB01200FFFF
(1754520287.564935) can0 0CF00400#FF7D7FC01200FFFF
(1754520287.572598) can0 18F01D21#0B81198000AC1480
(1754520287.584284) can0 0CF00400#FF7D7FE81200FFFF
(1754520287.598618) can0 19F10D13#2C89015B0284005E
(1754520287.604503) can0 0CF00400#FF7D7FF01200FFFF
(1754520287.625295) can0 0CF00400#FF7D7FE81200FFFF
(1754520287.636878) can0 18FF50E0#010288878000806A
(1754520287.644937) can0 0CF00400#FF7D7FF81200FFFF
(1754520287.655127) can0 09F112F8#FF831C0000FF7FFD
(1754520287.665498) can0 0CF00400#FF7D7FC01200FFFF
(1754520287.672957) can0 18F01D21#0B81198000AC1480
(1754520287.684261) can0 0CF00400#FF7D7F981200FFFF
(1754520287.698570) can0 19F10D13#2D89015B0284005E
(1754520287.704199) can0 0CF00400#FF7D7F781200FFFF
(1754520287.725653) can0 0CF00400#FF7D7F681200FFFF
(1754520287.738084) can0 18FF50E0#010288878000806B
(1754520287.744206) can0 0CF00400#FF7D7F181200FFFF
(1754520287.764251) can0 0CF00400#FF7D7F201200FFFF
(1754520287.773491) can0 18F01D21#6381198000AC1480
(1754520287.784417) can0 0CF00400#FF7D80501200FFFF
(1754520287.790272) can0 09F112F8#FF631C0000FF7FFD
(1754520287.794915) can0 09F8021C#35FCFB0DAA00FFFF
(1754520287.797518) can0 09F8021C#36FCFB0DAA00FFFF
(1754520287.798523) can0 09F8011C#D87D2718169E53C1
(1754520287.799065) can0 19F10D13#2E89015B0284005E
(1754520287.801556) can0 18FEE81C#410A200641643F81
(1754520287.804418) can0 0CF00400#FF7D80701200FFFF
(1754520287.825138) can0 0CF00400#FF7D80881200FFFF
(1754520287.839983) can0 18FF50E0#010288008000806C
(1754520287.844582) can0 0CF00400#FF7D80B01200FFFF
(1754520287.864969) can0 0CF00400#FF7D80981200FFFF
(1754520287.872687) can0 18F01D21#6381198000AC1480
(1754520287.884229) can0 0CF00400#FF7D80701200FFFF
(1754520287.898577) can0 19F10D13#2F89015B0284005E
(1754520287.904229) can0 0CF00400#FF7D80581200FFFF
(1754520287.925331) can0 0CF00400#FF7D80701200FFFF
(1754520287.926657) can0 09F112F8#FF451C0000FF7FFD
(1754520287.941729) can0 18FF50E0#010288008000806D
(1754520287.944199) can0 0CF00400#FF7D80601200FFFF
(1754520287.964946) can0 0CF00400#FF7D80581200FFFF
(1754520287.973074) can0 18F01D21#0B81198000AC1480
(1754520287.984226) can0 0CF00400#FF7D80701200FFFF
(1754520287.998550) can0 19F10D13#3089015B0284005E
(1754520288.004236) can0 0CF00400#FF7D80A01200FFFF
(1754520288.025343) can0 0CF00400#FF7D80C81200FFFF
(1754520288.043509) can0 18FF50E0#010288008000806E
(1754520288.044248) can0 0CF00400#FF7D80D01200FFFF
(1754520288.064968) can0 09F112F8#FF2B1C0000FF7FFD
(1754520288.065517) can0 0CF00400#FF7D80C01200FFFF
(1754520288.073430) can0 18F01D21#6381198000AC1480
(1754520288.084197) can0 0CF00400#FF7D80B81200FFFF
(1754520288.098590) can0 19F10D13#318A015B0284005D
(1754520288.104235) can0 0CF00400#FF7D80C81200FFFF
(1754520288.125331) can0 0CF00400#FF7D80C81200FFFF
(1754520288.144222) can0 0CF00400#FF7D7FB81200FFFF
(1754520288.144690) can0 18FF50E0#010288008000806F
(1754520288.165017) can0 0CF00400#FF7D7FD01200FFFF
(1754520288.172826) can0 18F01D21#6381198000AC1480
(1754520288.184292) can0 0CF00400#FF7D80F81200FFFF
(1754520288.198554) can0 19F10D13#328A015B0284005D
(1754520288.201576) can0 09F112F8#FF0C1C0000FF7FFD
(1754520288.204205) can0 0CF00400#FF7D80181300FFFF
(1754520288.225309) can0 0CF00400#FF7D7F081300FFFF
(1754520288.244224) can0 0CF00400#FF7D7F001300FFFF
(1754520288.246701) can0 18FF50E0#0102880080008070
(1754520288.264951) can0 0CF00400#FF7D7FE81200FFFF
(1754520288.273151) can0 18F01D21#6381198000AC1480
(1754520288.284424) can0 0CF00400#FF7D7FE01200FFFF
(1754520288.298583) can0 19F10D13#338A015B0284005D
(1754520288.304302) can0 0CF00400#FF7D7FD81200FFFF
(1754520288.307095) can0 09F8021C#37FC7E0DAC00FFFF
(1754520288.308198) can0 09F8011C#387E27184A9E53C1
(1754520288.313163) can0 18FEE81C#E609380645643E81
(1754520288.325344) can0 0CF00400#FF7D7F901200FFFF
(1754520288.335136) can0 09F112F8#FFEB1B0000FF7FFD
(1754520288.344518) can0 0CF00400#FF7D7F801200FFFF
(1754520288.349944) can0 18FF50E0#0102884780008071
(1754520288.364974) can0 0CF00400#FF7D7F801200FFFF
(1754520288.372442) can0 18F01D21#6381198000AC1480
(1754520288.384186) can0 0CF00400#FF7D7F881200FFFF
(1754520288.398553) can0 19F10D13#348A015B0284005D
(1754520288.404197) can0 0CF00400#FF7D80A01200FFFF
(1754520288.425335) can0 0CF00400#FF7D80D81200FFFF
(1754520288.444196) can0 0CF00400#FF7D7FF01200FFFF
(1754520288.452978) can0 18FF50E0#0102884780008072
(1754520288.464170) can0 0CF00400#FF7D7FE81200FFFF
(1754520288.469766) can0 09F112F8#FFD31B0000FF7FFD
(1754520288.472866) can0 18F01D21#6381198000AC1480
(1754520288.484420) can0 0CF00400#FF7D7FE81200FFFF
(1754520288.498562) can0 19F10D13#358A015B0284005D
(1754520288.504198) can0 0CF00400#FF7D7FE01200FFFF
(1754520288.525334) can0 0CF00400#FF7D7FF01200FFFF
(1754520288.544253) can0 0CF00400#FF7D7F101300FFFF
(1754520288.554346) can0 18FF50E0#0102884780008073
(1754520288.565097) can0 0CF00400#FF7D7F101300FFFF
(1754520288.573158) can0 18F01D21#6381198000AC1480
(1754520288.584694) can0 0CF00400#FF7D7F101300FFFF
(1754520288.598575) can0 19F10D13#368A015B0284005D
(1754520288.604278) can0 0CF00400#FF7D7F281300FFFF
(1754520288.606573) can0 09F112F8#FFBF1B0000FF7FFD
(1754520288.625848) can0 0CF00400#FF7D7F301300FFFF
(1754520288.644210) can0 0CF00400#FF7D7FF01200FFFF
(1754520288.656469) can0 18FF50E0#0102884780008074
(1754520288.664970) can0 0CF00400#FF7D7FC01200FFFF
(1754520288.672554) can0 18F01D21#0B81198000AC1480
(1754520288.684177) can0 0CF00400#FF7D7FC81200FFFF
(1754520288.698569) can0 19F10D13#378B015B0284005D
(1754520288.704166) can0 0CF00400#FF7D7FD01200FFFF
(1754520288.725311) can0 0CF00400#FF7D7FA01200FFFF
(1754520288.744425) can0 09F112F8#FFA61B0000FF7FFD
(1754520288.744975) can0 0CF00400#FF7D7FB81200FFFF
(1754520288.758065) can0 18FF50E0#0102884780008075
(1754520288.764998) can0 0CF00400#FF7D7FB01200FFFF
(1754520288.772986) can0 18F01D21#6381198000AC1480
(1754520288.784208) can0 0CF00400#FF7D7FA81200FFFF
(1754520288.798580) can0 19F10D13#388A015B0284005D
(1754520288.804185) can0 0CF00400#FF7D7FC01200FFFF
(1754520288.819740) can0 09F8021C#38FC540DAF00FFFF
(1754520288.820850) can0 09F8011C#6E7E2718689E53C1
(1754520288.823726) can0 18FEE81C#C709500643643D81
(1754520288.824875) can0 0CF00400#FF7D7FF01200FFFF
(1754520288.844613) can0 0CF00400#FF7D7FF01200FFFF
(1754520288.859669) can0 18FF50E0#0102885F80008076
(1754520288.864967) can0 0CF00400#FF7D7F181300FFFF
(1754520288.873228) can0 18F01D21#6381198000AC1480
(1754520288.878297) can0 09F112F8#FF861B0000FF7FFD
(1754520288.884190) can0 0CF00400#FF7D7F301300FFFF
(1754520288.898559) can0 19F10D13#3989015B0284005E
(1754520288.904184) can0 0CF00400#FF7D7F401300FFFF
(1754520288.925311) can0 0CF00400#FF7D7F401300FFFF
(1754520288.944167) can0 0CF00400#FF7D7F381300FFFF
(1754520288.963740) can0 18FF50E0#0102885F80008077
(1754520288.964975) can0 0CF00400#FF7D7F381300FFFF
(1754520288.972582) can0 18F01D21#6381198000AC1480
(1754520288.984155) can0 0CF00400#FF7D7F481300FFFF
(1754520288.998589) can0 19F10D13#3A8B015B0284005D
(1754520289.004162) can0 0CF00400#FF7D7F481300FFFF
(1754520289.013984) can0 09F112F8#FF661B0000FF7FFD
(1754520289.025288) can0 0CF00400#FF7D7F381300FFFF
(1754520289.044171) can0 0CF00400#FF7D7F381300FFFF
(1754520289.064976) can0 0CF00400#FF7D7F101300FFFF
(1754520289.069837) can0 18FF50E0#0102885F80008078
(1754520289.072953) can0 18F01D21#0B81198000AC1480
(1754520289.084174) can0 0CF00400#FF7D7F081300FFFF
(1754520289.098591) can0 19F10D13#3B8A015B0284005D
(1754520289.104213) can0 0CF00400#FF7D7F001300FFFF
(1754520289.125309) can0 0CF00400#FF7D7F081300FFFF
(1754520289.144155) can0 0CF00400#FF7D7F181300FFFF
(1754520289.154088) can0 09F112F8#FF431B0000FF7FFD
(1754520289.164140) can0 0CF00400#FF7D7F281300FFFF
(1754520289.171169) can0 18FF50E0#0102885F80008079
(1754520289.173291) can0 18F01D21#6381198000AC1480
(1754520289.184421) can0 0CF00400#FF7D7F401300FFFF
(1754520289.198569) can0 19F10D13#3C8A015B0284005D
(1754520289.204221) can0 0CF00400#FF7D7F481300FFFF
(1754520289.225000) can0 0CF00400#FF7D7F481300FFFF
(1754520289.244162) can0 0CF00400#FF7D7F381300FFFF
(1754520289.264981) can0 0CF00400#FF7D7FE81200FFFF
(1754520289.272634) can0 18F01D21#6381198000AC1480
(1754520289.272822) can0 18FF50E0#0102885F8000807A
(1754520289.284172) can0 0CF00400#FF7D7FA81200FFFF
(1754520289.289738) can0 09F112F8#FF171B0000FF7FFD
(1754520289.298577) can0 19F10D13#3D8A015B0284005D
(1754520289.304147) can0 0CF00400#FF7D7FA81200FFFF
(1754520289.325105) can0 0CF00400#FF7D7FC01200FFFF
(1754520289.327308) can0 09F8021C#39FCB70CA800FFFF
(1754520289.328396) can0 09F8011C#A07E2718849E53C1
(1754520289.334653) can0 18FEE81C#5409100643643C81
(1754520289.344662) can0 0CF00400#FF7D7FD81200FFFF
(1754520289.364878) can0 0CF00400#FF7D7FE81200FFFF
(1754520289.373346) can0 18F01D21#6381198000AC1480
(1754520289.377225) can0 18FF50E0#010288B98000807B
(1754520289.384160) can0 0CF00400#FF7D7FF81200FFFF
(1754520289.398562) can0 19F10D13#3E89015B0284005E
(1754520289.404139) can0 0CF00400#FF7D7F301300FFFF
(1754520289.425259) can0 09F112F8#FFEB1A0000FF7FFD
(1754520289.425827) can0 0CF00400#FF7D7F181300FFFF
(1754520289.444132) can0 0CF00400#FF7D7FE01200FFFF
(1754520289.464901) can0 0CF00400#FF7D7FD81200FFFF
(1754520289.473487) can0 18F01D21#6381198000AC1480
(1754520289.479829) can0 18FF50E0#010288B98000807C
(1754520289.484527) can0 0CF00400#FF7D7FA01200FFFF
(1754520289.498567) can0 19F10D13#3F8A015B0284005D
(1754520289.504137) can0 0CF00400#FF7D7FB01200FFFF
(1754520289.525839) can0 0CF00400#FF7D7FA81200FFFF
(1754520289.544114) can0 0CF00400#FF7D7FA01200FFFF
(1754520289.565516) can0 0CF00400#FF7D7FC01200FFFF
(1754520289.566708) can0 09F112F8#FFC01A0000FF7FFD
(1754520289.572840) can0 18F01D21#6381198000AC1480
(1754520289.584118) can0 0CF00400#FF7D7FE01200FFFF
(1754520289.594269) can0 18FF50E0#010288B98000807D
(1754520289.598564) can0 19F10D13#408A015B0284005D
(1754520289.604149) can0 0CF00400#FF7D7FE01200FFFF
(1754520289.625232) can0 0CF00400#FF7D7FD81200FFFF
(1754520289.644111) can0 0CF00400#FF7D7FD81200FFFF
(1754520289.664975) can0 0CF00400#FF7D7FD81200FFFF
(1754520289.673054) can0 18F01D21#6381198000AC1480
(1754520289.684112) can0 0CF00400#FF7D7FC81200FFFF
(1754520289.695527) can0 18FF50E0#010288B98000807E
(1754520289.698559) can0 19F10D13#418A015B0284005D
(1754520289.704412) can0 0CF00400#FF7D7FC01200FFFF
(1754520289.704994) can0 09F112F8#FF8D1A0000FF7FFD
(1754520289.725240) can0 0CF00400#FF7D7FA81200FFFF
(1754520289.744091) can0 0CF00400#FF7D7FA01200FFFF
(1754520289.764966) can0 0CF00400#FF7D7FD01200FFFF
(1754520289.773504) can0 18F01D21#0B81198000AC1480
(1754520289.784110) can0 0CF00400#FF7D7FE81200FFFF
(1754520289.796579) can0 18FF50E0#010288B98000807F
(1754520289.798560) can0 19F10D13#428A015B0284005D
(1754520289.804133) can0 0CF00400#FF7D7FF01200FFFF
(1754520289.825251) can0 0CF00400#FF7D7FE81200FFFF
(1754520289.839015) can0 09F8021C#3AFCB60CA900FFFF
(1754520289.840091) can0 09F8011C#C67E2718929E53C1
(1754520289.842916) can0 18FEE81C#5309180643643C81
(1754520289.843815) can0 09F112F8#FF611A0000FF7FFD
(1754520289.844364) can0 0CF00400#FF7D7FC81200FFFF
(1754520289.864135) can0 0CF00400#FF7D7F901200FFFF
(1754520289.872867) can0 18F01D21#0B81198000AC1480
(1754520289.884442) can0 0CF00400#FF7D7F801200FFFF
(1754520289.898120) can0 18FF50E0#010288BA80008080
(1754520289.899657) can0 19F10D13#4389015B0284005E
(1754520289.904109) can0 0CF00400#FF7D7F881200FFFF
(1754520289.925243) can0 0CF00400#FF7D7F881200FFFF
(1754520289.944120) can0 0CF00400#FF7D7F881200FFFF
(1754520289.964984) can0 0CF00400#FF7D7FA01200FFFF
(1754520289.973160) can0 18F01D21#6381198000AC1480
(1754520289.983842) can0 09F112F8#FF2C1A0000FF7FFD
(1754520289.984380) can0 0CF00400#FF7D7FD01200FFFF
(1754520289.998567) can0 19F10D13#448A015B0284005D
(1754520290.002238) can0 18FF50E0#010288BA80008081
(1754520290.004112) can0 0CF00400#FF7D7FE81200FFFF
(1754520290.025288) can0 0CF00400#FF7D7FE81200FFFF
(1754520290.044099) can0 0CF00400#FF7D7FC81200FFFF
(1754520290.064982) can0 0CF00400#FF7D7F801200FFFF
(1754520290.073563) can0 18F01D21#6381198000AC1480
(1754520290.084132) can0 0CF00400#FF7D7F481200FFFF
(1754520290.098558) can0 19F10D13#4589015B0284005E
(1754520290.104119) can0 0CF00400#FF7D7F501200FFFF
(1754520290.106541) can0 18FF50E0#010288BA80008082
(1754520290.117715) can0 09F112F8#FF001A0000FF7FFD
(1754520290.125285) can0 0CF00400#FF7D7F581200FFFF
(1754520290.144114) can0 0CF00400#FF7D80601200FFFF
(1754520290.165010) can0 0CF00400#FF7D80781200FFFF
(1754520290.172940) can0 18F01D21#6381198000AC1480
(1754520290.184435) can0 0CF00400#FF7D80B01200FFFF
(1754520290.198567) can0 19F10D13#468A015B0284005D
(1754520290.204131) can0 0CF00400#FF7D7FC81200FFFF
(1754520290.210280) can0 18FF50E0#110288BA80008083
(1754520290.225274) can0 0CF00400#FF7D80D81200FFFF
(1754520290.244094) can0 0CF00400#FF7D7FD01200FFFF
(1754520290.259336) can0 09F112F8#FFD6190000FF7FFD
(1754520290.265011) can0 0CF00400#FF7D7F981200FFFF
(1754520290.273275) can0 18F01D21#6381198000AC1480
(1754520290.284111) can0 0CF00400#FF7D7F881200FFFF
(1754520290.298569) can0 19F10D13#478B015B0284005D
(1754520290.304091) can0 0CF00400#FF7D7F981200FFFF
(1754520290.311642) can0 18FF50E0#110288BA80008084
(1754520290.325252) can0 0CF00400#FF7D7FA81200FFFF
(1754520290.344087) can0 0CF00400#FF7D7FB81200FFFF
(1754520290.344643) can0 09F8021C#3BFCC40DAC00FFFF
(1754520290.345835) can0 09F8011C#F47E2718AC9E53C1
(1754520290.349730) can0 18FEE81C#190A380610643B81
(1754520290.364837) can0 0CF00400#FF7D7FB81200FFFF
(1754520290.373621) can0 18F01D21#6381198000AC1480
(1754520290.384992) can0 0CF00400#FF7D7FD81200FFFF
(1754520290.398635) can0 19F10D13#488A015B0284005D
(1754520290.401740) can0 09F112F8#FFB3190000FF7FFD
(1754520290.405048) can0 0CF00400#FF7D7FC81200FFFF
(1754520290.413472) can0 18FF50E0#1102881F80008085
(1754520290.425839) can0 0CF00400#FF7D7FA81200FFFF
(1754520290.444073) can0 0CF00400#FF7D7FA01200FFFF
(1754520290.464087) can0 0CF00400#FF7D7FA81200FFFF
(1754520290.473002) can0 18F01D21#6381198000AC1480
(1754520290.484432) can0 0CF00400#FF7D7FA01200FFFF
(1754520290.498543) can0 19F10D13#498A015B0284005D
(1754520290.504098) can0 0CF00400#FF7D7F881200FFFF
(1754520290.514842) can0 18FF50E0#1102881F80008086
(1754520290.525270) can0 0CF00400#FF7D7F701200FFFF
(1754520290.537693) can0 09F112F8#FF97190000FF7FFD
(1754520290.544095) can0 0CF00400#FF7D7F901200FFFF
(1754520290.564102) can0 0CF00400#FF7D7FC01200FFFF
(1754520290.573318) can0 18F01D21#6381198000AC1480
(1754520290.584134) can0 0CF00400#FF7D7FC81200FFFF
(1754520290.598547) can0 19F10D13#4A8A015B0284005D
(1754520290.604436) can0 0CF00400#FF7D7FC81200FFFF
(1754520290.616148) can0 18FF50E0#1102881F80008087
(1754520290.625227) can0 0CF00400#FF7D7FC01200FFFF
(1754520290.644100) can0 0CF00400#FF7D7F981200FFFF
(1754520290.664076) can0 0CF00400#FF7D7FA01200FFFF
(1754520290.673751) can0 18F01D21#6381198000AC1480
(1754520290.677658) can0 09F112F8#FF75190000FF7FFD
(1754520290.684444) can0 0CF00400#FF7D7F981200FFFF
(1754520290.698556) can0 19F10D13#4B8A015B0284005D
(1754520290.704435) can0 0CF00400#FF7D7FA01200FFFF
(1754520290.718055) can0 18FF50E0#1102881F80008088
(1754520290.725179) can0 0CF00400#FF7D7F901200FFFF
(1754520290.744046) can0 0CF00400#FF7D7F501200FFFF
(1754520290.764110) can0 0CF00400#FF7D7F701200FFFF
(1754520290.773070) can0 18F01D21#6381198000AC1480
(1754520290.784471) can0 0CF00400#FF7D7F901200FFFF
(1754520290.798968) can0 19F10D13#4C8B015B0284005D
(1754520290.804119) can0 0CF00400#FF7D7FB81200FFFF
(1754520290.815201) can0 09F112F8#FF51190000FF7FFD
(1754520290.819694) can0 18FF50E0#1102881F80008089
(1754520290.825199) can0 0CF00400#FF7D7FE01200FFFF
(1754520290.844586) can0 0CF00400#FF7D7FC81200FFFF
(1754520290.856077) can0 09F8021C#3CFC340BAA00FFFF
(1754520290.857187) can0 09F8011C#327F2718CA9E53C1
(1754520290.861146) can0 18FEE81C#3808200600643C81
(1754520290.864092) can0 0CF00400#FF7D7FF01200FFFF
(1754520290.873855) can0 18F01D21#6381198000AC1480
(1754520290.884555) can0 0CF00400#FF7D7F001300FFFF
(1754520290.898554) can0 19F10D13#4D8A015B0284005D
(1754520290.904051) can0 0CF00400#FF7D7FF81200FFFF
(1754520290.924145) can0 18FF50E0#110288978100808A
(1754520290.925191) can0 0CF00400#FF7D7FF81200FFFF
(1754520290.944078) can0 0CF00400#FF7D7F081300FFFF
(1754520290.954730) can0 09F112F8#FF2F190000FF7FFD
(1754520290.964072) can0 0CF00400#FF7D7F001300FFFF
(1754520290.973847) can0 18F01D21#6381198000AC1480
(1754520290.984473) can0 0CF00400#FF7D7FF81200FFFF
(1754520290.998580) can0 19F10D13#4E8A015B0284005D
(1754520291.004070) can0 0CF00400#FF7D7F101300FFFF
(1754520291.025194) can0 0CF00400#FF7D7F281300FFFF
(1754520291.026932) can0 18FF50E0#119E87338100808B
(1754520291.044073) can0 0CF00400#FF7D7F301300FFFF
(1754520291.064073) can0 0CF00400#FF7D7F181300FFFF
(1754520291.073142) can0 18F01D21#0B81198000AC1480
(1754520291.084439) can0 0CF00400#FF7D7F281300FFFF
(1754520291.096385) can0 09F112F8#FF04190000FF7FFD
(1754520291.098580) can0 19F10D13#4F8B015B0284005D
(1754520291.104056) can0 0CF00400#FF7D7F181300FFFF
(1754520291.125170) can0 0CF00400#FF7D7F281300FFFF
(1754520291.129719) can0 18FF50E0#119E87338100808C
(1754520291.144081) can0 0CF00400#FF7D7F401300FFFF
(1754520291.165000) can0 0CF00400#FF7D7F481300FFFF
(1754520291.173763) can0 18F01D21#0B81198000AC1480
(1754520291.184443) can0 0CF00400#FF7D7F681300FFFF
(1754520291.198538) can0 19F10D13#508A015B0284005D
(1754520291.204075) can0 0CF00400#FF7D7F801300FFFF
(1754520291.225237) can0 0CF00400#FF7D7F781300FFFF
(1754520291.231144) can0 18FF50E0#119E87338100808D
(1754520291.234846) can0 09F112F8#FFD4180000FF7FFD
(1754520291.244048) can0 0CF00400#FF7D7F681300FFFF
(1754520291.264648) can0 0CF00400#FF7D7F781300FFFF
(1754520291.274752) can0 18F01D21#6381198000AC1480
(1754520291.284316) can0 0CF00400#FF7D7F881300FFFF
(1754520291.298554) can0 19F10D13#518B015B0284005D
(1754520291.304996) can0 0CF00400#FF7D7F781300FFFF
(1754520291.325778) can0 0CF00400#FF7D7F601300FFFF
(1754520291.332368) can0 18FF50E0#119E87338100808E
(1754520291.345118) can0 0CF00400#FF7D7F481300FFFF
(1754520291.363678) can0 09F8021C#3DFC490BAA00FFFF
(1754520291.365894) can0 09F8011C#627F2718E69E53C1
(1754520291.366438) can0 0CF00400#FF7D7F501300FFFF
(1754520291.368725) can0 18FEE81C#4708200600643C81
(1754520291.373170) can0 18F01D21#6381198000AC1480
(1754520291.375741) can0 09F112F8#FFA1180000FF7FFD
(1754520291.384467) can0 0CF00400#FF7D7F781300FFFF
(1754520291.398636) can0 19F10D13#528A015B0284005D
(1754520291.404045) can0 0CF00400#FF7D7F901300FFFF
(1754520291.425199) can0 0CF00400#FF7D7F601300FFFF
(1754520291.433954) can0 18FF50E0#119E87278100808F
(1754520291.444040) can0 0CF00400#FF7D7F401300FFFF
(1754520291.464040) can0 0CF00400#FF7D7F281300FFFF
(1754520291.473846) can0 18F01D21#6381198000AC1480
(1754520291.484468) can0 0CF00400#FF7D7F101300FFFF
(1754520291.498556) can0 19F10D13#538A015B0284005D
(1754520291.504059) can0 0CF00400#FF7D7F001300FFFF
(1754520291.518355) can0 09F112F8#FF61180000FF7FFD
(1754520291.525171) can0 0CF00400#FF7D7F001300FFFF
(1754520291.536851) can0 18FF50E0#119E872781008090
(1754520291.544350) can0 0CF00400#FF7D7F001300FFFF
(1754520291.564033) can0 0CF00400#FF7D7F001300FFFF
(1754520291.572883) can0 18F01D21#6381198000AC1480
(1754520291.584429) can0 0CF00400#FF7D7F101300FFFF
(1754520291.598558) can0 19F10D13#548A015B0284005D
(1754520291.604053) can0 0CF00400#FF7D7F201300FFFF
(1754520291.625137) can0 0CF00400#FF7D7F201300FFFF
(1754520291.638131) can0 18FF50E0#119E872781008091
(1754520291.645490) can0 0CF00400#FF7D7F081300FFFF
(1754520291.655229) can0 09F112F8#FF1C180000FF7FFD
(1754520291.664055) can0 0CF00400#FF7D7FF01200FFFF
(1754520291.673349) can0 18F01D21#6381198000AC1480
(1754520291.684473) can0 0CF00400#FF7D7FF01200FFFF
(1754520291.698848) can0 19F10D13#558A015B0284005D
(1754520291.704042) can0 0CF00400#FF7D7FD81200FFFF
(1754520291.725146) can0 0CF00400#FF7D7FD81200FFFF
(1754520291.739929) can0 18FF50E0#119E872781008092
(1754520291.744316) can0 0CF00400#FF7D7FC81200FFFF
(1754520291.764063) can0 0CF00400#FF7D7FC81200FFFF
(1754520291.773584) can0 18F01D21#6381198000AC1480
(1754520291.784460) can0 0CF00400#FF7D7FE01200FFFF
(1754520291.793900) can0 09F112F8#FFE4170000FF7FFD
(1754520291.798562) can0 19F10D13#568A015B0284005D
(1754520291.804043) can0 0CF00400#FF7D7FE81200FFFF
(1754520291.825175) can0 0CF00400#FF7D7FB81200FFFF
(1754520291.841906) can0 18FF50E0#119E872781008093
(1754520291.844325) can0 0CF00400#FF7D7FA81200FFFF
(1754520291.864052) can0 0CF00400#FF7D7FA81200FFFF
(1754520291.871227) can0 09F8021C#3EFC500AB000FFFF
(1754520291.872229) can0 09F8011C#B67F27180E9F53C1
(1754520291.872998) can0 18F01D21#6381198000AC1480
(1754520291.875848) can0 18FEE81C#9107580600643C81
(1754520291.884554) can0 0CF00400#FF7D7FB01200FFFF
(1754520291.899097) can0 19F10D13#578A015B0284005D
(1754520291.904187) can0 0CF00400#FF7D7FB81200FFFF
(1754520291.925141) can0 0CF00400#FF7D7FA01200FFFF
(1754520291.939594) can0 09F112F8#FFA4170000FF7FFD
(1754520291.943538) can0 18FF50E0#119E87B681008094
(1754520291.944302) can0 0CF00400#FF7D7FA01200FFFF
(1754520291.964047) can0 0CF00400#FF7D7FB81200FFFF
(1754520291.973410) can0 18F01D21#6381198000AC1480
(1754520291.984022) can0 0CF00400#FF7D7FC01200FFFF
(1754520291.998579) can0 19F10D13#588A015B0284005D
(1754520292.004467) can0 0CF00400#FF7D7FB01200FFFF
(1754520292.025119) can0 0CF00400#FF7D7F901200FFFF
(1754520292.044051) can0 0CF00400#FF7D7F981200FFFF
(1754520292.045840) can0 18FF50E0#119E87B681008095
(1754520292.064048) can0 0CF00400#FF7D7FA01200FFFF
(1754520292.073653) can0 18F01D21#6381198000AC1480
(1754520292.081392) can0 09F112F8#FF6B170000FF7FFD
(1754520292.084473) can0 0CF00400#FF7D7FB81200FFFF
(1754520292.098545) can0 19F10D13#598B015B0284005D
(1754520292.104017) can0 0CF00400#FF7D7FD01200FFFF
(1754520292.125029) can0 0CF00400#FF7D7FD01200FFFF
(1754520292.144010) can0 0CF00400#FF7D7FD01200FFFF
(1754520292.151898) can0 18FF50E0#119E87B681008096
(1754520292.164006) can0 0CF00400#FF7D7FE81200FFFF
(1754520292.173055) can0 18F01D21#6381198000AC1480
(1754520292.184227) can0 0CF00400#FF7D7FF01200FFFF
(1754520292.198553) can0 19F10D13#5A8A015B0284005D
(1754520292.204426) can0 0CF00400#FF7D7FF01200FFFF
(1754520292.223880) can0 09F112F8#FF2B170000FF7FFD
(1754520292.225576) can0 0CF00400#FF7D7F001300FFFF
(1754520292.244008) can0 0CF00400#FF7D7FD81200FFFF
(1754520292.254856) can0 18FF50E0#119E87B681008097
(1754520292.264093) can0 0CF00400#FF7D7FC81200FFFF
(1754520292.273417) can0 18F01D21#6381198000AC1480
(1754520292.284475) can0 0CF00400#FF7D7FE81200FFFF
(1754520292.298584) can0 19F10D13#5B89015B0284005E
(1754520292.304030) can0 0CF00400#FF7D7F081300FFFF
(1754520292.325130) can0 0CF00400#FF7D7F181300FFFF
(1754520292.344046) can0 0CF00400#FF7D7F401300FFFF
(1754520292.356317) can0 18FF50E0#119E87B681008098
(1754520292.363416) can0 09F112F8#FFEF160000FF7FFD
(1754520292.365108) can0 0CF00400#FF7D7F581300FFFF
(1754520292.373859) can0 18F01D21#6381198000AC1480
(1754520292.377223) can0 09F8021C#3FFC4E0AAC00FFFF
(1754520292.378858) can0 09F8011C#EE7F2718249F53C1
(1754520292.382180) can0 18FEE81C#8F073806E5633D81
(1754520292.384481) can0 0CF00400#FF7D7F681300FFFF
(1754520292.398581) can0 19F10D13#5C8A015B0284005D
(1754520292.404027) can0 0CF00400#FF7D7F601300FFFF
(1754520292.425107) can0 0CF00400#FF7D7F581300FFFF
(1754520292.444050) can0 0CF00400#FF7D7F401300FFFF
(1754520292.460235) can0 18FF50E0#119E87B781008099
(1754520292.463987) can0 0CF00400#FF7D7F081300FFFF
(1754520292.473072) can0 18F01D21#6381198000AC1480
(1754520292.484481) can0 0CF00400#FF7D7F081300FFFF
(1754520292.498547) can0 19F10D13#5D8A015B0284005D
(1754520292.503997) can0 09F112F8#FFA6160000FF7FFD
(1754520292.504563) can0 0CF00400#FF7D7F001300FFFF
(1754520292.525105) can0 0CF00400#FF7D7F001300FFFF
(1754520292.544008) can0 0CF00400#FF7D7F201300FFFF
(1754520292.564061) can0 0CF00400#FF7D7F481300FFFF
(1754520292.564683) can0 18FF50E0#119E87B78100809A
(1754520292.573388) can0 18F01D21#6381198000AC1480
(1754520292.584452) can0 0CF00400#FF7D7F581300FFFF
(1754520292.598728) can0 19F10D13#5E8B015B0284005D
(1754520292.604478) can0 0CF00400#FF7D7F481300FFFF
(1754520292.625129) can0 0CF00400#FF7D7F381300FFFF
(1754520292.639755) can0 09F112F8#FF75160000FF7FFD
(1754520292.644041) can0 0CF00400#FF7D7F381300FFFF
(1754520292.664011) can0 0CF00400#FF7D7F201300FFFF
(1754520292.666206) can0 18FF50E0#119E87B78100809B
(1754520292.673863) can0 18F01D21#6381198000AC1480
(1754520292.684003) can0 0CF00400#FF7D7F281300FFFF
(1754520292.698561) can0 19F10D13#5F8B015B0284005D
(1754520292.704473) can0 0CF00400#FF7D7F281300FFFF
(1754520292.725107) can0 0CF00400#FF7D7F281300FFFF
(1754520292.743967) can0 0CF00400#FF7D7F381300FFFF
(1754520292.764019) can0 0CF00400#FF7D7F581300FFFF
(1754520292.767433) can0 18FF50E0#119E87B78100809C
(1754520292.773190) can0 18F01D21#6381198000AC1480
(1754520292.783314) can0 09F112F8#FF43160000FF7FFD
(1754520292.784014) can0 0CF00400#FF7D7F701300FFFF
(1754520292.798573) can0 19F10D13#608A015B0284005D
(1754520292.804011) can0 0CF00400#FF7D7F581300FFFF
(1754520292.825145) can0 0CF00400#FF7D7F081300FFFF
(1754520292.843990) can0 0CF00400#FF7D7EB81200FFFF
(1754520292.864004) can0 0CF00400#FF7D7F981200FFFF
(1754520292.871906) can0 18FF50E0#119E87B78100809D
(1754520292.873437) can0 18F01D21#6381198000AC1480
(1754520292.882340) can0 09F8021C#40FCDE09AC00FFFF
(1754520292.883312) can0 09F8011C#428027183E9F53C1
(1754520292.884490) can0 0CF00400#FF7D7F681200FFFF
(1754520292.887387) can0 18FEE81C#3D073806E0633C81
(1754520292.899061) can0 19F10D13#618A015B0284005D
(1754520292.904176) can0 0CF00400#FF7D7F581200FFFF
(1754520292.919570) can0 09F112F8#FF08160000FF7FFD
(1754520292.925139) can0 0CF00400#FF7D7F601200FFFF
(1754520292.943991) can0 0CF00400#FF7D7F601200FFFF
(1754520292.964020) can0 0CF00400#FF7D7F501200FFFF
(1754520292.973891) can0 18F01D21#6381198000AC1480
(1754520292.974776) can0 18FF50E0#119E87F78100809E
(1754520292.984511) can0 0CF00400#FF7D7F581200FFFF
(1754520292.998601) can0 19F10D13#628A015B0284005D
(1754520293.003994) can0 0CF00400#FF7D7F481200FFFF
(1754520293.024041) can0 0CF00400#FF7D7F481200FFFF
(1754520293.043972) can0 0CF00400#FF7D7F681200FFFF
(1754520293.053889) can0 09F112F8#FFD6150000FF7FFD
(1754520293.063998) can0 0CF00400#FF7D7F881200FFFF
(1754520293.073376) can0 18F01D21#6381198000AC1480
(1754520293.080324) can0 18FF50E0#119E87F78100809F
(1754520293.084486) can0 0CF00400#FF7D7F681200FFFF
(1754520293.098537) can0 19F10D13#638A015B0284005D
(1754520293.104484) can0 0CF00400#FF7D7F581200FFFF
(1754520293.125087) can0 0CF00400#FF7D7F581200FFFF
(1754520293.143988) can0 0CF00400#FF7D7F501200FFFF
(1754520293.163988) can0 0CF00400#FF7D7F881200FFFF
(1754520293.173685) can0 18F01D21#6381198000231880
(1754520293.184484) can0 0CF00400#FF7D7F901200FFFF
(1754520293.186201) can0 18FF50E0#119E87F7810080A0
(1754520293.197445) can0 09F112F8#FF8F150000FF7FFD
(1754520293.198570) can0 19F10D13#6489015B0284005E
(1754520293.203960) can0 0CF00400#FF7D7F801200FFFF
(1754520293.225089) can0 0CF00400#FF7D7F701200FFFF
(1754520293.243952) can0 0CF00400#FF7D7F301200FFFF
(1754520293.263964) can0 0CF00400#FF7D7F181200FFFF
(1754520293.273918) can0 18F01D21#6381198000231880
(1754520293.284484) can0 0CF00400#FF7D7F181200FFFF
(1754520293.289066) can0 18FF50E0#119E87F7810080A1
(1754520293.298567) can0 19F10D13#658A015B0284005D
(1754520293.303970) can0 0CF00400#FF7D7F381200FFFF
(1754520293.325118) can0 0CF00400#FF7D7F501200FFFF
(1754520293.334191) can0 09F112F8#FF59150000FF7FFD
(1754520293.343943) can0 0CF00400#FF7D7F481200FFFF
(1754520293.363964) can0 0CF00400#FF7D7F401200FFFF
(1754520293.373240) can0 18F01D21#6381198000231880
(1754520293.384484) can0 0CF00400#FF7D7F501200FFFF
(1754520293.385889) can0 09F8021C#41FCF308AB00FFFF
(1754520293.387013) can0 09F8011C#888027185C9F53C1
(1754520293.390675) can0 18FF50E0#119E877D820080A2
(1754520293.392413) can0 18FEE81C#91063006E0633C81
(1754520293.398615) can0 19F10D13#668A015B0284005D
(1754520293.404489) can0 0CF00400#FF7D7F581200FFFF
(1754520293.425114) can0 0CF00400#FF7D7F281200FFFF
(1754520293.444032) can0 0CF00400#FF7D7F301200FFFF
(1754520293.463958) can0 0CF00400#FF7D7F381200FFFF
(1754520293.470416) can0 09F112F8#FF20150000FF7FFD
(1754520293.473746) can0 18F01D21#6381198000231880
(1754520293.484492) can0 0CF00400#FF7D7F401200FFFF
(1754520293.491892) can0 18FF50E0#119E877D820080A3
(1754520293.498555) can0 19F10D13#678A015B0284005D
(1754520293.503951) can0 0CF00400#FF7D7F381200FFFF
(1754520293.525065) can0 0CF00400#FF7D7F481200FFFF
(1754520293.544028) can0 0CF00400#FF7D7F681200FFFF
(1754520293.565021) can0 0CF00400#FF7D7F701200FFFF
(1754520293.575634) can0 18F01D21#6381198000231880
(1754520293.584501) can0 0CF00400#FF7D7F801200FFFF
(1754520293.593327) can0 18FF50E0#113A8719820080A4
(1754520293.598568) can0 19F10D13#688A015B0284005D
(1754520293.603995) can0 0CF00400#FF7D7FA01200FFFF
(1754520293.611303) can0 09F112F8#FFEB140000FF7FFD
(1754520293.624607) can0 0CF00400#FF7D7FA01200FFFF
(1754520293.644863) can0 0CF00400#FF7D7FC01200FFFF
(1754520293.664963) can0 0CF00400#FF7D7FE01200FFFF
(1754520293.673424) can0 18F01D21#6381198000231880
(1754520293.685022) can0 0CF00400#FF7D7FE01200FFFF
(1754520293.695297) can0 18FF50E0#113A8719820080A5
(1754520293.698567) can0 19F10D13#698A015B0284005D
(1754520293.703923) can0 0CF00400#FF7D7FE01200FFFF
(1754520293.725586) can0 0CF00400#FF7D7FC81200FFFF
(1754520293.743954) can0 0CF00400#FF7D7FE81200FFFF
(1754520293.751591) can0 09F112F8#FFB2140000FF7FFD
(1754520293.763936) can0 0CF00400#FF7D7F001300FFFF
(1754520293.773807) can0 18F01D21#6381198000231880
(1754520293.784474) can0 0CF00400#FF7D7F181300FFFF
(1754520293.797568) can0 18FF50E0#113A8719820080A6
(1754520293.799103) can0 19F10D13#6A8A015B0284005D
(1754520293.803949) can0 0CF00400#FF7D7F281300FFFF
(1754520293.825096) can0 0CF00400#FF7D7FF01200FFFF
(1754520293.843907) can0 0CF00400#FF7D7FE81200FFFF
(1754520293.863927) can0 0CF00400#FF7D7FD01200FFFF
(1754520293.875022) can0 18F01D21#6381198000231880
(1754520293.883927) can0 0CF00400#FF7D7FC81200FFFF
(1754520293.892411) can0 09F8021C#42FCBC08AD00FFFF
(1754520293.893399) can0 09F8011C#E6802718789F53C1
(1754520293.898865) can0 18FEE81C#68064006E0633D81
(1754520293.899357) can0 19F10D13#6B8A015B0284005D
(1754520293.904171) can0 0CF00400#FF7D7FE81200FFFF
(1754520293.904530) can0 18FF50E0#113A8719820080A7
(1754520293.904763) can0 09F112F8#FF78140000FF7FFD
(1754520293.924945) can0 0CF00400#FF7D7F081300FFFF
(1754520293.943964) can0 0CF00400#FF7D7F081300FFFF
(1754520293.963968) can0 0CF00400#FF7D7FF01200FFFF
(1754520293.973376) can0 18F01D21#6381198000231880
(1754520293.984491) can0 0CF00400#FF7D7FF81200FFFF
(1754520293.998559) can0 19F10D13#6C8A015B0284005D
(1754520294.003931) can0 0CF00400#FF7D7FF01200FFFF
(1754520294.007750) can0 18FF50E0#113A8739820080A8
(1754520294.025065) can0 0CF00400#FF7D7FB81200FFFF
(1754520294.027427) can0 09F112F8#FF3B140000FF7FFD
(1754520294.044491) can0 0CF00400#FF7D7F901200FFFF
(1754520294.063950) can0 0CF00400#FF7D7F781200FFFF
(1754520294.073729) can0 18F01D21#6381198000231880
(1754520294.083925) can0 0CF00400#FF7D7F781200FFFF
(1754520294.098569) can0 19F10D13#6D8B015B0284005D
(1754520294.103906) can0 0CF00400#FF7D7F781200FFFF
(1754520294.111052) can0 18FF50E0#113A8739820080A9
(1754520294.125022) can0 0CF00400#FF7D7F801200FFFF
(1754520294.143987) can0 0CF00400#FF7D7F681200FFFF
(1754520294.163934) can0 0CF00400#FF7D7F781200FFFF
(1754520294.164461) can0 09F112F8#FF01140000FF7FFD
(1754520294.175069) can0 18F01D21#6381198000231880
(1754520294.184498) can0 0CF00400#FF7D7FA01200FFFF
(1754520294.198558) can0 19F10D13#6E8A015B0284005D
(1754520294.203944) can0 0CF00400#FF7D7FB81200FFFF
(1754520294.212666) can0 18FF50E0#113A8739820080AA
(1754520294.225077) can0 0CF00400#FF7D7F981200FFFF
(1754520294.243929) can0 0CF00400#FF7D7F801200FFFF
(1754520294.263956) can0 0CF00400#FF7D7F801200FFFF
(1754520294.273529) can0 18F01D21#6381198000231880
(1754520294.283908) can0 0CF00400#FF7D7F981200FFFF
(1754520294.298555) can0 19F10D13#6F8A015B0284005D
(1754520294.300426) can0 09F112F8#FFCF130000FF7FFD
(1754520294.303903) can0 0CF00400#FF7D7FB01200FFFF
(1754520294.314126) can0 18FF50E0#113A8739820080AB
(1754520294.325029) can0 0CF00400#FF7D7FC01200FFFF
(1754520294.343906) can0 0CF00400#FF7D7FD01200FFFF
(1754520294.363909) can0 0CF00400#FF7D7FF01200FFFF
(1754520294.373882) can0 18F01D21#6381198000231880
(1754520294.383909) can0 0CF00400#FF7D7F081300FFFF
(1754520294.398972) can0 19F10D13#7089015B0284005E
(1754520294.401245) can0 09F8021C#43FCD306A700FFFF
(1754520294.403025) can0 09F8011C#00812718769F53C1
(1754520294.403925) can0 0CF00400#FF7D7F181300FFFF
(1754520294.407074) can0 18FEE81C#51051006DC633D81
(1754520294.415679) can0 18FF50E0#113A8751830080AC
(1754520294.425050) can0 0CF00400#FF7D7F101300FFFF
(1754520294.439452) can0 09F112F8#FF98130000FF7FFD
(1754520294.443927) can0 0CF00400#FF7D7FD81200FFFF
(1754520294.463922) can0 0CF00400#FF7D7FC01200FFFF
(1754520294.475048) can0 18F01D21#6381198000231880
(1754520294.483926) can0 0CF00400#FF7D7FB81200FFFF
(1754520294.498611) can0 19F10D13#718A015B0284005D
(1754520294.503903) can0 0CF00400#FF7D7FC81200FFFF
(1754520294.517896) can0 18FF50E0#113A8751830080AD
(1754520294.525621) can0 0CF00400#FF7D7FE81200FFFF
(1754520294.544102) can0 0CF00400#FF7D7F081300FFFF
(1754520294.564899) can0 0CF00400#FF7D7F301300FFFF
(1754520294.573534) can0 18F01D21#6381198000231880
(1754520294.577457) can0 09F112F8#FF51130000FF7FFD
(1754520294.583918) can0 0CF00400#FF7D7F401300FFFF
(1754520294.598545) can0 19F10D13#728A015B0284005D
(1754520294.603890) can0 0CF00400#FF7D7F501300FFFF
(1754520294.619983) can0 18FF50E0#113A8751830080AE
(1754520294.625573) can0 0CF00400#FF7D7F601300FFFF
(1754520294.643906) can0 0CF00400#FF7D7F501300FFFF
(1754520294.663896) can0 0CF00400#FF7D7F301300FFFF
(1754520294.674997) can0 18F01D21#6381198000231880
(1754520294.683891) can0 0CF00400#FF7D7F581300FFFF
(1754520294.698548) can0 19F10D13#738A015B0284005D
(1754520294.703929) can0 0CF00400#FF7D7F601300FFFF
(1754520294.714478) can0 09F112F8#FF0C130000FF7FFD
(1754520294.724986) can0 0CF00400#FF7D7F401300FFFF
(1754520294.725782) can0 18FF50E0#113A8751830080AF
(1754520294.743914) can0 0CF00400#FF7D7F701300FFFF
(1754520294.763885) can0 0CF00400#FF7D7FA01300FFFF
(1754520294.773312) can0 18F01D21#6381198000231880
(1754520294.783947) can0 0CF00400#FF7D7FB81300FFFF
(1754520294.798535) can0 19F10D13#748A015B0284005D
(1754520294.803883) can0 0CF00400#FF7D7FA81300FFFF
(1754520294.825022) can0 0CF00400#FF7D7F801300FFFF
(1754520294.827546) can0 18FF50E0#113A8751830080B0
(1754520294.843891) can0 0CF00400#FF7D7F381300FFFF
(1754520294.850463) can0 09F112F8#FFD7120000FF7FFD
(1754520294.863890) can0 0CF00400#FF7D7F001300FFFF
(1754520294.873588) can0 18F01D21#6381198000231880
(1754520294.883907) can0 0CF00400#FF7D7F181300FFFF
(1754520294.898555) can0 19F10D13#758B015B0284005D
(1754520294.903919) can0 0CF00400#FF7D7F201300FFFF
(1754520294.909695) can0 09F8021C#44FC2808A600FFFF
(1754520294.910882) can0 09F8011C#448127187E9F53C1
(1754520294.913629) can0 18FEE81C#FC050006DC633D81
(1754520294.924925) can0 0CF00400#FF7D7F401300FFFF
(1754520294.929924) can0 18FF50E0#113A878E820080B1
(1754520294.943880) can0 0CF00400#FF7D7F701300FFFF
(1754520294.963911) can0 0CF00400#FF7D7F781300FFFF
(1754520294.974987) can0 18F01D21#6381198000231880
(1754520294.983897) can0 0CF00400#FF7D7F701300FFFF
(1754520294.986883) can0 09F112F8#FF95120000FF7FFD
(1754520294.998610) can0 19F10D13#768B015B0284005D
(1754520295.003921) can0 0CF00400#FF7D7F681300FFFF
(1754520295.025028) can0 0CF00400#FF7D7F481300FFFF
(1754520295.031489) can0 18FF50E0#113A878E820080B2
(1754520295.043886) can0 0CF00400#FF7D7F281300FFFF
(1754520295.063885) can0 0CF00400#FF7D7F201300FFFF
(1754520295.073414) can0 18F01D21#6381198000231880
(1754520295.083936) can0 0CF00400#FF7D7F201300FFFF
(1754520295.098556) can0 19F10D13#778A015B0284005D
(1754520295.103883) can0 0CF00400#FF7D7F081300FFFF
(1754520295.125060) can0 0CF00400#FF7D7F281300FFFF
(1754520295.126466) can0 09F112F8#FF4D120000FF7FFD
(1754520295.134767) can0 18FF50E0#113A878E820080B3
(1754520295.143893) can0 0CF00400#FF7D7F281300FFFF
(1754520295.163892) can0 0CF00400#FF7D7F181300FFFF
(1754520295.173741) can0 18F01D21#6381198000231880
(1754520295.183894) can0 0CF00400#FF7D7F201300FFFF
(1754520295.198544) can0 19F10D13#788A015B0284005D
(1754520295.203890) can0 0CF00400#FF7D7FF81200FFFF
(1754520295.224996) can0 0CF00400#FF7D7EA81200FFFF
(1754520295.237101) can0 18FF50E0#113A878E820080B4
(1754520295.243888) can0 0CF00400#FF7D7E801200FFFF
(1754520295.261988) can0 09F112F8#FF15120000FF7FFD
(1754520295.263890) can0 0CF00400#FF7D7F781200FFFF
(1754520295.275006) can0 18F01D21#6381198000231880
(1754520295.283886) can0 0CF00400#FF7D7F401200FFFF
(1754520295.298548) can0 19F10D13#798A015B0284005D
(1754520295.303890) can0 0CF00400#FF7D7F401200FFFF
(1754520295.325040) can0 0CF00400#FF7D7F481200FFFF
(1754520295.340150) can0 18FF50E0#113A878E820080B5
(1754520295.343885) can0 0CF00400#FF7D7F701200FFFF
(1754520295.363881) can0 0CF00400#FF7D7F881200FFFF
(1754520295.373446) can0 18F01D21#6381198000231880
(1754520295.383882) can0 0CF00400#FF7D7F701200FFFF
(1754520295.398568) can0 19F10D13#7A8A015B0284005D
(1754520295.399470) can0 09F112F8#FFD1110000FF7FFD
(1754520295.403884) can0 0CF00400#FF7D7F981200FFFF
(1754520295.416140) can0 09F8021C#45FC8706AB00FFFF
(1754520295.417272) can0 09F8011C#8C812718829F53C1
(1754520295.420597) can0 18FEE81C#CA043006CD633E81
(1754520295.424923) can0 0CF00400#FF7D7F681200FFFF
(1754520295.443052) can0 18FF50E0#113A877D830080B6
(1754520295.443985) can0 0CF00400#FF7D7F281200FFFF
(1754520295.464774) can0 0CF00400#FF7D7F101200FFFF
(1754520295.474881) can0 18F01D21#6381198000231880
(1754520295.483891) can0 0CF00400#FF7D7FF81100FFFF
(1754520295.498542) can0 19F10D13#7B8A015B0284005D
(1754520295.503895) can0 0CF00400#FF7D7F001200FFFF
(1754520295.526124) can0 0CF00400#FF7D7F081200FFFF
(1754520295.534427) can0 09F112F8#FF98110000FF7FFD
(1754520295.543888) can0 0CF00400#FF7D7F101200FFFF
(1754520295.546333) can0 18FF50E0#113A877D830080B7
(1754520295.564748) can0 0CF00400#FF7D7F201200FFFF
(1754520295.575532) can0 18F01D21#6381198000231880
(1754520295.583894) can0 0CF00400#FF7D7F201200FFFF
(1754520295.598545) can0 19F10D13#7C8A015B0284005D
(1754520295.603856) can0 0CF00400#FF7D7F101200FFFF
(1754520295.624983) can0 0CF00400#FF7D7F081200FFFF
(1754520295.643890) can0 0CF00400#FF7D7F281200FFFF
(1754520295.647423) can0 18FF50E0#113A877D830080B8
(1754520295.663898) can0 0CF00400#FF7D7F381200FFFF
(1754520295.669988) can0 09F112F8#FF5A110000FF7FFD
(1754520295.673448) can0 18F01D21#6381198000231880
(1754520295.683897) can0 0CF00400#FF7D7F301200FFFF
(1754520295.698561) can0 19F10D13#7D89015B0284005E
(1754520295.703898) can0 0CF00400#FF7D7F301200FFFF
(1754520295.724985) can0 0CF00400#FF7D7F381200FFFF
(1754520295.743898) can0 0CF00400#FF7D7F381200FFFF
(1754520295.749739) can0 18FF50E0#113A877D830080B9
(1754520295.764724) can0 0CF00400#FF7D7F481200FFFF
(1754520295.774961) can0 18F01D21#6381198000231880
(1754520295.783895) can0 0CF00400#FF7D7F601200FFFF
(1754520295.798556) can0 19F10D13#7E8A015B0284005D
(1754520295.803911) can0 0CF00400#FF7D7F601200FFFF
(1754520295.808466) can0 09F112F8#FF1A110000FF7FFD
(1754520295.824965) can0 0CF00400#FF7D7F481200FFFF
(1754520295.843900) can0 0CF00400#FF7D7F301200FFFF
(1754520295.852196) can0 18FF50E0#113A877D830080BA
(1754520295.864684) can0 0CF00400#FF7D7F401200FFFF
(1754520295.874982) can0 18F01D21#6381198000231880
(1754520295.883900) can0 0CF00400#FF7D7F581200FFFF
(1754520295.898966) can0 19F10D13#7F8A015B0284005D
(1754520295.903803) can0 0CF00400#FF7D80701200FFFF
(1754520295.923750) can0 09F8021C#46FCB304A900FFFF
(1754520295.924895) can0 09F8011C#B8812718869F53C1
(1754520295.925434) can0 0CF00400#FF7D80881200FFFF
(1754520295.930719) can0 18FEE81C#73031806CB633D81
(1754520295.943895) can0 0CF00400#FF7D7F901200FFFF
(1754520295.944385) can0 09F112F8#FFD8100000FF7FFD
(1754520295.959762) can0 18FF50E0#113A8789840080BB
(1754520295.964752) can0 0CF00400#FF7D7F901200FFFF
(1754520295.973520) can0 18F01D21#6381198000231880
(1754520295.983902) can0 0CF00400#FF7D7FA81200FFFF
(1754520295.998559) can0 19F10D13#8088015B0284005E
(1754520296.003893) can0 0CF00400#FF7D7FC81200FFFF
(1754520296.024968) can0 0CF00400#FF7D7FA01200FFFF
(1754520296.043892) can0 0CF00400#FF7D7F901200FFFF
(1754520296.061677) can0 18FF50E0#113A8789840080BC
(1754520296.064687) can0 0CF00400#FF7D7F801200FFFF
(1754520296.074936) can0 18F01D21#6381198000231880
(1754520296.083846) can0 0CF00400#FF7D7F881200FFFF
(1754520296.084383) can0 09F112F8#FF9E100000FF7FFD
(1754520296.098576) can0 19F10D13#818A015B0284005D
(1754520296.103839) can0 0CF00400#FF7D7F901200FFFF
(1754520296.124936) can0 0CF00400#FF7D7F881200FFFF
(1754520296.143895) can0 0CF00400#FF7D7F881200FFFF
(1754520296.163485) can0 18FF50E0#11D68625840080BD
(1754520296.163890) can0 0CF00400#FF7D7FA81200FFFF
(1754520296.174963) can0 18F01D21#8285198000D51A80
(1754520296.183900) can0 0CF00400#FF7D7FB01200FFFF
(1754520296.198563) can0 19F10D13#828C015B0284005C
(1754520296.203901) can0 0CF00400#FF7D7FA81200FFFF
(1754520296.221155) can0 09F112F8#FF66100000FF7FFD
(1754520296.224967) can0 0CF00400#FF7D7F881200FFFF
(1754520296.243898) can0 0CF00400#FF7D7FA81200FFFF
(1754520296.263893) can0 0CF00400#FF7D7FC01200FFFF
(1754520296.273702) can0 18F01D21#7BB2198000D51A80
(1754520296.279907) can0 18FF50E0#11D68625840080BE
(1754520296.283906) can0 0CF00400#FF7D7FE01200FFFF
(1754520296.298561) can0 19F10D13#838A015B0284005D
(1754520296.303896) can0 0CF00400#FF7D7FF81200FFFF
(1754520296.324970) can0 0CF00400#FF7D7FD81200FFFF
(1754520296.343896) can0 0CF00400#FF7D7FB01200FFFF
(1754520296.356490) can0 09F112F8#FF2F100000FF7FFD
(1754520296.365311) can0 0CF00400#FF7D7FC01200FFFF
(1754520296.374775) can0 18F01D21#11D2198000D51A80
(1754520296.384396) can0 0CF00400#FF7D7FE01200FFFF
(1754520296.390802) can0 18FF50E0#11D68625840080BF
(1754520296.398580) can0 19F10D13#848B015B0284005D
(1754520296.403801) can0 0CF00400#FF7D7FE81200FFFF
(1754520296.425459) can0 0CF00400#FF7D7FA81200FFFF
(1754520296.433326) can0 09F8021C#47FCF905A600FFFF
(1754520296.435812) can0 09F8011C#08822718929F53C1
(1754520296.439395) can0 18FEE81C#62040006CB633E81
(1754520296.444322) can0 0CF00400#FF7D7F801200FFFF
(1754520296.465942) can0 0CF00400#FF7D7F801200FFFF
(1754520296.476052) can0 18F01D21#1EF6198000D51A80
(1754520296.483902) can0 0CF00400#FF7D7F981200FFFF
(1754520296.491504) can0 09F112F8#FFF50F0000FF7FFD
(1754520296.492527) can0 18FF50E0#11D6866A830080C0
(1754520296.498534) can0 19F10D13#8589015B0284005E
(1754520296.503799) can0 0CF00400#FF7D7FA81200FFFF
(1754520296.524918) can0 0CF00400#FF7D7FB81200FFFF
(1754520296.543841) can0 0CF00400#FF7D7FB01200FFFF
(1754520296.563785) can0 0CF00400#FF7D7FC01200FFFF
(1754520296.573626) can0 18F01D21#991D1A8000D51A80
(1754520296.583778) can0 0CF00400#FF7D7FC81200FFFF
(1754520296.594576) can0 18FF50E0#11D6866A830080C1
(1754520296.598546) can0 19F10D13#8687015B0284005F
(1754520296.603794) can0 0CF00400#FF7D7FB81200FFFF
(1754520296.624900) can0 0CF00400#FF7D7FB81200FFFF
(1754520296.627681) can0 09F112F8#FFAF0F0000FF7FFD
(1754520296.643805) can0 0CF00400#FF7D7F801200FFFF
(1754520296.663957) can0 0CF00400#FF7D7F481200FFFF
(1754520296.674918) can0 18F01D21#1C461A8000D51A80
(1754520296.683852) can0 0CF00400#FF7D7F381200FFFF
(1754520296.697102) can0 18FF50E0#11D6866A830080C2
(1754520296.698706) can0 19F10D13#8784015B02840061
(1754520296.703809) can0 0CF00400#FF7D7F481200FFFF
(1754520296.724923) can0 0CF00400#FF7D7F601200FFFF
(1754520296.743777) can0 0CF00400#FF7D7F901200FFFF
(1754520296.763935) can0 0CF00400#FF7D7F981200FFFF
(1754520296.767144) can0 09F112F8#FF680F0000FF7FFD
(1754520296.774943) can0 18F01D21#296A1A8000D51A80
(1754520296.783813) can0 0CF00400#FF7D7FB01200FFFF
(1754520296.798895) can0 19F10D13#8885015B02840060
(1754520296.799998) can0 18FF50E0#11D6866A830080C3
(1754520296.803802) can0 0CF00400#FF7D7FE01200FFFF
(1754520296.824921) can0 0CF00400#FF7D7FD81200FFFF
(1754520296.843784) can0 0CF00400#FF7D7FC81200FFFF
(1754520296.863772) can0 0CF00400#FF7D7FC01200FFFF
(1754520296.873742) can0 18F01D21#2E8D1A8000D51A80
(1754520296.883758) can0 0CF00400#FF7D7FB01200FFFF
(1754520296.898582) can0 19F10D13#8983015B02840061
(1754520296.903808) can0 0CF00400#FF7D7FA81200FFFF
(1754520296.904391) can0 09F112F8#FF1F0F0000FF7FFD
(1754520296.904708) can0 18FF50E0#11D6866A830080C4
(1754520296.924946) can0 0CF00400#FF7D7FA81200FFFF
(1754520296.943822) can0 0CF00400#FF7D7FA01200FFFF
(1754520296.944344) can0 09F8021C#48FC5704B100FFFF
(1754520296.945471) can0 09F8011C#468227189E9F53C1
(1754520296.949782) can0 18FEE81C#2F036006AD633E81
(1754520296.952096) can0 18FEE81C#2F036006AD633E81
(1754520296.964560) can0 0CF00400#FF7D7FA81200FFFF
(1754520296.974411) can0 18F01D21#A1B31A8000D51A80
(1754520296.983996) can0 0CF00400#FF7D7FB81200FFFF
(1754520296.998556) can0 19F10D13#8A81015B02840062
(1754520297.003777) can0 0CF00400#FF7D7FD81200FFFF
(1754520297.008132) can0 18FF50E0#11D6865A840080C5
(1754520297.024926) can0 0CF00400#FF7D7F001300FFFF
(1754520297.040510) can0 09F112F8#FFCF0E0000FF7FFD
(1754520297.043787) can0 0CF00400#FF7D7FF01200FFFF
(1754520297.063764) can0 0CF00400#FF7D7FC81200FFFF
(1754520297.074900) can0 18F01D21#37D31A8000D51A80
(1754520297.083756) can0 0CF00400#FF7D7FD01200FFFF
(1754520297.098576) can0 19F10D13#8B81015B02840062
(1754520297.103771) can0 0CF00400#FF7D7F081300FFFF
(1754520297.110236) can0 18FF50E0#11D6865A840080C6
(1754520297.124899) can0 0CF00400#FF7D7F081300FFFF
(1754520297.143817) can0 0CF00400#FF7D7F301300FFFF
(1754520297.163773) can0 0CF00400#FF7D7F501300FFFF
(1754520297.174902) can0 18F01D21#EFD41A8000D51A80
(1754520297.178510) can0 09F112F8#FF8A0E0000FF7FFD
(1754520297.183785) can0 0CF00400#FF7D7F601300FFFF
(1754520297.198573) can0 19F10D13#8C81015B02840062
(1754520297.203759) can0 0CF00400#FF7D7F581300FFFF
(1754520297.214148) can0 18FF50E0#11D6865A840080C7
(1754520297.224905) can0 0CF00400#FF7D7F481300FFFF
(1754520297.243775) can0 0CF00400#FF7D7F001300FFFF
(1754520297.264519) can0 0CF00400#FF7D7FC81200FFFF
(1754520297.274641) can0 18F01D21#EFD41A8000D51A80
(1754520297.284189) can0 0CF00400#FF7D7FB81200FFFF
(1754520297.298556) can0 19F10D13#8D81015B02840062
(1754520297.303764) can0 0CF00400#FF7D7FA01200FFFF
(1754520297.318514) can0 09F112F8#FF470E0000FF7FFD
(1754520297.318979) can0 18FF50E0#11D6865A840080C8
(1754520297.325448) can0 0CF00400#FF7D7F781200FFFF
(1754520297.343820) can0 0CF00400#FF7D7F801200FFFF
(1754520297.363843) can0 0CF00400#FF7D7FA81200FFFF
(1754520297.375455) can0 18F01D21#EFD41A8000D51A80
(1754520297.383773) can0 0CF00400#FF7D7FD81200FFFF
(1754520297.398534) can0 19F10D13#8E80015B02840063
(1754520297.403764) can0 0CF00400#FF7D7FF81200FFFF
(1754520297.420308) can0 18FF50E0#11D6865A840080C9
(1754520297.424902) can0 0CF00400#FF7D7F081300FFFF
(1754520297.443770) can0 0CF00400#FF7D7FF01200FFFF
(1754520297.454327) can0 09F112F8#FF060E0000FF7FFD
(1754520297.457952) can0 09F8021C#49FCEB03A800FFFF
(1754520297.459054) can0 09F8011C#9A822718B29F53C1
(1754520297.463654) can0 18FEE81C#E0021006AC633D81
(1754520297.464716) can0 0CF00400#FF7D7FC01200FFFF
(1754520297.474908) can0 18F01D21#EFD41A8000D51A80
(1754520297.483762) can0 0CF00400#FF7D7FB81200FFFF
(1754520297.498603) can0 19F10D13#8F81015B02840062
(1754520297.503766) can0 0CF00400#FF7D7FC01200FFFF
(1754520297.522828) can0 18FF50E0#11D68697840080CA
(1754520297.524904) can0 0CF00400#FF7D7F981200FFFF
(1754520297.543768) can0 0CF00400#FF7D7FA81200FFFF
(1754520297.563747) can0 0CF00400#FF7D7FB81200FFFF
(1754520297.574927) can0 18F01D21#EFD41A8000D51A80
(1754520297.583791) can0 0CF00400#FF7D7FB81200FFFF
(1754520297.594335) can0 09F112F8#FFCD0D0000FF7FFD
(1754520297.598562) can0 19F10D13#9080015B02840063
(1754520297.603751) can0 0CF00400#FF7D7FC81200FFFF
(1754520297.624903) can0 0CF00400#FF7D7FD81200FFFF
(1754520297.625958) can0 18FF50E0#11D68697840080CB
(1754520297.643766) can0 0CF00400#FF7D7FB81200FFFF
(1754520297.663780) can0 0CF00400#FF7D7FA81200FFFF
(1754520297.674908) can0 18F01D21#EFD41A8000D51A80
(1754520297.683799) can0 0CF00400#FF7D7FC01200FFFF
(1754520297.698720) can0 19F10D13#9180015B02840063
(1754520297.703760) can0 0CF00400#FF7D7FD81200FFFF
(1754520297.724909) can0 0CF00400#FF7D7FA81200FFFF
(1754520297.727293) can0 18FF50E0#11D68697840080CC
(1754520297.733374) can0 09F112F8#FF830D0000FF7FFD
(1754520297.743771) can0 0CF00400#FF7D7F981200FFFF
(1754520297.763796) can0 0CF00400#FF7D7F981200FFFF
(1754520297.774652) can0 18F01D21#EFD41A8000D51A80
(1754520297.783766) can0 0CF00400#FF7D7FA01200FFFF
(1754520297.798588) can0 19F10D13#9280015B02840063
(1754520297.803797) can0 0CF00400#FF7D7F881200FFFF
(1754520297.824911) can0 0CF00400#FF7D7F681200FFFF
(1754520297.829552) can0 18FF50E0#11D68697840080CD
(1754520297.843771) can0 0CF00400#FF7D7F381200FFFF
(1754520297.863767) can0 0CF00400#FF7D7F281200FFFF
(1754520297.870703) can0 09F112F8#FF330D0000FF7FFD
(1754520297.874624) can0 18F01D21#EFD41A8000D51A80
(1754520297.883742) can0 0CF00400#FF7D7F381200FFFF
(1754520297.898587) can0 19F10D13#9380015B02840063
(1754520297.903773) can0 0CF00400#FF7D7F301200FFFF
(1754520297.924911) can0 0CF00400#FF7D7F481200FFFF
(1754520297.938279) can0 18FF50E0#11D68697840080CE
(1754520297.943711) can0 0CF00400#FF7D7F501200FFFF
(1754520297.963748) can0 0CF00400#FF7D7F501200FFFF
(1754520297.972317) can0 09F8021C#4AFC7204AB00FFFF
(1754520297.973460) can0 09F8011C#BC822718B69F53C1
(1754520297.974574) can0 18F01D21#EFD41A8000D51A80
(1754520297.978577) can0 18FEE81C#43032806A3633C81
(1754520297.984234) can0 0CF00400#FF7D7F601200FFFF
(1754520297.998541) can0 19F10D13#9480015B02840063
(1754520298.004176) can0 0CF00400#FF7D7F981200FFFF
(1754520298.008229) can0 09F112F8#FFE00C0000FF7FFD
(1754520298.024892) can0 0CF00400#FF7D7F981200FFFF
(1754520298.040474) can0 18FF50E0#11D6864A840080CF
(1754520298.043739) can0 0CF00400#FF7D7F781200FFFF
(1754520298.063712) can0 0CF00400#FF7D7F581200FFFF
(1754520298.074633) can0 18F01D21#EFD41A8000D51A80
(1754520298.083715) can0 0CF00400#FF7D7F481200FFFF
(1754520298.098540) can0 19F10D13#9580015B02840063
(1754520298.103758) can0 0CF00400#FF7D7F301200FFFF
(1754520298.124912) can0 0CF00400#FF7D7F401200FFFF
(1754520298.142490) can0 18FF50E0#11D6864A840080D0
(1754520298.144231) can0 0CF00400#FF7D7F581200FFFF
(1754520298.147749) can0 09F112F8#FF840C0000FF7FFD
(1754520298.164431) can0 0CF00400#FF7D80681200FFFF
(1754520298.174565) can0 18F01D21#EFD41A8000D51A80
(1754520298.184066) can0 0CF00400#FF7D80881200FFFF
(1754520298.198562) can0 19F10D13#9680015B02840063
(1754520298.203744) can0 0CF00400#FF7D7FC81200FFFF
(1754520298.225446) can0 0CF00400#FF7D7FC01200FFFF
(1754520298.243751) can0 0CF00400#FF7D7FB81200FFFF
(1754520298.244595) can0 18FF50E0#11D6864A840080D1
(1754520298.263719) can0 0CF00400#FF7D7FE01200FFFF
(1754520298.273685) can0 18F01D21#EFD41A8000D51A80
(1754520298.283727) can0 0CF00400#FF7D7FF01200FFFF
(1754520298.287712) can0 09F112F8#FF2D0C0000FF7FFD
(1754520298.298567) can0 19F10D13#9780015B02840063
(1754520298.303699) can0 0CF00400#FF7D7F181300FFFF
(1754520298.324904) can0 0CF00400#FF7D7F401300FFFF
(1754520298.343745) can0 0CF00400#FF7D7F501300FFFF
(1754520298.347992) can0 18FF50E0#11D6864A840080D2
(1754520298.363703) can0 0CF00400#FF7D7F381300FFFF
(1754520298.375434) can0 18F01D21#EFD41A8000D51A80
(1754520298.383723) can0 0CF00400#FF7D7F281300FFFF
(1754520298.398570) can0 19F10D13#9880015B02840063
(1754520298.403720) can0 0CF00400#FF7D7F501300FFFF
(1754520298.424912) can0 0CF00400#FF7D7F581300FFFF
(1754520298.427928) can0 09F112F8#FFDD0B0000FF7FFD
(1754520298.443697) can0 0CF00400#FF7D7F301300FFFF
(1754520298.450866) can0 18FF50E0#11D6864A840080D3
(1754520298.463727) can0 0CF00400#FF7D7F181300FFFF
(1754520298.474916) can0 18F01D21#EFD41A8000D51A80
(1754520298.480156) can0 09F8021C#4BFCBE02A800FFFF
(1754520298.481310) can0 09F8011C#18832718BC9F53C1
(1754520298.483747) can0 0CF00400#FF7D7F181300FFFF
(1754520298.485973) can0 18FEE81C#03021006A2633D81
(1754520298.498608) can0 19F10D13#9981015B02840062
(1754520298.503707) can0 0CF00400#FF7D7F201300FFFF
(1754520298.524802) can0 0CF00400#FF7D7F201300FFFF
(1754520298.543734) can0 0CF00400#FF7D7F181300FFFF
(1754520298.552843) can0 18FF50E0#11D68644850080D4
(1754520298.563770) can0 0CF00400#FF7D7F281300FFFF
(1754520298.569925) can0 09F112F8#FF8F0B0000FF7FFD
(1754520298.574801) can0 18F01D21#EFD41A8000D51A80
(1754520298.583698) can0 0CF00400#FF7D7F481300FFFF
(1754520298.598632) can0 19F10D13#9A80015B02840063
(1754520298.603721) can0 0CF00400#FF7D7F681300FFFF
(1754520298.624833) can0 0CF00400#FF7D7F581300FFFF
(1754520298.643786) can0 0CF00400#FF7D7F481300FFFF
(1754520298.655694) can0 18FF50E0#11D68644850080D5
(1754520298.663741) can0 0CF00400#FF7D7F401300FFFF
(1754520298.674854) can0 18F01D21#EFD41A8000D51A80
(1754520298.683699) can0 0CF00400#FF7D7F301300FFFF
(1754520298.698554) can0 19F10D13#9B80015B02840063
(1754520298.703702) can0 0CF00400#FF7D7F201300FFFF
(1754520298.711587) can0 09F112F8#FF460B0000FF7FFD
(1754520298.724837) can0 0CF00400#FF7D7F101300FFFF
(1754520298.743780) can0 0CF00400#FF7D7F001300FFFF
(1754520298.757968) can0 18FF50E0#117286E0840080D6
(1754520298.763740) can0 0CF00400#FF7D7FE81200FFFF
(1754520298.774924) can0 18F01D21#EFD41A8000D51A80
(1754520298.783740) can0 0CF00400#FF7D7FF81200FFFF
(1754520298.798522) can0 19F10D13#9C80015B02840063
(1754520298.803697) can0 0CF00400#FF7D7F081300FFFF
(1754520298.824836) can0 0CF00400#FF7D7FD81200FFFF
(1754520298.843763) can0 0CF00400#FF7D7FA81200FFFF
(1754520298.851542) can0 09F112F8#FFF70A0000FF7FFD
(1754520298.859376) can0 18FF50E0#117286E0840080D7
(1754520298.863757) can0 0CF00400#FF7D7FA81200FFFF
(1754520298.874824) can0 18F01D21#EFD41A8000D51A80
(1754520298.883752) can0 0CF00400#FF7D7FA81200FFFF
(1754520298.898553) can0 19F10D13#9D80015B02840063
(1754520298.903700) can0 0CF00400#FF7D7FA01200FFFF
(1754520298.924837) can0 0CF00400#FF7D7FA81200FFFF
(1754520298.943747) can0 0CF00400#FF7D7FC81200FFFF
(1754520298.960634) can0 18FF50E0#117286E0840080D8
(1754520298.963723) can0 0CF00400#FF7D7FF01200FFFF
(1754520298.974812) can0 18F01D21#EFD41A8000D51A80
(1754520298.983671) can0 0CF00400#FF7D7FF81200FFFF
(1754520298.985369) can0 09F8021C#4CFC2503AB00FFFF
(1754520298.986535) can0 09F8011C#7C832718C49F53C1
(1754520298.989484) can0 18FEE81C#4F023006A2633E81
(1754520298.999096) can0 19F10D13#9E80015B02840063
(1754520299.004171) can0 09F112F8#FFA80A0000FF7FFD
(1754520299.004744) can0 0CF00400#FF7D7F001300FFFF
(1754520299.024805) can0 0CF00400#FF7D7FF81200FFFF
(1754520299.043661) can0 0CF00400#FF7D7FD81200FFFF
(1754520299.062943) can0 18FF50E0#117286A5840080D9
(1754520299.064287) can0 0CF00400#FF7D7FB01200FFFF
(1754520299.074956) can0 18F01D21#EFD41A8000D51A80
(1754520299.083942) can0 0CF00400#FF7D7FC01200FFFF
(1754520299.098541) can0 19F10D13#9F80015B02840063
(1754520299.104170) can0 0CF00400#FF7D7FD01200FFFF
(1754520299.125358) can0 0CF00400#FF7D7FB81200FFFF
(1754520299.131563) can0 09F112F8#FF5E0A0000FF7FFD
(1754520299.143685) can0 0CF00400#FF7D7FC81200FFFF
(1754520299.163701) can0 0CF00400#FF7D7FE81200FFFF
(1754520299.165620) can0 18FF50E0#117286A5840080DA
(1754520299.175349) can0 18F01D21#EFD41A8000D51A80
(1754520299.183704) can0 0CF00400#FF7D7FF01200FFFF
(1754520299.198558) can0 19F10D13#A080015B02840063
(1754520299.203703) can0 0CF00400#FF7D7FF01200FFFF
(1754520299.224813) can0 0CF00400#FF7D7FD01200FFFF
(1754520299.243711) can0 0CF00400#FF7D7FA01200FFFF
(1754520299.263698) can0 0CF00400#FF7D7F801200FFFF
(1754520299.267520) can0 18FF50E0#117286A5840080DB
(1754520299.271549) can0 09F112F8#FF0D0A0000FF7FFD
(1754520299.274790) can0 18F01D21#EFD41A8000D51A80
(1754520299.283682) can0 0CF00400#FF7D7FA01200FFFF
(1754520299.298559) can0 19F10D13#A17F015B02840063
(1754520299.303659) can0 0CF00400#FF7D7FB01200FFFF
(1754520299.325389) can0 0CF00400#FF7D7FC01200FFFF
(1754520299.343666) can0 0CF00400#FF7D7FF01200FFFF
(1754520299.363718) can0 0CF00400#FF7D7F181300FFFF
(1754520299.370520) can0 18FF50E0#117286A5840080DC
(1754520299.374791) can0 18F01D21#EFD41A8000D51A80
(1754520299.383732) can0 0CF00400#FF7D7F101300FFFF
(1754520299.398555) can0 19F10D13#A27F015B02840063
(1754520299.403675) can0 0CF00400#FF7D7F101300FFFF
(1754520299.414577) can0 09F112F8#FFB7090000FF7FFD
(1754520299.424796) can0 0CF00400#FF7D7F181300FFFF
(1754520299.443661) can0 0CF00400#FF7D7F101300FFFF
(1754520299.463706) can0 0CF00400#FF7D7FF81200FFFF
(1754520299.472935) can0 18FF50E0#117286A5840080DD
(1754520299.474794) can0 18F01D21#EFD41A8000D51A80
(1754520299.483706) can0 0CF00400#FF7D7F101300FFFF
(1754520299.497098) can0 09F8021C#4DFC3C01AB00FFFF
(1754520299.498774) can0 19F10D13#A380015B02840063
(1754520299.499334) can0 09F8011C#FE832718CC9F53C1
(1754520299.503028) can0 18FEE81C#E80030069A633E81
(1754520299.504173) can0 0CF00400#FF7D7F181300FFFF
(1754520299.524441) can0 0CF00400#FF7D7F101300FFFF
(1754520299.543678) can0 0CF00400#FF7D7F301300FFFF
(1754520299.555228) can0 09F112F8#FF67090000FF7FFD
(1754520299.563686) can0 0CF00400#FF7D7F301300FFFF
(1754520299.574767) can0 18F01D21#EFD41A8000D51A80
(1754520299.577925) can0 18FF50E0#117286BD850080DE
(1754520299.583648) can0 0CF00400#FF7D7F301300FFFF
(1754520299.598559) can0 19F10D13#A480015B02840063
(1754520299.603656) can0 0CF00400#FF7D7F401300FFFF
(1754520299.624815) can0 0CF00400#FF7D7F501300FFFF
(1754520299.643668) can0 0CF00400#FF7D7F301300FFFF
(1754520299.663667) can0 0CF00400#FF7D7F281300FFFF
(1754520299.674806) can0 18F01D21#EFD41A8000D51A80
(1754520299.680047) can0 18FF50E0#117286BD850080DF
(1754520299.683683) can0 0CF00400#FF7D7F401300FFFF
(1754520299.694340) can0 09F112F8#FF19090000FF7FFD
(1754520299.698563) can0 19F10D13#A580015B02840063
(1754520299.703691) can0 0CF00400#FF7D7F481300FFFF
(1754520299.724774) can0 0CF00400#FF7D7F501300FFFF
(1754520299.743663) can0 0CF00400#FF7D7F601300FFFF
(1754520299.763637) can0 0CF00400#FF7D7F601300FFFF
(1754520299.774779) can0 18F01D21#EFD41A8000D51A80
(1754520299.781444) can0 18FF50E0#117286BD850080E0
(1754520299.784135) can0 0CF00400#FF7D7F601300FFFF
(1754520299.798563) can0 19F10D13#A680015B02840063
(1754520299.803648) can0 0CF00400#FF7D7F581300FFFF
(1754520299.824779) can0 0CF00400#FF7D7F401300FFFF
(1754520299.834338) can0 09F112F8#FFC4080000FF7FFD
(1754520299.843660) can0 0CF00400#FF7D7F181300FFFF
(1754520299.863666) can0 0CF00400#FF7D7FF81200FFFF
(1754520299.874778) can0 18F01D21#EFD41A8000D51A80
(1754520299.882923) can0 18FF50E0#117286BD850080E1
(1754520299.883660) can0 0CF00400#FF7D7F001300FFFF
(1754520299.898576) can0 19F10D13#A780015B02840063
(1754520299.903656) can0 0CF00400#FF7D7FE01200FFFF
(1754520299.924802) can0 0CF00400#FF7D7EB81200FFFF
(1754520299.943670) can0 0CF00400#FF7D7FC81200FFFF
(1754520299.963637) can0 0CF00400#FF7D7FF81200FFFF
(1754520299.970584) can0 09F112F8#FF86080000FF7FFD
(1754520299.974848) can0 18F01D21#EFD41A8000D51A80
(1754520299.983846) can0 0CF00400#FF7D7F181300FFFF
(1754520299.984571) can0 18FF50E0#117286BD850080E2
(1754520299.998540) can0 19F10D13#A881015B02840062
(1754520300.004058) can0 0CF00400#FF7D7F181300FFFF
(1754520300.006580) can0 09F8021C#4EFC7100A900FFFF
(1754520300.007661) can0 09F8011C#56842718C89F53C1
(1754520300.012132) can0 18FEE81C#530018069A633D81
(1754520300.025321) can0 0CF00400#FF7D7FE81200FFFF
(1754520300.043641) can0 0CF00400#FF7D7FC81200FFFF
(1754520300.063627) can0 0CF00400#FF7D7FC81200FFFF
(1754520300.075334) can0 18F01D21#EFD41A8000D51A80
(1754520300.083978) can0 0CF00400#FF7D7FC01200FFFF
(1754520300.086474) can0 18FF50E0#11728631860080E3
(1754520300.098562) can0 19F10D13#A980015B02840063
(1754520300.103639) can0 0CF00400#FF7D7FA01200FFFF
(1754520300.111743) can0 09F112F8#FF3F080000FF7FFD
(1754520300.124778) can0 0CF00400#FF7D7FB81200FFFF
(1754520300.143652) can0 0CF00400#FF7D7FC81200FFFF
(1754520300.163639) can0 0CF00400#FF7D7FD81200FFFF
(1754520300.174774) can0 18F01D21#EFD41A8000D51A80
(1754520300.184006) can0 0CF00400#FF7D7FE01200FFFF
(1754520300.188084) can0 18FF50E0#11728631860080E4
(1754520300.198562) can0 19F10D13#AA80015B02840063
(1754520300.203614) can0 0CF00400#FF7D7F901200FFFF
(1754520300.224778) can0 0CF00400#FF7D7F701200FFFF
(1754520300.243716) can0 0CF00400#FF7D7F601200FFFF
(1754520300.250791) can0 09F112F8#FFEC070000FF7FFD
(1754520300.263652) can0 0CF00400#FF7D7F381200FFFF
(1754520300.274852) can0 18F01D21#EFD41A8000D51A80
(1754520300.284011) can0 0CF00400#FF7D7F301200FFFF
(1754520300.290449) can0 18FF50E0#11728631860080E5
(1754520300.298545) can0 19F10D13#AB80015B02840063
(1754520300.303672) can0 0CF00400#FF7D7F401200FFFF
(1754520300.324781) can0 0CF00400#FF7D7F581200FFFF
(1754520300.343617) can0 0CF00400#FF7D7F781200FFFF
(1754520300.363613) can0 0CF00400#FF7D7F981200FFFF
(1754520300.374749) can0 18F01D21#03FA1A8000701D80
(1754520300.383616) can0 0CF00400#FF7D7FA81200FFFF
(1754520300.389873) can0 09F112F8#FFAF070000FF7FFD
(1754520300.398547) can0 19F10D13#AC80015B02840063
(1754520300.399918) can0 18FF50E0#11728631860080E6
(1754520300.403641) can0 0CF00400#FF7D7F981200FFFF
(1754520300.424753) can0 0CF00400#FF7D7F901200FFFF
(1754520300.443673) can0 0CF00400#FF7D7F981200FFFF
(1754520300.463628) can0 0CF00400#FF7D7FA81200FFFF
(1754520300.474804) can0 18F01D21#1AFD1A8000701D80
(1754520300.483651) can0 0CF00400#FF7D7FB01200FFFF
(1754520300.498551) can0 19F10D13#AD7F015B02840063
(1754520300.501925) can0 18FF50E0#11728631860080E7
(1754520300.503607) can0 0CF00400#FF7D7FD01200FFFF
(1754520300.517159) can0 09F8021C#4FFC9500AF00FFFF
(1754520300.518277) can0 09F8011C#D8842718CC9F53C1
(1754520300.522210) can0 18FEE81C#6E0050069A633C81
(1754520300.524427) can0 0CF00400#FF7D7FC01200FFFF
(1754520300.527961) can0 09F112F8#FF74070000FF7FFD
(1754520300.544062) can0 0CF00400#FF7D7FB81200FFFF
(1754520300.563681) can0 0CF00400#FF7D7FD01200FFFF
(1754520300.575007) can0 18F01D21#1AFD1A8000701D80
(1754520300.583664) can0 0CF00400#FF7D7FE81200FFFF
(1754520300.598621) can0 19F10D13#AE80015B02840063
(1754520300.603410) can0 18FF50E0#1172861D860080E8
(1754520300.603680) can0 0CF00400#FF7D7FC81200FFFF
(1754520300.624744) can0 0CF00400#FF7D7FB81200FFFF
(1754520300.643705) can0 0CF00400#FF7D7FB81200FFFF
(1754520300.663624) can0 0CF00400#FF7D7F981200FFFF
(1754520300.669175) can0 09F112F8#FF23070000FF7FFD
(1754520300.674741) can0 18F01D21#72FD1A8000701D80
(1754520300.683625) can0 0CF00400#FF7D7F981200FFFF
(1754520300.698552) can0 19F10D13#AF7F015B02840063
(1754520300.703691) can0 0CF00400#FF7D7FA01200FFFF
(1754520300.705595) can0 18FF50E0#1172861D860080E9
(1754520300.724792) can0 0CF00400#FF7D7FA01200FFFF
(1754520300.743660) can0 0CF00400#FF7D7FA81200FFFF
(1754520300.763622) can0 0CF00400#FF7D7FC81200FFFF
(1754520300.775322) can0 18F01D21#72FD1A8000701D80
(1754520300.783647) can0 0CF00400#FF7D7FE81200FFFF
(1754520300.798550) can0 19F10D13#B080015B02840063
(1754520300.803647) can0 0CF00400#FF7D7FD81200FFFF
(1754520300.805443) can0 09F112F8#FFDD060000FF7FFD
(1754520300.808062) can0 18FF50E0#1172861D860080EA
(1754520300.824783) can0 0CF00400#FF7D7FC81200FFFF
(1754520300.843675) can0 0CF00400#FF7D7FD81200FFFF
(1754520300.863598) can0 0CF00400#FF7D7FD81200FFFF
(1754520300.875034) can0 18F01D21#72FD1A8000701D80
(1754520300.883745) can0 0CF00400#FF7D7FB01200FFFF
(1754520300.898604) can0 19F10D13#B17F015B02840063
(1754520300.903942) can0 0CF00400#FF7D7FC81200FFFF
(1754520300.909692) can0 18FF50E0#1172861D860080EB
(1754520300.925257) can0 0CF00400#FF7D7FE81200FFFF
(1754520300.941641) can0 09F112F8#FF86060000FF7FFD
(1754520300.943648) can0 0CF00400#FF7D7FF01200FFFF
(1754520300.963643) can0 0CF00400#FF7D7FF01200FFFF
(1754520300.975268) can0 18F01D21#72FD1A8000701D80
(1754520300.983677) can0 0CF00400#FF7D7F201300FFFF
(1754520300.998545) can0 19F10D13#B27F015B02840063
(1754520301.003633) can0 0CF00400#FF7D7F101300FFFF
(1754520301.011469) can0 18FF50E0#1172861D860080EC
(1754520301.022722) can0 09F8021C#50FC3CF4AD00FFFF
(1754520301.024185) can0 09F8011C#2A852718CE9F53C1
(1754520301.025943) can0 0CF00400#FF7D7FF81200FFFF
(1754520301.029839) can0 18FEE81C#22B340069A633D81
(1754520301.043581) can0 0CF00400#FF7D7F001300FFFF
(1754520301.063654) can0 0CF00400#FF7D7F101300FFFF
(1754520301.074712) can0 18F01D21#7AFE1A8000701D80
(1754520301.083612) can0 0CF00400#FF7D7FF81200FFFF
(1754520301.084146) can0 09F112F8#FF25060000FF7FFD
(1754520301.098560) can0 19F10D13#B37F015B02840063
(1754520301.103601) can0 0CF00400#FF7D7FE81200FFFF
(1754520301.114799) can0 18FF50E0#11728622870080ED
(1754520301.124762) can0 0CF00400#FF7D7FD01200FFFF
(1754520301.143634) can0 0CF00400#FF7D7FD81200FFFF
(1754520301.163636) can0 0CF00400#FF7D7F001300FFFF
(1754520301.174765) can0 18F01D21#50041B8000701D80
(1754520301.183604) can0 0CF00400#FF7D7F101300FFFF
(1754520301.198579) can0 19F10D13#B47F015B02840063
(1754520301.203579) can0 0CF00400#FF7D7F181300FFFF
(1754520301.217461) can0 18FF50E0#11728622870080EE
(1754520301.220975) can0 09F112F8#FFDC050000FF7FFD
(1754520301.224720) can0 0CF00400#FF7D7FF01200FFFF
(1754520301.243589) can0 0CF00400#FF7D7FC81200FFFF
(1754520301.263616) can0 0CF00400#FF7D7FC01200FFFF
(1754520301.274712) can0 18F01D21#D60A1B8000701D80
(1754520301.283614) can0 0CF00400#FF7D7FC81200FFFF
(1754520301.298545) can0 19F10D13#B57F015B02840063
(1754520301.303584) can0 0CF00400#FF7D7FA01200FFFF
(1754520301.320053) can0 18FF50E0#110E86BE860080EF
(1754520301.324715) can0 0CF00400#FF7D7F881200FFFF
(1754520301.343654) can0 0CF00400#FF7D7F801200FFFF
(1754520301.358950) can0 09F112F8#FF98050000FF7FFD
(1754520301.363646) can0 0CF00400#FF7D7F881200FFFF
(1754520301.374844) can0 18F01D21#9C0E1B8000701D80
(1754520301.383591) can0 0CF00400#FF7D7F901200FFFF
(1754520301.398552) can0 19F10D13#B67F015B02840063
(1754520301.403584) can0 0CF00400#FF7D7F881200FFFF
(1754520301.422985) can0 18FF50E0#110E86BE860080F0
(1754520301.424716) can0 0CF00400#FF7D7F881200FFFF
(1754520301.443585) can0 0CF00400#FF7D7F781200FFFF
(1754520301.463584) can0 0CF00400#FF7D7F581200FFFF
(1754520301.474773) can0 18F01D21#9C0E1B8000701D80
(1754520301.483613) can0 0CF00400#FF7D7F501200FFFF
(1754520301.496666) can0 09F112F8#FF4D050000FF7FFD
(1754520301.498553) can0 19F10D13#B77F015B02840063
(1754520301.503595) can0 0CF00400#FF7D7F581200FFFF
(1754520301.524746) can0 0CF00400#FF7D7F801200FFFF
(1754520301.525194) can0 18FF50E0#110E86BE860080F1
(1754520301.528247) can0 09F8021C#51FCE4F4AC00FFFF
(1754520301.529424) can0 09F8011C#98852718D09F53C1
(1754520301.534641) can0 18FEE81C#9DB338069A633E81
(1754520301.544076) can0 0CF00400#FF7D7FA81200FFFF
(1754520301.563592) can0 0CF00400#FF7D7FD01200FFFF
(1754520301.574699) can0 18F01D21#9C0E1B8000701D80
(1754520301.583559) can0 0CF00400#FF7D7FD81200FFFF
(1754520301.598562) can0 19F10D13#B87F015B02840063
(1754520301.603590) can0 0CF00400#FF7D7FC81200FFFF
(1754520301.624702) can0 0CF00400#FF7D7FD01200FFFF
(1754520301.627006) can0 18FF50E0#110E865E860080F2
(1754520301.637608) can0 09F112F8#FF12050000FF7FFD
(1754520301.643607) can0 0CF00400#FF7D7FD01200FFFF
(1754520301.663584) can0 0CF00400#FF7D7FC81200FFFF
(1754520301.674952) can0 18F01D21#B3111B8000701D80
(1754520301.683558) can0 0CF00400#FF7D7FD81200FFFF
(1754520301.698564) can0 19F10D13#B97F015B02840063
(1754520301.703580) can0 0CF00400#FF7D7FB01200FFFF
(1754520301.725276) can0 0CF00400#FF7D7F981200FFFF
(1754520301.728237) can0 18FF50E0#110E865E860080F3
(1754520301.743559) can0 0CF00400#FF7D7FB01200FFFF
(1754520301.763547) can0 0CF00400#FF7D7FE01200FFFF
(1754520301.774756) can0 09F112F8#FFC9040000FF7FFD
(1754520301.775306) can0 18F01D21#63121B8000701D80
(1754520301.783619) can0 0CF00400#FF7D7FE01200FFFF
(1754520301.798543) can0 19F10D13#BA7E015B02840064
(1754520301.803856) can0 0CF00400#FF7D7FD81200FFFF
(1754520301.824636) can0 0CF00400#FF7D7FD81200FFFF
(1754520301.831577) can0 18FF50E0#110E865E860080F4
(1754520301.843612) can0 0CF00400#FF7D7FC81200FFFF
(1754520301.863565) can0 0CF00400#FF7D7FA81200FFFF
(1754520301.875248) can0 18F01D21#63121B8000701D80
(1754520301.883563) can0 0CF00400#FF7D7FC81200FFFF
(1754520301.898570) can0 19F10D13#BB7E015B02840064
(1754520301.903620) can0 0CF00400#FF7D7FD81200FFFF
(1754520301.910786) can0 09F112F8#FF91040000FF7FFD
(1754520301.925269) can0 0CF00400#FF7D7FE01200FFFF
(1754520301.934750) can0 18FF50E0#110E865E860080F5
(1754520301.943611) can0 0CF00400#FF7D7F001300FFFF
(1754520301.963557) can0 0CF00400#FF7D7F201300FFFF
(1754520301.975006) can0 18F01D21#0B121B8000701D80
(1754520301.983545) can0 0CF00400#FF7D7F181300FFFF
(1754520301.998582) can0 19F10D13#BC7F015B02840063
(1754520302.003591) can0 0CF00400#FF7D7F201300FFFF
(1754520302.024752) can0 0CF00400#FF7D7F081300FFFF
(1754520302.034852) can0 09F8021C#52FC65F4AE00FFFF
(1754520302.036871) can0 09F8011C#E0852718D29F53C1
(1754520302.039975) can0 18FF50E0#110E865E860080F6
(1754520302.040439) can0 18FEE81C#C7B240069A633F81
(1754520302.043724) can0 0CF00400#FF7D7FE01200FFFF
(1754520302.051633) can0 09F112F8#FF5A040000FF7FFD
(1754520302.064302) can0 0CF00400#FF7D7FF01200FFFF
(1754520302.074654) can0 18F01D21#63121B8000701D80
(1754520302.083541) can0 0CF00400#FF7D7F201300FFFF
(1754520302.098562) can0 19F10D13#BD7E015B02840064
(1754520302.103572) can0 0CF00400#FF7D7FD01200FFFF
(1754520302.124713) can0 0CF00400#FF7D7FD81200FFFF
(1754520302.141456) can0 18FF50E0#110E86A7860080F7
(1754520302.143535) can0 0CF00400#FF7D7FF81200FFFF
(1754520302.163623) can0 0CF00400#FF7D7F081300FFFF
(1754520302.174756) can0 18F01D21#0B121B8000701D80
(1754520302.183575) can0 0CF00400#FF7D7F201300FFFF
(1754520302.189172) can0 09F112F8#FF25040000FF7FFD
(1754520302.198532) can0 19F10D13#BE7F015B02840063
(1754520302.203583) can0 0CF00400#FF7D7F301300FFFF
(1754520302.224730) can0 0CF00400#FF7D7F281300FFFF
(1754520302.243125) can0 18FF50E0#110E86A7860080F8
(1754520302.243571) can0 0CF00400#FF7D7F081300FFFF
(1754520302.263584) can0 0CF00400#FF7D7FF81200FFFF
(1754520302.275032) can0 18F01D21#0B121B8000701D80
(1754520302.283573) can0 0CF00400#FF7D7F081300FFFF
(1754520302.298577) can0 19F10D13#BF7E015B02840064
(1754520302.303545) can0 0CF00400#FF7D7F201300FFFF
(1754520302.321670) can0 09F112F8#FFF0030000FF7FFD
(1754520302.324726) can0 0CF00400#FF7D7F281300FFFF
(1754520302.343629) can0 0CF00400#FF7D7F301300FFFF
(1754520302.345974) can0 18FF50E0#110E86A7860080F9
(1754520302.363541) can0 0CF00400#FF7D7F381300FFFF
(1754520302.374662) can0 18F01D21#63121B8000701D80
(1754520302.383527) can0 0CF00400#FF7D7F401300FFFF
(1754520302.398565) can0 19F10D13#C07E015B02840064
(1754520302.403538) can0 0CF00400#FF7D7F281300FFFF
(1754520302.424672) can0 0CF00400#FF7D7FE81200FFFF
(1754520302.443623) can0 0CF00400#FF7D7FC81200FFFF
(1754520302.448140) can0 18FF50E0#110E86A7860080FA
(1754520302.454137) can0 09F112F8#FFB3030000FF7FFD
(1754520302.463607) can0 0CF00400#FF7D7FD81200FFFF
(1754520302.474677) can0 18F01D21#BB121B8000701D80
(1754520302.483626) can0 0CF00400#FF7D7FC81200FFFF
(1754520302.498596) can0 19F10D13#C17E015B02840064
(1754520302.503547) can0 0CF00400#FF7D7FA01200FFFF
(1754520302.524668) can0 0CF00400#FF7D7FA01200FFFF
(1754520302.543488) can0 09F8021C#53FC5FF4AB00FFFF
(1754520302.543983) can0 0CF00400#FF7D7FC01200FFFF
(1754520302.544525) can0 09F8011C#50862718D09F53C1
(1754520302.547558) can0 18FEE81C#3CB328069A634081
(1754520302.553030) can0 18FF50E0#110E86AA860080FB
(1754520302.564625) can0 0CF00400#FF7D7FD01200FFFF
(1754520302.575260) can0 18F01D21#A11A1B8000701D80
(1754520302.583544) can0 0CF00400#FF7D7FC81200FFFF
(1754520302.594141) can0 09F112F8#FF66030000FF7FFD
(1754520302.598581) can0 19F10D13#C27E015B02840064
(1754520302.603543) can0 0CF00400#FF7D7FB01200FFFF
(1754520302.624674) can0 0CF00400#FF7D7FB01200FFFF
(1754520302.643534) can0 0CF00400#FF7D7F981200FFFF
(1754520302.655598) can0 18FF50E0#110E86AA860080FC
(1754520302.663511) can0 0CF00400#FF7D7FA81200FFFF
(1754520302.674677) can0 18F01D21#E6231B8000701D80
(1754520302.683509) can0 0CF00400#FF7D7FB01200FFFF
(1754520302.698527) can0 19F10D13#C37E015B02840064
(1754520302.703714) can0 0CF00400#FF7D7FA01200FFFF
(1754520302.724504) can0 0CF00400#FF7D7FA01200FFFF
(1754520302.734037) can0 09F112F8#FF19030000FF7FFD
(1754520302.743563) can0 0CF00400#FF7D7FE01200FFFF
(1754520302.758182) can0 18FF50E0#110E86AA860080FD
(1754520302.763630) can0 0CF00400#FF7D7F081300FFFF
(1754520302.775189) can0 18F01D21#4D261B8000701D80
(1754520302.783552) can0 0CF00400#FF7D7F181300FFFF
(1754520302.798547) can0 19F10D13#C47E015B02840064
(1754520302.803548) can0 0CF00400#FF7D7F101300FFFF
(1754520302.825226) can0 0CF00400#FF7D7F201300FFFF
(1754520302.843565) can0 0CF00400#FF7D7F101300FFFF
(1754520302.860842) can0 18FF50E0#110E86AA860080FE
(1754520302.863571) can0 0CF00400#FF7D7F101300FFFF
(1754520302.864668) can0 09F112F8#FFCB020000FF7FFD
(1754520302.875616) can0 18F01D21#4D261B8000701D80
(1754520302.883524) can0 0CF00400#FF7D7F001300FFFF
(1754520302.898605) can0 19F10D13#C57D015B02840064
(1754520302.903500) can0 0CF00400#FF7D7F201300FFFF
(1754520302.924640) can0 0CF00400#FF7D7F401300FFFF
(1754520302.943567) can0 0CF00400#FF7D7F301300FFFF
(1754520302.963179) can0 18FF50E0#110E86AA860080FF
(1754520302.963626) can0 0CF00400#FF7D7F501300FFFF
(1754520302.974664) can0 18F01D21#5C281B8000701D80
(1754520302.983519) can0 0CF00400#FF7D7F501300FFFF
(1754520302.998867) can0 19F10D13#C67D015B02840064
(1754520303.001650) can0 09F112F8#FF94020000FF7FFD
(1754520303.003520) can0 0CF00400#FF7D7F481300FFFF
(1754520303.024639) can0 0CF00400#FF7D7F581300FFFF
(1754520303.043567) can0 0CF00400#FF7D7F781300FFFF
(1754520303.054116) can0 09F8021C#54FC7BF4A600FFFF
(1754520303.055193) can0 09F8011C#B2862718CE9F53C1
(1754520303.060191) can0 18FEE81C#50B30006B0634181
(1754520303.064285) can0 0CF00400#FF7D7FA01300FFFF
(1754520303.067805) can0 18FF50E0#110E869A86008000
(1754520303.074966) can0 18F01D21#6C2A1B8000701D80
(1754520303.083973) can0 0CF00400#FF7D7F981300FFFF
(1754520303.099020) can0 19F10D13#C77E015B02840064
(1754520303.103508) can0 0CF00400#FF7D7F681300FFFF
(1754520303.124612) can0 0CF00400#FF7D7F181300FFFF
(1754520303.143546) can0 0CF00400#FF7D7FF81200FFFF
(1754520303.144148) can0 09F112F8#FF61020000FF7FFD
(1754520303.163524) can0 0CF00400#FF7D7F201300FFFF
(1754520303.171023) can0 18FF50E0#110E869A86008001
(1754520303.175219) can0 18F01D21#6C2A1B8000701D80
(1754520303.183536) can0 0CF00400#FF7D7F081300FFFF
(1754520303.199987) can0 19F10D13#C87C015B02840065
(1754520303.203522) can0 0CF00400#FF7D7FF01200FFFF
(1754520303.224691) can0 0CF00400#FF7D7F081300FFFF
(1754520303.243499) can0 0CF00400#FF7D7F281300FFFF
(1754520303.263477) can0 0CF00400#FF7D7FF81200FFFF
(1754520303.273417) can0 18FF50E0#110E869A86008002
(1754520303.274643) can0 18F01D21#6C2A1B8000701D80
(1754520303.280678) can0 09F112F8#FF21020000FF7FFD
(1754520303.283564) can0 0CF00400#FF7D7F001300FFFF
(1754520303.298913) can0 19F10D13#C97E015B02840064
(1754520303.303506) can0 0CF00400#FF7D7F181300FFFF
(1754520303.324685) can0 0CF00400#FF7D7F101300FFFF
(1754520303.343507) can0 0CF00400#FF7D7FF01200FFFF
(1754520303.363516) can0 0CF00400#FF7D7F281300FFFF
(1754520303.374971) can0 18F01D21#142A1B8000701D80
(1754520303.375764) can0 18FF50E0#110E869A86008003
(1754520303.383534) can0 0CF00400#FF7D7F081300FFFF
(1754520303.398867) can0 19F10D13#CA7D015B02840064
(1754520303.403516) can0 0CF00400#FF7D7FF01200FFFF
(1754520303.419074) can0 09F112F8#FFE9010000FF7FFD
(1754520303.424699) can0 0CF00400#FF7D7FF81200FFFF
(1754520303.443525) can0 0CF00400#FF7D7F001300FFFF
(1754520303.463485) can0 0CF00400#FF7D7F001300FFFF
(1754520303.475348) can0 18F01D21#142A1B8000701D80
(1754520303.479894) can0 18FF50E0#110E869A86008004
(1754520303.483482) can0 0CF00400#FF7D7F301300FFFF
(1754520303.498562) can0 19F10D13#CB7D015B02840064
(1754520303.503496) can0 0CF00400#FF7D7F401300FFFF
(1754520303.524613) can0 0CF00400#FF7D7F581300FFFF
(1754520303.543547) can0 0CF00400#FF7D7F681300FFFF
(1754520303.561704) can0 09F112F8#FFB6010000FF7FFD
(1754520303.563475) can0 0CF00400#FF7D7F581300FFFF
(1754520303.565122) can0 09F8021C#55FCF3F2AC00FFFF
(1754520303.566655) can0 09F8011C#FA862718CC9F53C1
(1754520303.570719) can0 18FEE81C#31B23806B0634281
(1754520303.575201) can0 18F01D21#142A1B8000701D80
(1754520303.583471) can0 0CF00400#FF7D7F201300FFFF
(1754520303.583988) can0 18FF50E0#110E867B87008005
(1754520303.598626) can0 19F10D13#CC7E015B02840064
(1754520303.603818) can0 0CF00400#FF7D7F001300FFFF
(1754520303.624399) can0 0CF00400#FF7D7FE81200FFFF
(1754520303.643570) can0 0CF00400#FF7D7FE81200FFFF
(1754520303.663523) can0 0CF00400#FF7D7FE81200FFFF
(1754520303.675164) can0 18F01D21#142A1B8000701D80
(1754520303.683490) can0 0CF00400#FF7D7FB81200FFFF
(1754520303.686305) can0 18FF50E0#110E867B87008006
(1754520303.698555) can0 19F10D13#CD7D015B02840064
(1754520303.699100) can0 09F112F8#FF7E010000FF7FFD
(1754520303.703500) can0 0CF00400#FF7D7FC81200FFFF
(1754520303.725190) can0 0CF00400#FF7D7FE01200FFFF
(1754520303.743517) can0 0CF00400#FF7D7FF01200FFFF
(1754520303.763513) can0 0CF00400#FF7D7F081300FFFF
(1754520303.775514) can0 18F01D21#6C2A1B8000701D80
(1754520303.783495) can0 0CF00400#FF7D7F181300FFFF
(1754520303.788573) can0 18FF50E0#110E867B87008007
(1754520303.798566) can0 19F10D13#CE7E015B02840064
(1754520303.803478) can0 0CF00400#FF7D7F101300FFFF
(1754520303.824649) can0 0CF00400#FF7D7F001300FFFF
(1754520303.834158) can0 09F112F8#FF42010000FF7FFD
(1754520303.843556) can0 0CF00400#FF7D7F001300FFFF
(1754520303.863491) can0 0CF00400#FF7D7F001300FFFF
(1754520303.874763) can0 18F01D21#732B1B8000701D80
(1754520303.883470) can0 0CF00400#FF7D7F081300FFFF
(1754520303.890762) can0 18FF50E0#11AA851787008008
(1754520303.898566) can0 19F10D13#CF7E015B02840064
(1754520303.903462) can0 0CF00400#FF7D7F181300FFFF
(1754520303.924652) can0 0CF00400#FF7D7F201300FFFF
(1754520303.943544) can0 0CF00400#FF7D7F101300FFFF
(1754520303.963465) can0 0CF00400#FF7D7F101300FFFF
(1754520303.969681) can0 09F112F8#FF03010000FF7FFD
(1754520303.975002) can0 18F01D21#42301B8000701D80
(1754520303.983485) can0 0CF00400#FF7D7F201300FFFF
(1754520303.992661) can0 18FF50E0#11AA851787008009
(1754520303.998579) can0 19F10D13#D07E015B02840064
(1754520304.003868) can0 0CF00400#FF7D7FD81200FFFF
(1754520304.024651) can0 0CF00400#FF7D7FB01200FFFF
(1754520304.043483) can0 0CF00400#FF7D7FC81200FFFF
(1754520304.063475) can0 0CF00400#FF7D7FE01200FFFF
(1754520304.075459) can0 18F01D21#A9321B8000701D80
(1754520304.077502) can0 09F8021C#56FCE4F2A900FFFF
(1754520304.079753) can0 09F8011C#3C872718C89F53C1
(1754520304.083302) can0 18FEE81C#26B21806C5634381
(1754520304.083920) can0 0CF00400#FF7D7FD01200FFFF
(1754520304.096737) can0 18FF50E0#11AA85208700800A
(1754520304.099179) can0 19F10D13#D17D015B02840064
(1754520304.103468) can0 0CF00400#FF7D7FB01200FFFF
(1754520304.107203) can0 09F112F8#FFC3000000FF7FFD
(1754520304.125189) can0 0CF00400#FF7D7FD01200FFFF
(1754520304.143481) can0 0CF00400#FF7D7FD01200FFFF
(1754520304.163452) can0 0CF00400#FF7D7FC01200FFFF
(1754520304.174775) can0 18F01D21#51321B8000701D80
(1754520304.183473) can0 0CF00400#FF7D7FB01200FFFF
(1754520304.198571) can0 19F10D13#D27E015B02840064
(1754520304.199806) can0 18FF50E0#11AA85208700800B
(1754520304.203848) can0 0CF00400#FF7D7FA01200FFFF
(1754520304.224577) can0 0CF00400#FF7D7F901200FFFF
(1754520304.243497) can0 0CF00400#FF7D7F981200FFFF
(1754520304.246740) can0 09F112F8#FF7D000000FF7FFD
(1754520304.263549) can0 0CF00400#FF7D7F901200FFFF
(1754520304.275279) can0 18F01D21#A9321B8000701D80
(1754520304.283506) can0 0CF00400#FF7D7F801200FFFF
(1754520304.298622) can0 19F10D13#D37D015B02840064
(1754520304.302502) can0 18FF50E0#11AA85208700800C
(1754520304.303856) can0 0CF00400#FF7D7FB01200FFFF
(1754520304.324633) can0 0CF00400#FF7D7FF01200FFFF
(1754520304.343470) can0 0CF00400#FF7D7FF81200FFFF
(1754520304.363501) can0 0CF00400#FF7D7F101300FFFF
(1754520304.374597) can0 18F01D21#01331B8000701D80
(1754520304.383443) can0 0CF00400#FF7D7F201300FFFF
(1754520304.385109) can0 09F112F8#FF2E000000FF7FFD
(1754520304.398574) can0 19F10D13#D47D015B02840064
(1754520304.403858) can0 0CF00400#FF7D7FE01200FFFF
(1754520304.405432) can0 18FF50E0#11AA85208700800D
(1754520304.424580) can0 0CF00400#FF7D7FB81200FFFF
(1754520304.443503) can0 0CF00400#FF7D7FD81200FFFF
(1754520304.463462) can0 0CF00400#FF7D7FE81200FFFF
(1754520304.474771) can0 18F01D21#B1331B8000CC1E80
(1754520304.483466) can0 0CF00400#FF7D7FD01200FFFF
(1754520304.498592) can0 19F10D13#D57E015B02840064
(1754520304.504082) can0 0CF00400#FF7D7FD81200FFFF
(1754520304.511667) can0 18FF50E0#11AA85208700800E
(1754520304.520962) can0 09F112F8#FF4DF50000FF7FFD
(1754520304.524275) can0 0CF00400#FF7D7F101300FFFF
(1754520304.543979) can0 0CF00400#FF7D7F201300FFFF
(1754520304.563459) can0 0CF00400#FF7D7F181300FFFF
(1754520304.575279) can0 18F01D21#B1331B8000CC1E80
(1754520304.583477) can0 0CF00400#FF7D7F101300FFFF
(1754520304.587252) can0 09F8021C#57FC1FF2AC00FFFF
(1754520304.588355) can0 09F8011C#68872718C89F53C1
(1754520304.592365) can0 18FEE81C#95B13806D0634381
(1754520304.598662) can0 19F10D13#D67D015B02840064
(1754520304.603675) can0 0CF00400#FF7D7F001300FFFF
(1754520304.614688) can0 18FF50E0#11AA85908700800F
(1754520304.625137) can0 0CF00400#FF7D7FD81200FFFF
(1754520304.643513) can0 0CF00400#FF7D7FF01200FFFF
(1754520304.663464) can0 0CF00400#FF7D7FF81200FFFF
(1754520304.664012) can0 09F112F8#FF01F50000FF7FFD
(1754520304.674532) can0 18F01D21#59331B8000CC1E80
(1754520304.683426) can0 0CF00400#FF7D7F101300FFFF
(1754520304.698582) can0 19F10D13#D77D015B02840064
(1754520304.703442) can0 0CF00400#FF7D7F301300FFFF
(1754520304.721167) can0 18FF50E0#11AA859087008010
(1754520304.724611) can0 0CF00400#FF7D7F401300FFFF
(1754520304.743497) can0 0CF00400#FF7D7F581300FFFF
(1754520304.763471) can0 0CF00400#FF7D7F581300FFFF
(1754520304.774904) can0 18F01D21#59331B8000CC1E80
(1754520304.783426) can0 0CF00400#FF7D7F601300FFFF
(1754520304.798556) can0 19F10D13#D87E015B02840064
(1754520304.801719) can0 09F112F8#FFC9F40000FF7FFD
(1754520304.803448) can0 0CF00400#FF7D7F501300FFFF
(1754520304.823174) can0 18FF50E0#11AA859087008011
(1754520304.824609) can0 0CF00400#FF7D7F401300FFFF
(1754520304.843472) can0 0CF00400#FF7D7F301300FFFF
(1754520304.863454) can0 0CF00400#FF7D7F181300FFFF
(1754520304.875284) can0 18F01D21#59331B8000CC1E80
(1754520304.883457) can0 0CF00400#FF7D7F001300FFFF
(1754520304.898574) can0 19F10D13#D97E015B02840064
(1754520304.903446) can0 0CF00400#FF7D7F201300FFFF
(1754520304.924605) can0 0CF00400#FF7D7F481300FFFF
(1754520304.926213) can0 18FF50E0#11AA859087008012
(1754520304.939871) can0 09F112F8#FF8DF40000FF7FFD
(1754520304.943471) can0 0CF00400#FF7D7F401300FFFF
(1754520304.963473) can0 0CF00400#FF7D7F201300FFFF
(1754520304.974633) can0 18F01D21#59331B8000CC1E80
(1754520304.983475) can0 0CF00400#FF7D7F101300FFFF
(1754520304.998910) can0 19F10D13#DA7D015B02840064
(1754520305.003433) can0 0CF00400#FF7D7FF01200FFFF
(1754520305.024563) can0 0CF00400#FF7D7FC81200FFFF
(1754520305.030326) can0 18FF50E0#11AA859087008013
(1754520305.043501) can0 0CF00400#FF7D7FB81200FFFF
(1754520305.063448) can0 0CF00400#FF7D7FC81200FFFF
(1754520305.074994) can0 18F01D21#B1331B8000CC1E80
(1754520305.083472) can0 0CF00400#FF7D7FC01200FFFF
(1754520305.083995) can0 09F112F8#FF55F40000FF7FFD
(1754520305.094564) can0 09F8021C#58FC73F1AB00FFFF
(1754520305.095700) can0 09F8011C#BE872718CC9F53C1
(1754520305.098660) can0 18FEE81C#17B12806D0634381
(1754520305.099243) can0 19F10D13#DB7D015B02840064
(1754520305.103443) can0 0CF00400#FF7D7FC81200FFFF
(1754520305.124522) can0 0CF00400#FF7D7FE01200FFFF
(1754520305.135882) can0 18FF50E0#11AA85F387008014
(1754520305.143452) can0 0CF00400#FF7D7FE81200FFFF
(1754520305.163429) can0 0CF00400#FF7D7FB01200FFFF
(1754520305.175369) can0 18F01D21#B1331B8000CC1E80
(1754520305.183465) can0 0CF00400#FF7D7FB01200FFFF
(1754520305.198561) can0 19F10D13#DC7E015B02840064
(1754520305.203399) can0 0CF00400#FF7D7FC81200FFFF
(1754520305.220714) can0 09F112F8#FF11F40000FF7FFD
(1754520305.224543) can0 0CF00400#FF7D7FE01200FFFF
(1754520305.238587) can0 18FF50E0#11AA85F387008015
(1754520305.243450) can0 0CF00400#FF7D7FD81200FFFF
(1754520305.263407) can0 0CF00400#FF7D7FE81200FFFF
(1754520305.274731) can0 18F01D21#09341B8000CC1E80
(1754520305.283405) can0 0CF00400#FF7D7FC81200FFFF
(1754520305.298580) can0 19F10D13#DD7D015B02840064
(1754520305.303424) can0 0CF00400#FF7D7FC81200FFFF
(1754520305.324600) can0 0CF00400#FF7D7FD01200FFFF
(1754520305.340045) can0 18FF50E0#11AA85F387008016
(1754520305.343396) can0 0CF00400#FF7D7FE01200FFFF
(1754520305.360707) can0 09F112F8#FFBCF30000FF7FFD
(1754520305.363407) can0 0CF00400#FF7D7FD01200FFFF
(1754520305.375139) can0 18F01D21#60341B8000CC1E80
(1754520305.383436) can0 0CF00400#FF7D7FB01200FFFF
(1754520305.398557) can0 19F10D13#DE7D015B02840064
(1754520305.403442) can0 0CF00400#FF7D7FA81200FFFF
(1754520305.424187) can0 0CF00400#FF7D7FC01200FFFF
(1754520305.442863) can0 18FF50E0#11AA85F387008017
(1754520305.443822) can0 0CF00400#FF7D7FC81200FFFF
(1754520305.463411) can0 0CF00400#FF7D7FB01200FFFF
(1754520305.475473) can0 18F01D21#60341B8000CC1E80
(1754520305.483414) can0 0CF00400#FF7D7F901200FFFF
(1754520305.498571) can0 19F10D13#DF7D015B02840064
(1754520305.503405) can0 0CF00400#FF7D7F701200FFFF
(1754520305.507728) can0 09F112F8#FF59F30000FF7FFD
(1754520305.525098) can0 0CF00400#FF7D7F701200FFFF
(1754520305.543405) can0 0CF00400#FF7D7F901200FFFF
(1754520305.546812) can0 18FF50E0#11AA85F387008018
