(1785079420.224815) can0 09F11219#B4FEFFFF7FFF7FFC
(1785079420.227804) can0 18F01D21#AC821680FFFFFFFF
(1785079420.300740) can0 18FF50E0#0000800080008001
(1785079420.305266) can0 09F112F8#FF4D760000FF7FFD
(1785079420.324824) can0 09F11219#B5FEFFFF7FFF7FFC
(1785079420.327168) can0 18F01D21#AC821680FFFFFFFF
(1785079420.401675) can0 18FF50E0#0000800080008002
(1785079420.424894) can0 09F11219#B6FEFFFF7FFF7FFC
(1785079420.427547) can0 18F01D21#04831680FFFFFFFF
(1785079420.443379) can0 09F112F8#FF4F760000FF7FFD
(1785079420.499799) can0 09F8021C#20FCD6EF0200FFFF
(1785079420.500777) can0 09F8011C#506D2618A06C5BC1
(1785079420.502682) can0 18FF50E0#000080E8C5008003
(1785079420.504343) can0 18FEE81C#E8AF00002064747E
(1785079420.506912) can0 18FEE81C#E8AF00002064747E
(1785079420.525909) can0 09F11219#B7FEFFFF7FFF7FFC
(1785079420.527869) can0 18F01D21#AC821680FFFFFFFF
(1785079420.580053) can0 09F112F8#FF4F760000FF7FFD
(1785079420.603554) can0 18FF50E0#0012870080008004
(1785079420.624930) can0 09F11219#B8FEFFFF7FFF7FFC
(1785079420.627267) can0 18F01D21#AC821680FFFFFFFF
(1785079420.704501) can0 18FF50E0#0012870080008005
(1785079420.724903) can0 09F11219#B9FEFFFF7FFF7FFC
(1785079420.726882) can0 09F112F8#FF4F760000FF7FFD
(1785079420.727913) can0 18F01D21#AC821680FFFFFFFF
(1785079420.805580) can0 18FF50E0#0012870080008006
(1785079420.824860) can0 09F11219#BAFEFFFF7FFF7FFC
(1785079420.827936) can0 18F01D21#04831680FFFFFFFF
(1785079420.856986) can0 09F112F8#FF4B760000FF7FFD
(1785079420.906522) can0 18FF50E0#0012870080008007
(1785079420.924992) can0 09F11219#BBFEFFFF7FFF7FFC
(1785079420.927339) can0 18F01D21#AC821680FFFFFFFF
(1785079420.997984) can0 09F112F8#FF49760000FF7FFD
(1785079421.005337) can0 09F8021C#21FCD6EF0100FFFF
(1785079421.006259) can0 09F8011C#526D26189C6C5BC1
(1785079421.007720) can0 18FF50E0#0012870180008008
(1785079421.009490) can0 18FEE81C#E8AF00002064757E
(1785079421.026289) can0 09F11219#BCFEFFFF7FFF7FFC
(1785079421.028112) can0 18F01D21#AC821680FFFFFFFF
(1785079421.108968) can0 18FF50E0#0012870180008009
(1785079421.124895) can0 09F11219#BDFEFFFF7FFF7FFC
(1785079421.128147) can0 18F01D21#AC821680FFFFFFFF
(1785079421.133536) can0 09F112F8#FF48760000FF7FFD
(1785079421.209649) can0 18FF50E0#001287018000800A
(1785079421.225570) can0 09F11219#BEFEFFFF7FFF7FFC
(1785079421.227554) can0 18F01D21#AC821680FFFFFFFF
(1785079421.278012) can0 09F112F8#FF4A760000FF7FFD
(1785079421.310778) can0 18FF50E0#001287038000800B
(1785079421.324860) can0 09F11219#BFFEFFFF7FFF7FFC
(1785079421.327692) can0 18F01D21#04831680FFFFFFFF
(1785079421.411826) can0 18FF50E0#001287038000800C
(1785079421.416012) can0 09F112F8#FF4B760000FF7FFD
(1785079421.424875) can0 09F11219#C0FEFFFF7FFF7FFC
(1785079421.428147) can0 18F01D21#AC821680FFFFFFFF
(1785079421.507817) can0 09F8021C#22FCD6EF0000FFFF
(1785079421.508811) can0 09F8011C#546D26189A6C5BC1
(1785079421.511869) can0 18FEE81C#E8AF00002064757E
(1785079421.512956) can0 18FF50E0#001287038000800D
(1785079421.525985) can0 09F11219#C1FEFFFF7FFF7FFC
(1785079421.527433) can0 18F01D21#AC821680FFFFFFFF
(1785079421.553481) can0 09F112F8#FF4B760000FF7FFD
(1785079421.613770) can0 18FF50E0#001287038000800E
(1785079421.624850) can0 09F11219#C2FEFFFF7FFF7FFC
(1785079421.627744) can0 18F01D21#AC821680FFFFFFFF
(1785079421.698468) can0 09F112F8#FF4A760000FF7FFD
(1785079421.714606) can0 18FF50E0#001287038000800F
(1785079421.724870) can0 09F11219#C3FEFFFF7FFF7FFC
(1785079421.728237) can0 18F01D21#AC821680FFFFFFFF
(1785079421.815387) can0 18FF50E0#0012870380008010
(1785079421.825056) can0 09F11219#C4FEFFFF7FFF7FFC
(1785079421.827709) can0 18F01D21#04831680FFFFFFFF
(1785079421.837300) can0 09F112F8#FF4A760000FF7FFD
(1785079421.916640) can0 18FF50E0#0012870380008011
(1785079421.925038) can0 09F11219#C5FEFFFF7FFF7FFC
(1785079421.928039) can0 18F01D21#AC821680FFFFFFFF
(1785079421.977736) can0 09F112F8#FF4B760000FF7FFD
(1785079422.012370) can0 09F8021C#23FCD6EF0000FFFF
(1785079422.013343) can0 09F8011C#586D2618946C5BC1
(1785079422.016399) can0 18FEE81C#E8AF00002064767E
(1785079422.017481) can0 18FF50E0#0012870380008012
(1785079422.026293) can0 09F11219#C6FEFFFF7FFF7FFC
(1785079422.027374) can0 18F01D21#AC821680FFFFFFFF
(1785079422.115037) can0 09F112F8#FF4D760000FF7FFD
(1785079422.118850) can0 18FF50E0#0012870380008013
(1785079422.124799) can0 09F11219#C7FEFFFF7FFF7FFC
(1785079422.127576) can0 18F01D21#AC821680FFFFFFFF
(1785079422.220320) can0 18FF50E0#0012870380008014
(1785079422.224857) can0 09F11219#C8FEFFFF7FFF7FFC
(1785079422.227942) can0 18F01D21#AC821680FFFFFFFF
(1785079422.255328) can0 09F112F8#FF51760000FF7FFD
(1785079422.320953) can0 18FF50E0#0012870280008015
(1785079422.325333) can0 09F11219#C9FEFFFF7FFF7FFC
(1785079422.327227) can0 18F01D21#AC821680FFFFFFFF
(1785079422.385446) can0 09F112F8#FF54760000FF7FFD
(1785079422.422002) can0 18FF50E0#0012870280008016
(1785079422.424837) can0 09F11219#CAFEFFFF7FFF7FFC
(1785079422.427635) can0 18F01D21#04831680FFFFFFFF
(1785079422.514920) can0 09F8021C#24FCD6EF0200FFFF
(1785079422.515854) can0 09F8011C#5C6D2618926C5BC1
(1785079422.519969) can0 18FEE81C#E8AF00002064777E
(1785079422.522954) can0 18FF50E0#0012870080008017
(1785079422.526053) can0 09F11219#CBFEFFFF7FFF7FFC
(1785079422.528005) can0 18F01D21#04831680FFFFFFFF
(1785079422.529115) can0 09F112F8#FF55760000FF7FFD
(1785079422.624109) can0 18FF50E0#0012870080008018
(1785079422.624848) can0 09F11219#CCFEFFFF7FFF7FFC
(1785079422.627343) can0 18F01D21#AC821680FFFFFFFF
(1785079422.667292) can0 09F112F8#FF57760000FF7FFD
(1785079422.724868) can0 09F11219#CDFEFFFF7FFF7FFC
(1785079422.724960) can0 18FF50E0#0012870080008019
(1785079422.727687) can0 18F01D21#04831680FFFFFFFF
(1785079422.804429) can0 09F112F8#FF58760000FF7FFD
(1785079422.824849) can0 09F11219#CEFEFFFF7FFF7FFC
(1785079422.826106) can0 18FF50E0#001287FD7F00801A
(1785079422.828117) can0 18F01D21#AC821680FFFFFFFF
(1785079422.925035) can0 09F11219#CFFEFFFF7FFF7FFC
(1785079422.926787) can0 18FF50E0#001287FD7F00801B
(1785079422.927378) can0 18F01D21#04831680FFFFFFFF
(1785079422.945281) can0 09F112F8#FF5C760000FF7FFD
(1785079423.021517) can0 09F8021C#25FCD6EF0100FFFF
(1785079423.023658) can0 09F8011C#606D26188C6C5BC1
(1785079423.026165) can0 09F11219#D0FEFFFF7FFF7FFC
(1785079423.026726) can0 18FEE81C#E8AF00002064787E
(1785079423.027491) can0 18FF50E0#001287FA7F00801C
(1785079423.028136) can0 18F01D21#AC821680FFFFFFFF
(1785079423.079350) can0 09F112F8#FF5E760000FF7FFD
(1785079423.124911) can0 09F11219#D1FEFFFF7FFF7FFC
(1785079423.128238) can0 18F01D21#04831680FFFFFFFF
(1785079423.129648) can0 18FF50E0#001287FA7F00801D
(1785079423.218412) can0 09F112F8#FF5C760000FF7FFD
(1785079423.225212) can0 09F11219#D2FEFFFF7FFF7FFC
(1785079423.227441) can0 18F01D21#AC821680FFFFFFFF
(1785079423.230481) can0 18FF50E0#001287FA7F00801E
(1785079423.324944) can0 09F11219#D3FEFFFF7FFF7FFC
(1785079423.327821) can0 18F01D21#AC821680FFFFFFFF
(1785079423.331726) can0 18FF50E0#001287F97F00801F
(1785079423.356102) can0 09F112F8#FF5A760000FF7FFD
(1785079423.425176) can0 09F11219#D4FEFFFF7FFF7FFC
(1785079423.428232) can0 18F01D21#AC821680FFFFFFFF
(1785079423.432726) can0 18FF50E0#001287F97F008020
(1785079423.496359) can0 09F112F8#FF59760000FF7FFD
(1785079423.525666) can0 09F11219#D5FEFFFF7FFF7FFC
(1785079423.526237) can0 09F8021C#26FCD6EF0100FFFF
(1785079423.527039) can0 09F8011C#646D2618866C5BC1
(1785079423.527584) can0 18F01D21#AC821680FFFFFFFF
(1785079423.531229) can0 18FEE81C#E8AF00002064787E
(1785079423.533419) can0 18FF50E0#001287F97F008021
(1785079423.625054) can0 09F11219#D6FEFFFF7FFF7FFC
(1785079423.627914) can0 18F01D21#AC821680FFFFFFFF
(1785079423.633508) can0 09F112F8#FF53760000FF7FFD
(1785079423.634372) can0 18FF50E0#001287F97F008022
(1785079423.725169) can0 09F11219#D7FEFFFF7FFF7FFC
(1785079423.728354) can0 18F01D21#AC821680FFFFFFFF
(1785079423.735729) can0 18FF50E0#001287F97F008023
(1785079423.770097) can0 09F112F8#FF51760000FF7FFD
(1785079423.824962) can0 09F11219#D8FEFFFF7FFF7FFC
(1785079423.827582) can0 18F01D21#AC821680FFFFFFFF
(1785079423.838489) can0 18FF50E0#001287FB7F008024
(1785079423.909153) can0 09F112F8#FF4E760000FF7FFD
(1785079423.925003) can0 09F11219#D9FEFFFF7FFF7FFC
(1785079423.928008) can0 18F01D21#04831680FFFFFFFF
(1785079423.939357) can0 18FF50E0#001287FB7F008025
(1785079424.025754) can0 09F11219#DAFEFFFF7FFF7FFC
(1785079424.028399) can0 18F01D21#AC821680FFFFFFFF
(1785079424.028897) can0 09F8021C#27FCD6EF0000FFFF
(1785079424.029483) can0 09F8011C#686D2618806C5BC1
(1785079424.032614) can0 18FEE81C#E8AF00002064797E
(1785079424.040191) can0 18FF50E0#001287FD7F008026
(1785079424.045393) can0 09F112F8#FF4E760000FF7FFD
(1785079424.125141) can0 09F11219#DBFEFFFF7FFF7FFC
(1785079424.127860) can0 18F01D21#AC821680FFFFFFFF
(1785079424.141178) can0 18FF50E0#001287FD7F008027
(1785079424.182784) can0 09F112F8#FF4E760000FF7FFD
(1785079424.225013) can0 09F11219#DCFEFFFF7FFF7FFC
(1785079424.228060) can0 18F01D21#AC821680FFFFFFFF
(1785079424.243240) can0 18FF50E0#001287FD7F008028
(1785079424.325011) can0 09F11219#DDFEFFFF7FFF7FFC
(1785079424.325550) can0 09F112F8#FF48760000FF7FFD
(1785079424.328401) can0 18F01D21#AC821680FFFFFFFF
(1785079424.345063) can0 18FF50E0#001287FF7F008029
(1785079424.424993) can0 09F11219#DEFEFFFF7FFF7FFC
(1785079424.427728) can0 18F01D21#AC821680FFFFFFFF
(1785079424.446308) can0 18FF50E0#001287FF7F00802A
(1785079424.458105) can0 09F112F8#FF45760000FF7FFD
(1785079424.525553) can0 09F11219#DFFEFFFF7FFF7FFC
(1785079424.528110) can0 18F01D21#04831680FFFFFFFF
(1785079424.531074) can0 09F8021C#28FCD6EF0000FFFF
(1785079424.532018) can0 09F8011C#6C6D26187A6C5BC1
(1785079424.535093) can0 18FEE81C#E8AF000020647B7E
(1785079424.547273) can0 18FF50E0#001287028000802B
(1785079424.598406) can0 09F112F8#FF44760000FF7FFD
(1785079424.625015) can0 09F11219#E0FEFFFF7FFF7FFC
(1785079424.628462) can0 18F01D21#AC821680FFFFFFFF
(1785079424.648516) can0 18FF50E0#001287028000802C
(1785079424.725144) can0 09F11219#E1FEFFFF7FFF7FFC
(1785079424.727973) can0 18F01D21#04831680FFFFFFFF
(1785079424.737166) can0 09F112F8#FF41760000FF7FFD
(1785079424.749368) can0 18FF50E0#001287028000802D
(1785079424.825124) can0 09F11219#E2FEFFFF7FFF7FFC
(1785079424.828357) can0 18F01D21#AC821680FFFFFFFF
(1785079424.850153) can0 18FF50E0#001287058000802E
(1785079424.876162) can0 09F112F8#FF40760000FF7FFD
(1785079424.925152) can0 09F11219#E3FEFFFF7FFF7FFC
(1785079424.928710) can0 18F01D21#AC821680FFFFFFFF
(1785079424.950990) can0 18FF50E0#001287058000802F
(1785079425.012819) can0 09F112F8#FF3E760000FF7FFD
(1785079425.025932) can0 09F11219#E4FEFFFF7FFF7FFC
(1785079425.027842) can0 18F01D21#AC821680FFFFFFFF
(1785079425.033572) can0 09F8021C#29FCD6EF0000FFFF
(1785079425.035550) can0 09F8011C#6C6D2618786C5BC1
(1785079425.038647) can0 18FEE81C#E8AF000020647C7E
(1785079425.051751) can0 18FF50E0#0012870880008030
(1785079425.125031) can0 09F11219#E5FEFFFF7FFF7FFC
(1785079425.128255) can0 18F01D21#AC821680FFFFFFFF
(1785079425.150156) can0 09F112F8#FF39760000FF7FFD
(1785079425.154380) can0 18FF50E0#0012870880008031
(1785079425.225001) can0 09F11219#E6FEFFFF7FFF7FFC
(1785079425.227773) can0 18F01D21#04831680FFFFFFFF
(1785079425.255076) can0 18FF50E0#0012870880008032
(1785079425.287153) can0 09F112F8#FF33760000FF7FFD
(1785079425.325038) can0 09F11219#E7FEFFFF7FFF7FFC
(1785079425.328373) can0 18F01D21#AC821680FFFFFFFF
(1785079425.356036) can0 18FF50E0#0012870A80008033
(1785079425.423959) can0 09F112F8#FF2F760000FF7FFD
(1785079425.425025) can0 09F11219#E8FEFFFF7FFF7FFC
(1785079425.428432) can0 18F01D21#AC821680FFFFFFFF
(1785079425.457106) can0 18FF50E0#0012870A80008034
(1785079425.525761) can0 09F11219#E9FEFFFF7FFF7FFC
(1785079425.527641) can0 18F01D21#04831680FFFFFFFF
(1785079425.539169) can0 09F8021C#2AFCD6EF0100FFFF
(1785079425.541197) can0 09F8011C#6C6D2618726C5BC1
(1785079425.544210) can0 18FEE81C#E8AF000020647D7E
(1785079425.555874) can0 09F112F8#FF2C760000FF7FFD
(1785079425.558437) can0 18FF50E0#0012870E80008035
(1785079425.625023) can0 09F11219#EAFEFFFF7FFF7FFC
(1785079425.628264) can0 18F01D21#AC821680FFFFFFFF
(1785079425.660105) can0 18FF50E0#0012870E80008036
(1785079425.697539) can0 09F112F8#FF26760000FF7FFD
(1785079425.725018) can0 09F11219#EBFEFFFF7FFF7FFC
(1785079425.728368) can0 18F01D21#AC821680FFFFFFFF
(1785079425.761009) can0 18FF50E0#0012870E80008037
(1785079425.824985) can0 09F11219#ECFEFFFF7FFF7FFC
(1785079425.827722) can0 18F01D21#AC821680FFFFFFFF
(1785079425.838161) can0 09F112F8#FF1F760000FF7FFD
(1785079425.862519) can0 18FF50E0#0012871380008038
(1785079425.924974) can0 09F11219#EDFEFFFF7FFF7FFC
(1785079425.928246) can0 18F01D21#AC821680FFFFFFFF
(1785079425.963437) can0 18FF50E0#0012871380008039
(1785079425.974733) can0 09F112F8#FF1B760000FF7FFD
(1785079426.026121) can0 09F11219#EEFEFFFF7FFF7FFC
(1785079426.028571) can0 18F01D21#AC821680FFFFFFFF
(1785079426.043864) can0 09F8021C#2BFCD6EF0000FFFF
(1785079426.044664) can0 09F8011C#6C6D2618706C5BC1
(1785079426.048760) can0 18FEE81C#E8AF000020647D7E
(1785079426.064390) can0 18FF50E0#001287198000803A
(1785079426.116208) can0 09F112F8#FF18760000FF7FFD
(1785079426.125063) can0 09F11219#EFFEFFFF7FFF7FFC
(1785079426.127810) can0 18F01D21#AC821680FFFFFFFF
(1785079426.165982) can0 18FF50E0#001287198000803B
(1785079426.225149) can0 09F11219#F0FEFFFF7FFF7FFC
(1785079426.228226) can0 18F01D21#AC821680FFFFFFFF
(1785079426.252170) can0 09F112F8#FF12760000FF7FFD
(1785079426.266848) can0 18FF50E0#001287198000803C
(1785079426.324998) can0 09F11219#F1FEFFFF7FFF7FFC
(1785079426.328469) can0 18F01D21#AC821680FFFFFFFF
(1785079426.371265) can0 18FF50E0#0012871F8000803D
(1785079426.389167) can0 09F112F8#FF08760000FF7FFD
(1785079426.424967) can0 09F11219#F2FEFFFF7FFF7FFC
(1785079426.427804) can0 18F01D21#04831680FFFFFFFF
(1785079426.472106) can0 18FF50E0#0012871F8000803E
(1785079426.525686) can0 09F11219#F3FEFFFF7FFF7FFC
(1785079426.526237) can0 09F112F8#FF04760000FF7FFD
(1785079426.528260) can0 18F01D21#AC821680FFFFFFFF
(1785079426.553287) can0 09F8021C#2CFCD6EF0400FFFF
(1785079426.554275) can0 09F8011C#706D26186E6C5BC1
(1785079426.557305) can0 18FEE81C#E8AF000021647E7E
(1785079426.572810) can0 18FF50E0#001287268000803F
(1785079426.625074) can0 09F11219#F4FEFFFF7FFF7FFC
(1785079426.628787) can0 18F01D21#04831680FFFFFFFF
(1785079426.665260) can0 09F112F8#FF04760000FF7FFD
(1785079426.673592) can0 18FF50E0#0012872680008040
(1785079426.725072) can0 09F11219#F5FEFFFF7FFF7FFC
(1785079426.727880) can0 18F01D21#AC821680FFFFFFFF
(1785079426.774275) can0 18FF50E0#0012872680008041
(1785079426.800198) can0 09F112F8#FF00760000FF7FFD
(1785079426.825239) can0 09F11219#F6FEFFFF7FFF7FFC
(1785079426.828856) can0 18F01D21#AC821680FFFFFFFF
(1785079426.874996) can0 18FF50E0#0012872B80008042
(1785079426.925121) can0 09F11219#F7FEFFFF7FFF7FFC
(1785079426.928661) can0 18F01D21#AC821680FFFFFFFF
(1785079426.939202) can0 09F112F8#FF01760000FF7FFD
(1785079426.975761) can0 18FF50E0#0012872B80008043
(1785079427.025702) can0 09F11219#F8FEFFFF7FFF7FFC
(1785079427.027982) can0 18F01D21#AC821680FFFFFFFF
(1785079427.056103) can0 09F8021C#2DFCD6EF0300FFFF
(1785079427.057195) can0 09F8011C#726D26186C6C5BC1
(1785079427.064237) can0 18FEE81C#E8AF000021647F7E
(1785079427.077024) can0 18FF50E0#0012872D80008044
(1785079427.079829) can0 09F112F8#FF03760000FF7FFD
(1785079427.125115) can0 09F11219#F9FEFFFF7FFF7FFC
(1785079427.128330) can0 18F01D21#04831680FFFFFFFF
(1785079427.177716) can0 18FF50E0#0012872D80008045
(1785079427.218190) can0 09F112F8#FF06760000FF7FFD
(1785079427.225163) can0 09F11219#FAFEFFFF7FFF7FFC
(1785079427.228751) can0 18F01D21#AC821680FFFFFFFF
(1785079427.278521) can0 18FF50E0#0012872D80008046
(1785079427.325105) can0 09F11219#00FEFFFF7FFF7FFC
(1785079427.328086) can0 18F01D21#AC821680FFFFFFFF
(1785079427.357557) can0 09F112F8#FF08760000FF7FFD
(1785079427.379248) can0 18FF50E0#0012872D80008047
(1785079427.425407) can0 09F11219#01FEFFFF7FFF7FFC
(1785079427.428489) can0 18F01D21#AC821680FFFFFFFF
(1785079427.480421) can0 18FF50E0#0012872D80008048
(1785079427.499530) can0 09F112F8#FF07760000FF7FFD
(1785079427.525812) can0 09F11219#02FEFFFF7FFF7FFC
(1785079427.529005) can0 18F01D21#04831680FFFFFFFF
(1785079427.574507) can0 09F8021C#2EFCD6EF0000FFFF
(1785079427.575470) can0 09F8011C#726D2618666C5BC1
(1785079427.579588) can0 18FEE81C#E8AF00002164807E
(1785079427.581493) can0 18FF50E0#0012872C80008049
(1785079427.625106) can0 09F11219#03FEFFFF7FFF7FFC
(1785079427.628115) can0 18F01D21#AC821680FFFFFFFF
(1785079427.637707) can0 09F112F8#FF03760000FF7FFD
(1785079427.682265) can0 18FF50E0#0012872C8000804A
(1785079427.725230) can0 09F11219#04FEFFFF7FFF7FFC
(1785079427.728719) can0 18F01D21#04831680FFFFFFFF
(1785079427.779299) can0 09F112F8#FFFF750000FF7FFD
(1785079427.782971) can0 18FF50E0#0012872C8000804B
(1785079427.825135) can0 09F11219#05FEFFFF7FFF7FFC
(1785079427.828903) can0 18F01D21#04831680FFFFFFFF
(1785079427.883914) can0 18FF50E0#0012872D8000804C
(1785079427.919245) can0 09F112F8#FFFF750000FF7FFD
(1785079427.925082) can0 09F11219#06FEFFFF7FFF7FFC
(1785079427.928176) can0 18F01D21#04831680FFFFFFFF
(1785079427.985438) can0 18FF50E0#0012872D8000804D
(1785079428.025843) can0 09F11219#07FEFFFF7FFF7FFC
(1785079428.028710) can0 18F01D21#04831680FFFFFFFF
(1785079428.057438) can0 09F112F8#FF01760000FF7FFD
(1785079428.078434) can0 09F8021C#2FFCD6EF0000FFFF
(1785079428.079532) can0 09F8011C#706D2618626C5BC1
(1785079428.085505) can0 18FEE81C#E8AF00002164817E
(1785079428.086432) can0 18FF50E0#0012872E8000804E
(1785079428.125138) can0 09F11219#08FEFFFF7FFF7FFC
(1785079428.128919) can0 18F01D21#AC821680FFFFFFFF
(1785079428.187101) can0 18FF50E0#0012872E8000804F
(1785079428.190401) can0 09F112F8#FF01760000FF7FFD
(1785079428.225139) can0 09F11219#09FEFFFF7FFF7FFC
(1785079428.228257) can0 18F01D21#AC821680FFFFFFFF
(1785079428.287954) can0 18FF50E0#0012872E80008050
(1785079428.325283) can0 09F11219#0AFEFFFF7FFF7FFC
(1785079428.328676) can0 18F01D21#AC821680FFFFFFFF
(1785079428.333122) can0 09F112F8#FFFC750000FF7FFD
(1785079428.388903) can0 18FF50E0#0012872E80008051
(1785079428.425200) can0 09F11219#0BFEFFFF7FFF7FFC
(1785079428.427961) can0 18F01D21#AC821680FFFFFFFF
(1785079428.467240) can0 09F112F8#FFFB750000FF7FFD
(1785079428.489815) can0 18FF50E0#0012872E80008052
(1785079428.525965) can0 09F11219#0CFEFFFF7FFF7FFC
(1785079428.528306) can0 18F01D21#AC821680FFFFFFFF
(1785079428.588632) can0 09F8021C#30FCD6EF0000FFFF
(1785079428.589643) can0 09F8011C#6C6D2618606C5BC1
(1785079428.591069) can0 18FF50E0#0012872E80008053
(1785079428.592763) can0 18FEE81C#E8AF00002164817E
(1785079428.604665) can0 09F112F8#FFF4750000FF7FFD
(1785079428.625251) can0 09F11219#0DFEFFFF7FFF7FFC
(1785079428.628661) can0 18F01D21#AC821680FFFFFFFF
(1785079428.691866) can0 18FF50E0#0012872F80008054
(1785079428.725266) can0 09F11219#0EFEFFFF7FFF7FFC
(1785079428.728201) can0 18F01D21#AC821680FFFFFFFF
(1785079428.747257) can0 09F112F8#FFF2750000FF7FFD
(1785079428.792668) can0 18FF50E0#0012872F80008055
(1785079428.825363) can0 09F11219#0FFEFFFF7FFF7FFC
(1785079428.828484) can0 18F01D21#04831680FFFFFFFF
(1785079428.882811) can0 09F112F8#FFEF750000FF7FFD
(1785079428.893441) can0 18FF50E0#0012873380008056
(1785079428.925197) can0 09F11219#10FEFFFF7FFF7FFC
(1785079428.928709) can0 18F01D21#AC821680FFFFFFFF
(1785079428.994299) can0 18FF50E0#0012873380008057
(1785079429.020285) can0 09F112F8#FFEE750000FF7FFD
(1785079429.026072) can0 09F11219#11FEFFFF7FFF7FFC
(1785079429.028146) can0 18F01D21#04831680FFFFFFFF
(1785079429.091161) can0 09F8021C#31FCD6EF0300FFFF
(1785079429.092256) can0 09F8011C#6A6D26185E6C5BC1
(1785079429.095505) can0 18FF50E0#0012873380008058
(1785079429.096198) can0 18FEE81C#E8AF00002164817E
(1785079429.125220) can0 09F11219#12FEFFFF7FFF7FFC
(1785079429.128606) can0 18F01D21#AC821680FFFFFFFF
(1785079429.157338) can0 09F112F8#FFED750000FF7FFD
(1785079429.197336) can0 18FF50E0#0012873680008059
(1785079429.225259) can0 09F11219#13FEFFFF7FFF7FFC
(1785079429.229005) can0 18F01D21#AC821680FFFFFFFF
(1785079429.295287) can0 09F112F8#FFF2750000FF7FFD
(1785079429.297999) can0 18FF50E0#001287368000805A
(1785079429.325371) can0 09F11219#14FEFFFF7FFF7FFC
(1785079429.328248) can0 18F01D21#AC821680FFFFFFFF
(1785079429.398790) can0 18FF50E0#001287378000805B
(1785079429.425342) can0 09F11219#15FEFFFF7FFF7FFC
(1785079429.428680) can0 18F01D21#AC821680FFFFFFFF
(1785079429.429311) can0 09F112F8#FFF7750000FF7FFD
(1785079429.500295) can0 18FF50E0#001287378000805C
(1785079429.525832) can0 09F11219#16FEFFFF7FFF7FFC
(1785079429.528882) can0 18F01D21#AC821680FFFFFFFF
(1785079429.565731) can0 09F112F8#FFFB750000FF7FFD
(1785079429.593693) can0 09F8021C#32FCD6EF0100FFFF
(1785079429.594688) can0 09F8011C#666D26185C6C5BC1
(1785079429.597705) can0 18FEE81C#E8AF00002164807E
(1785079429.601085) can0 18FF50E0#001287378000805D
(1785079429.625165) can0 09F11219#17FEFFFF7FFF7FFC
(1785079429.628183) can0 18F01D21#04831680FFFFFFFF
(1785079429.702478) can0 18FF50E0#001287358000805E
(1785079429.704142) can0 09F112F8#FFFB750000FF7FFD
(1785079429.725179) can0 09F11219#18FEFFFF7FFF7FFC
(1785079429.728573) can0 18F01D21#AC821680FFFFFFFF
(1785079429.803305) can0 18FF50E0#001287358000805F
(1785079429.825245) can0 09F11219#19FEFFFF7FFF7FFC
(1785079429.829013) can0 18F01D21#AC821680FFFFFFFF
(1785079429.842850) can0 09F112F8#FF00760000FF7FFD
(1785079429.904507) can0 18FF50E0#0012873180008060
(1785079429.925238) can0 09F11219#1AFEFFFF7FFF7FFC
(1785079429.928346) can0 18F01D21#AC821680FFFFFFFF
(1785079429.979394) can0 09F112F8#FF04760000FF7FFD
(1785079430.005245) can0 18FF50E0#0012873180008061
(1785079430.025932) can0 09F11219#1BFEFFFF7FFF7FFC
(1785079430.028859) can0 18F01D21#AC821680FFFFFFFF
(1785079430.096284) can0 09F8021C#33FCD6EF0100FFFF
(1785079430.097219) can0 09F8011C#666D26185C6C5BC1
(1785079430.100243) can0 18FEE81C#E8AF00002164807E
(1785079430.106631) can0 18FF50E0#0012873180008062
(1785079430.120101) can0 09F112F8#FF07760000FF7FFD
(1785079430.125150) can0 09F11219#1CFEFFFF7FFF7FFC
(1785079430.129166) can0 18F01D21#AC821680FFFFFFFF
(1785079430.207549) can0 18FF50E0#0012872E80008063
(1785079430.225205) can0 09F11219#1DFEFFFF7FFF7FFC
(1785079430.228350) can0 18F01D21#AC821680FFFFFFFF
(1785079430.257297) can0 09F112F8#FF0B760000FF7FFD
(1785079430.310147) can0 18FF50E0#0012872E80008064
(1785079430.325186) can0 09F11219#1EFEFFFF7FFF7FFC
(1785079430.328697) can0 18F01D21#AC821680FFFFFFFF
(1785079430.393736) can0 09F112F8#FF0F760000FF7FFD
(1785079430.410922) can0 18FF50E0#0012872B80008065
(1785079430.425192) can0 09F11219#1FFEFFFF7FFF7FFC
(1785079430.429062) can0 18F01D21#AC821680FFFFFFFF
(1785079430.511941) can0 18FF50E0#0012872B80008066
(1785079430.526076) can0 09F11219#20FEFFFF7FFF7FFC
(1785079430.528481) can0 18F01D21#AC821680FFFFFFFF
(1785079430.537317) can0 09F112F8#FF0C760000FF7FFD
(1785079430.598773) can0 09F8021C#34FCD6EF0000FFFF
(1785079430.600685) can0 09F8011C#666D26185C6C5BC1
(1785079430.603741) can0 18FEE81C#E8AF000021647F7E
(1785079430.613334) can0 18FF50E0#0012872B80008067
(1785079430.625637) can0 09F11219#21FEFFFF7FFF7FFC
(1785079430.628870) can0 18F01D21#04831680FFFFFFFF
(1785079430.674150) can0 09F112F8#FF0B760000FF7FFD
(1785079430.715258) can0 18FF50E0#0012872880008068
(1785079430.725162) can0 09F11219#22FEFFFF7FFF7FFC
(1785079430.729172) can0 18F01D21#AC821680FFFFFFFF
(1785079430.810356) can0 09F112F8#FF0A760000FF7FFD
(1785079430.816080) can0 18FF50E0#0012872880008069
(1785079430.825282) can0 09F11219#23FEFFFF7FFF7FFC
(1785079430.828547) can0 18F01D21#AC821680FFFFFFFF
(1785079430.916865) can0 18FF50E0#001287288000806A
(1785079430.925256) can0 09F11219#24FEFFFF7FFF7FFC
(1785079430.929070) can0 18F01D21#AC821680FFFFFFFF
(1785079430.948696) can0 09F112F8#FF0E760000FF7FFD
(1785079431.017797) can0 18FF50E0#001287288000806B
(1785079431.026106) can0 09F11219#25FEFFFF7FFF7FFC
(1785079431.029283) can0 18F01D21#AC821680FFFFFFFF
(1785079431.088313) can0 09F112F8#FF10760000FF7FFD
(1785079431.101328) can0 09F8021C#35FCD6EF0000FFFF
(1785079431.102272) can0 09F8011C#686D26185C6C5BC1
(1785079431.106311) can0 18FEE81C#E8AF000021647F7E
(1785079431.118975) can0 18FF50E0#001287288000806C
(1785079431.125197) can0 09F11219#26FEFFFF7FFF7FFC
(1785079431.128699) can0 18F01D21#04831680FFFFFFFF
(1785079431.219774) can0 18FF50E0#001287268000806D
(1785079431.225266) can0 09F11219#27FEFFFF7FFF7FFC
(1785079431.226382) can0 09F112F8#FF0D760000FF7FFD
(1785079431.228914) can0 18F01D21#AC821680FFFFFFFF
(1785079431.320563) can0 18FF50E0#001287268000806E
(1785079431.325259) can0 09F11219#28FEFFFF7FFF7FFC
(1785079431.329339) can0 18F01D21#04831680FFFFFFFF
(1785079431.360335) can0 09F112F8#FF11760000FF7FFD
(1785079431.421208) can0 18FF50E0#001287258000806F
(1785079431.425217) can0 09F11219#29FEFFFF7FFF7FFC
(1785079431.428661) can0 18F01D21#04831680FFFFFFFF
(1785079431.503394) can0 09F112F8#FF13760000FF7FFD
(1785079431.522551) can0 18FF50E0#0012872580008070
(1785079431.525916) can0 09F11219#2AFEFFFF7FFF7FFC
(1785079431.529153) can0 18F01D21#AC821680FFFFFFFF
(1785079431.604788) can0 09F8021C#36FCD6EF0200FFFF
(1785079431.605756) can0 09F8011C#6C6D26185C6C5BC1
(1785079431.608802) can0 18FEE81C#E8AF000021647D7E
(1785079431.623317) can0 18FF50E0#0012872580008071
(1785079431.625723) can0 09F11219#2BFEFFFF7FFF7FFC
(1785079431.628670) can0 18F01D21#AC821680FFFFFFFF
(1785079431.640777) can0 09F112F8#FF15760000FF7FFD
(1785079431.724570) can0 18FF50E0#0012872480008072
(1785079431.725225) can0 09F11219#2CFEFFFF7FFF7FFC
(1785079431.728849) can0 18F01D21#AC821680FFFFFFFF
(1785079431.783269) can0 09F112F8#FF18760000FF7FFD
(1785079431.825253) can0 09F11219#2DFEFFFF7FFF7FFC
(1785079431.825319) can0 18FF50E0#0012872480008073
(1785079431.829215) can0 18F01D21#AC821680FFFFFFFF
(1785079431.923923) can0 09F112F8#FF1C760000FF7FFD
(1785079431.925213) can0 09F11219#2EFEFFFF7FFF7FFC
(1785079431.926417) can0 18FF50E0#0012872280008074
(1785079431.928489) can0 18F01D21#04831680FFFFFFFF
(1785079432.026304) can0 09F11219#2FFEFFFF7FFF7FFC
(1785079432.027236) can0 18FF50E0#0012872280008075
(1785079432.028798) can0 18F01D21#AC821680FFFFFFFF
(1785079432.060075) can0 09F112F8#FF23760000FF7FFD
(1785079432.107342) can0 09F8021C#37FCD6EF0200FFFF
(1785079432.108322) can0 09F8011C#746D26185C6C5BC1
(1785079432.111376) can0 18FEE81C#E8AF000021647D7E
(1785079432.125258) can0 09F11219#30FEFFFF7FFF7FFC
(1785079432.128510) can0 18FF50E0#0012872280008076
(1785079432.129119) can0 18F01D21#04831680FFFFFFFF
(1785079432.203749) can0 09F112F8#FF29760000FF7FFD
(1785079432.225350) can0 09F11219#31FEFFFF7FFF7FFC
(1785079432.228569) can0 18F01D21#AC821680FFFFFFFF
(1785079432.229061) can0 18FF50E0#0012871E80008077
(1785079432.325500) can0 09F11219#32FEFFFF7FFF7FFC
(1785079432.329305) can0 18F01D21#04831680FFFFFFFF
(1785079432.330549) can0 18FF50E0#0012871E80008078
(1785079432.340532) can0 09F112F8#FF30760000FF7FFD
(1785079432.425329) can0 09F11219#33FEFFFF7FFF7FFC
(1785079432.429190) can0 18F01D21#AC821680FFFFFFFF
(1785079432.431295) can0 18FF50E0#0012871780008079
(1785079432.478407) can0 09F112F8#FF33760000FF7FFD
(1785079432.526085) can0 09F11219#34FEFFFF7FFF7FFC
(1785079432.528702) can0 18F01D21#AC821680FFFFFFFF
(1785079432.532635) can0 18FF50E0#001287178000807A
(1785079432.610835) can0 09F8021C#38FCD6EF0500FFFF
(1785079432.612818) can0 09F8011C#7A6D26185C6C5BC1
(1785079432.613765) can0 09F112F8#FF34760000FF7FFD
(1785079432.617331) can0 18FEE81C#E8AF000020647B7E
(1785079432.625584) can0 09F11219#35FEFFFF7FFF7FFC
(1785079432.628927) can0 18F01D21#AC821680FFFFFFFF
(1785079432.633395) can0 18FF50E0#001287178000807B
(1785079432.725230) can0 09F11219#36FEFFFF7FFF7FFC
(1785079432.729232) can0 18F01D21#AC821680FFFFFFFF
(1785079432.737608) can0 18FF50E0#001287128000807C
(1785079432.755731) can0 09F112F8#FF35760000FF7FFD
(1785079432.825228) can0 09F11219#37FEFFFF7FFF7FFC
(1785079432.828610) can0 18F01D21#AC821680FFFFFFFF
(1785079432.838263) can0 18FF50E0#001287128000807D
(1785079432.892961) can0 09F112F8#FF36760000FF7FFD
(1785079432.925241) can0 09F11219#38FEFFFF7FFF7FFC
(1785079432.929147) can0 18F01D21#AC821680FFFFFFFF
(1785079432.938933) can0 18FF50E0#001287108000807E
(1785079433.026105) can0 09F11219#39FEFFFF7FFF7FFC
(1785079433.029310) can0 18F01D21#AC821680FFFFFFFF
(1785079433.034079) can0 09F112F8#FF37760000FF7FFD
(1785079433.039573) can0 18FF50E0#001287108000807F
(1785079433.118465) can0 09F8021C#39FCD6EF0000FFFF
(1785079433.119459) can0 09F8011C#826D26185C6C5BC1
(1785079433.122475) can0 18FEE81C#E8AF00002064797E
(1785079433.125336) can0 09F11219#3AFEFFFF7FFF7FFC
(1785079433.129143) can0 18F01D21#AC821680FFFFFFFF
(1785079433.140245) can0 18FF50E0#0012871080008080
(1785079433.172301) can0 09F112F8#FF38760000FF7FFD
(1785079433.225407) can0 09F11219#3BFEFFFF7FFF7FFC
(1785079433.229133) can0 18F01D21#04831680FFFFFFFF
(1785079433.241356) can0 18FF50E0#0012870E80008081
(1785079433.316230) can0 09F112F8#FF37760000FF7FFD
(1785079433.325387) can0 09F11219#3CFEFFFF7FFF7FFC
(1785079433.329362) can0 18F01D21#04831680FFFFFFFF
(1785079433.341987) can0 18FF50E0#0012870E80008082
(1785079433.425379) can0 09F11219#3DFEFFFF7FFF7FFC
(1785079433.428727) can0 18F01D21#04831680FFFFFFFF
(1785079433.442544) can0 18FF50E0#0012870D80008083
(1785079433.444121) can0 09F112F8#FF35760000FF7FFD
(1785079433.526217) can0 09F11219#3EFEFFFF7FFF7FFC
(1785079433.529106) can0 18F01D21#AC821680FFFFFFFF
(1785079433.544894) can0 18FF50E0#0012870D80008084
(1785079433.583776) can0 09F112F8#FF34760000FF7FFD
(1785079433.620939) can0 09F8021C#3AFCD6EF0500FFFF
(1785079433.621923) can0 09F8011C#8A6D26185C6C5BC1
(1785079433.625542) can0 09F11219#3FFEFFFF7FFF7FFC
(1785079433.626076) can0 18FEE81C#E8AF00002064777E
(1785079433.629618) can0 18F01D21#AC821680FFFFFFFF
(1785079433.647157) can0 18FF50E0#0012870D80008085
(1785079433.723830) can0 09F112F8#FF33760000FF7FFD
(1785079433.725535) can0 09F11219#40FEFFFF7FFF7FFC
(1785079433.728953) can0 18F01D21#AC821680FFFFFFFF
(1785079433.747948) can0 18FF50E0#0012870E80008086
(1785079433.825723) can0 09F11219#41FEFFFF7FFF7FFC
(1785079433.829156) can0 18F01D21#AC821680FFFFFFFF
(1785079433.848644) can0 18FF50E0#0012870E80008087
(1785079433.863814) can0 09F112F8#FF31760000FF7FFD
(1785079433.925369) can0 09F11219#42FEFFFF7FFF7FFC
(1785079433.929595) can0 18F01D21#AC821680FFFFFFFF
(1785079433.949354) can0 18FF50E0#0012870F80008088
(1785079433.999800) can0 09F112F8#FF37760000FF7FFD
(1785079434.026037) can0 09F11219#43FEFFFF7FFF7FFC
(1785079434.028856) can0 18F01D21#AC821680FFFFFFFF
(1785079434.050043) can0 18FF50E0#0012870F80008089
(1785079434.124546) can0 09F8021C#3BFCD6EF0000FFFF
(1785079434.125424) can0 09F11219#44FEFFFF7FFF7FFC
(1785079434.125985) can0 09F8011C#906D26185A6C5BC1
(1785079434.129247) can0 18F01D21#AC821680FFFFFFFF
(1785079434.130591) can0 18FEE81C#E8AF00002064757E
(1785079434.138482) can0 09F112F8#FF3B760000FF7FFD
(1785079434.150718) can0 18FF50E0#0012870F8000808A
(1785079434.225539) can0 09F11219#45FEFFFF7FFF7FFC
(1785079434.229667) can0 18F01D21#AC821680FFFFFFFF
(1785079434.251556) can0 18FF50E0#0012870E8000808B
(1785079434.273790) can0 09F112F8#FF3E760000FF7FFD
(1785079434.325372) can0 09F11219#46FEFFFF7FFF7FFC
(1785079434.329165) can0 18F01D21#AC821680FFFFFFFF
(1785079434.352638) can0 18FF50E0#0012870E8000808C
(1785079434.416425) can0 09F112F8#FF40760000FF7FFD
(1785079434.425376) can0 09F11219#47FEFFFF7FFF7FFC
(1785079434.429294) can0 18F01D21#AC821680FFFFFFFF
(1785079434.453424) can0 18FF50E0#0012870A8000808D
(1785079434.526104) can0 09F11219#48FEFFFF7FFF7FFC
(1785079434.529710) can0 18F01D21#AC821680FFFFFFFF
(1785079434.553721) can0 09F112F8#FF45760000FF7FFD
(1785079434.554582) can0 18FF50E0#0012870A8000808E
(1785079434.625402) can0 09F11219#49FEFFFF7FFF7FFC
(1785079434.629028) can0 18F01D21#04831680FFFFFFFF
(1785079434.629596) can0 09F8021C#3CFCD6EF0400FFFF
(1785079434.630993) can0 09F8011C#986D2618566C5BC1
(1785079434.635069) can0 18FEE81C#E8AF00002064737E
(1785079434.655985) can0 18FF50E0#0012870A8000808F
(1785079434.687450) can0 09F112F8#FF4A760000FF7FFD
(1785079434.725592) can0 09F11219#4AFEFFFF7FFF7FFC
(1785079434.729412) can0 18F01D21#AC821680FFFFFFFF
(1785079434.756642) can0 18FF50E0#0012870680008090
(1785079434.825458) can0 09F11219#4BFEFFFF7FFF7FFC
(1785079434.826785) can0 09F112F8#FF47760000FF7FFD
(1785079434.828715) can0 18F01D21#AC821680FFFFFFFF
(1785079434.858069) can0 18FF50E0#0012870680008091
(1785079434.925567) can0 09F11219#4CFEFFFF7FFF7FFC
(1785079434.929186) can0 18F01D21#AC821680FFFFFFFF
(1785079434.958435) can0 18FF50E0#0012870480008092
(1785079434.965473) can0 09F112F8#FF44760000FF7FFD
(1785079435.026186) can0 09F11219#4DFEFFFF7FFF7FFC
(1785079435.029446) can0 18F01D21#04831680FFFFFFFF
(1785079435.058988) can0 18FF50E0#0012870480008093
(1785079435.102955) can0 09F112F8#FF44760000FF7FFD
(1785079435.125415) can0 09F11219#4EFEFFFF7FFF7FFC
(1785079435.128807) can0 18F01D21#04831680FFFFFFFF
(1785079435.160249) can0 18FF50E0#0012870480008094
(1785079435.225441) can0 09F11219#4FFEFFFF7FFF7FFC
(1785079435.229112) can0 18F01D21#AC821680FFFFFFFF
(1785079435.239464) can0 09F112F8#FF47760000FF7FFD
(1785079435.260851) can0 18FF50E0#0012870480008095
(1785079435.325394) can0 09F11219#50FEFFFF7FFF7FFC
(1785079435.329523) can0 18F01D21#AC821680FFFFFFFF
(1785079435.361719) can0 18FF50E0#0012870480008096
(1785079435.378836) can0 09F112F8#FF47760000FF7FFD
(1785079435.425499) can0 09F11219#51FEFFFF7FFF7FFC
(1785079435.428898) can0 18F01D21#AC821680FFFFFFFF
(1785079435.462590) can0 18FF50E0#0012870480008097
(1785079435.515750) can0 09F112F8#FF46760000FF7FFD
(1785079435.525965) can0 09F11219#52FEFFFF7FFF7FFC
(1785079435.529209) can0 18F01D21#AC821680FFFFFFFF
(1785079435.563586) can0 18FF50E0#0012870480008098
(1785079435.625379) can0 09F11219#53FEFFFF7FFF7FFC
(1785079435.629595) can0 18F01D21#AC821680FFFFFFFF
(1785079435.655108) can0 09F112F8#FF4B760000FF7FFD
(1785079435.664094) can0 18FF50E0#0012870480008099
(1785079435.725361) can0 09F11219#54FEFFFF7FFF7FFC
(1785079435.728901) can0 18F01D21#AC821680FFFFFFFF
(1785079435.764683) can0 18FF50E0#001287038000809A
(1785079435.792966) can0 09F112F8#FF4F760000FF7FFD
(1785079435.826037) can0 09F11219#55FEFFFF7FFF7FFC
(1785079435.829258) can0 18F01D21#04831680FFFFFFFF
(1785079435.865061) can0 18FF50E0#001287038000809B
(1785079435.925611) can0 09F11219#56FEFFFF7FFF7FFC
(1785079435.929681) can0 18F01D21#AC821680FFFFFFFF
(1785079435.934143) can0 09F112F8#FF53760000FF7FFD
(1785079435.965443) can0 18FF50E0#001287008000809C
(1785079436.026086) can0 09F11219#57FEFFFF7FFF7FFC
(1785079436.028997) can0 18F01D21#AC821680FFFFFFFF
(1785079436.066022) can0 18FF50E0#001287008000809D
(1785079436.072951) can0 09F112F8#FF56760000FF7FFD
(1785079436.125398) can0 09F11219#58FEFFFF7FFF7FFC
(1785079436.129313) can0 18F01D21#AC821680FFFFFFFF
(1785079436.166499) can0 18FF50E0#001287008000809E
(1785079436.214119) can0 09F112F8#FF58760000FF7FFD
(1785079436.225424) can0 09F11219#59FEFFFF7FFF7FFC
(1785079436.229665) can0 18F01D21#AC821680FFFFFFFF
(1785079436.266961) can0 18FF50E0#001287FD7F00809F
(1785079436.325345) can0 09F11219#5AFEFFFF7FFF7FFC
(1785079436.329012) can0 18F01D21#04831680FFFFFFFF
(1785079436.349469) can0 09F112F8#FF59760000FF7FFD
(1785079436.367359) can0 18FF50E0#001287FD7F0080A0
(1785079436.425430) can0 09F11219#5BFEFFFF7FFF7FFC
(1785079436.429411) can0 18F01D21#AC821680FFFFFFFF
(1785079436.467854) can0 18FF50E0#001287FB7F0080A1
(1785079436.485883) can0 09F112F8#FF57760000FF7FFD
(1785079436.526171) can0 09F11219#5CFEFFFF7FFF7FFC
(1785079436.529778) can0 18F01D21#AC821680FFFFFFFF
(1785079436.569044) can0 18FF50E0#001287FB7F0080A2
(1785079436.625462) can0 09F11219#5DFEFFFF7FFF7FFC
(1785079436.628532) can0 09F112F8#FF56760000FF7FFD
(1785079436.629073) can0 18F01D21#04831680FFFFFFFF
(1785079436.669497) can0 18FF50E0#001287FB7F0080A3
(1785079436.725399) can0 09F11219#5EFEFFFF7FFF7FFC
(1785079436.729426) can0 18F01D21#AC821680FFFFFFFF
(1785079436.766538) can0 09F112F8#FF56760000FF7FFD
(1785079436.770348) can0 18FF50E0#001287FA7F0080A4
(1785079436.825410) can0 09F11219#5FFEFFFF7FFF7FFC
(1785079436.830073) can0 18F01D21#AC821680FFFFFFFF
(1785079436.870939) can0 18FF50E0#001287FA7F0080A5
(1785079436.903914) can0 09F112F8#FF56760000FF7FFD
(1785079436.925400) can0 09F11219#60FEFFFF7FFF7FFC
(1785079436.929126) can0 18F01D21#AC821680FFFFFFFF
(1785079436.971392) can0 18FF50E0#001287FA7F0080A6
(1785079437.026227) can0 09F11219#61FEFFFF7FFF7FFC
(1785079437.029530) can0 18F01D21#04831680FFFFFFFF
(1785079437.047512) can0 09F112F8#FF52760000FF7FFD
(1785079437.071806) can0 18FF50E0#001287FA7F0080A7
(1785079437.125442) can0 09F11219#62FEFFFF7FFF7FFC
(1785079437.129918) can0 18F01D21#04831680FFFFFFFF
(1785079437.172917) can0 18FF50E0#001287FA7F0080A8
(1785079437.185482) can0 09F112F8#FF4C760000FF7FFD
(1785079437.225567) can0 09F11219#63FEFFFF7FFF7FFC
(1785079437.229240) can0 18F01D21#AC821680FFFFFFFF
(1785079437.273530) can0 18FF50E0#001287FD7F0080A9
(1785079437.325473) can0 09F11219#64FEFFFF7FFF7FFC
(1785079437.325982) can0 09F112F8#FF4C760000FF7FFD
(1785079437.329645) can0 18F01D21#AC821680FFFFFFFF
(1785079437.373991) can0 18FF50E0#001287FD7F0080AA
(1785079437.425412) can0 09F11219#65FEFFFF7FFF7FFC
(1785079437.429961) can0 18F01D21#AC821680FFFFFFFF
(1785079437.463914) can0 09F112F8#FF4E760000FF7FFD
(1785079437.474417) can0 18FF50E0#001287FF7F0080AB
(1785079437.526064) can0 09F11219#66FEFFFF7FFF7FFC
(1785079437.529325) can0 18F01D21#AC821680FFFFFFFF
(1785079437.574974) can0 18FF50E0#001287FF7F0080AC
(1785079437.603039) can0 09F112F8#FF4D760000FF7FFD
(1785079437.625479) can0 09F11219#67FEFFFF7FFF7FFC
(1785079437.629679) can0 18F01D21#AC821680FFFFFFFF
(1785079437.675384) can0 18FF50E0#001287FF7F0080AD
(1785079437.725426) can0 09F11219#68FEFFFF7FFF7FFC
(1785079437.730058) can0 18F01D21#04831680FFFFFFFF
(1785079437.740516) can0 09F112F8#FF4C760000FF7FFD
(1785079437.775861) can0 18FF50E0#00128700800080AE
(1785079437.825438) can0 09F11219#69FEFFFF7FFF7FFC
(1785079437.829321) can0 18F01D21#AC821680FFFFFFFF
(1785079437.876675) can0 18FF50E0#00128700800080AF
(1785079437.878248) can0 09F112F8#FF50760000FF7FFD
(1785079437.925511) can0 09F11219#6AFEFFFF7FFF7FFC
(1785079437.929698) can0 18F01D21#AC821680FFFFFFFF
(1785079437.977038) can0 18FF50E0#001287FF7F0080B0
(1785079438.019520) can0 09F112F8#FF56760000FF7FFD
(1785079438.026125) can0 09F11219#6BFEFFFF7FFF7FFC
(1785079438.029059) can0 18F01D21#04831680FFFFFFFF
(1785079438.077278) can0 18FF50E0#001287FF7F0080B1
(1785079438.125444) can0 09F11219#6CFEFFFF7FFF7FFC
(1785079438.129441) can0 18F01D21#AC821680FFFFFFFF
(1785079438.153940) can0 09F112F8#FF5C760000FF7FFD
(1785079438.177664) can0 18FF50E0#001287FF7F0080B2
(1785079438.225461) can0 09F11219#6DFEFFFF7FFF7FFC
(1785079438.229784) can0 18F01D21#04831680FFFFFFFF
(1785079438.278030) can0 18FF50E0#001287FC7F0080B3
(1785079438.298533) can0 09F112F8#FF61760000FF7FFD
(1785079438.325442) can0 09F11219#6EFEFFFF7FFF7FFC
(1785079438.329118) can0 18F01D21#AC821680FFFFFFFF
(1785079438.378863) can0 18FF50E0#001287FC7F0080B4
(1785079438.425494) can0 09F11219#6FFEFFFF7FFF7FFC
(1785079438.429516) can0 18F01D21#AC821680FFFFFFFF
(1785079438.433286) can0 09F112F8#FF63760000FF7FFD
(1785079438.479329) can0 18FF50E0#001287FC7F0080B5
(1785079438.526489) can0 09F11219#70FEFFFF7FFF7FFC
(1785079438.529870) can0 18F01D21#AC821680FFFFFFFF
(1785079438.570604) can0 09F112F8#FF61760000FF7FFD
(1785079438.579917) can0 18FF50E0#001287F77F0080B6
(1785079438.625535) can0 09F11219#71FEFFFF7FFF7FFC
(1785079438.629213) can0 18F01D21#AC821680FFFFFFFF
(1785079438.680762) can0 18FF50E0#001287F77F0080B7
(1785079438.713965) can0 09F112F8#FF65760000FF7FFD
(1785079438.725532) can0 09F11219#72FEFFFF7FFF7FFC
(1785079438.729648) can0 18F01D21#AC821680FFFFFFFF
(1785079438.781948) can0 18FF50E0#001287F47F0080B8
(1785079438.825545) can0 09F11219#73FEFFFF7FFF7FFC
(1785079438.830171) can0 18F01D21#04831680FFFFFFFF
(1785079438.856586) can0 09F112F8#FF66760000FF7FFD
(1785079438.882750) can0 18FF50E0#001287F47F0080B9
(1785079438.925567) can0 09F11219#74FEFFFF7FFF7FFC
(1785079438.929336) can0 18F01D21#AC821680FFFFFFFF
(1785079438.983461) can0 18FF50E0#001287F47F0080BA
(1785079438.995944) can0 09F112F8#FF66760000FF7FFD
(1785079439.026287) can0 09F11219#75FEFFFF7FFF7FFC
(1785079439.029715) can0 18F01D21#04831680FFFFFFFF
(1785079439.084336) can0 18FF50E0#001287F37F0080BB
(1785079439.125702) can0 09F11219#76FEFFFF7FFF7FFC
(1785079439.130057) can0 18F01D21#04831680FFFFFFFF
(1785079439.133927) can0 09F112F8#FF68760000FF7FFD
(1785079439.185182) can0 18FF50E0#001287F37F0080BC
(1785079439.225521) can0 09F11219#77FEFFFF7FFF7FFC
(1785079439.229429) can0 18F01D21#AC821680FFFFFFFF
(1785079439.273982) can0 09F112F8#FF66760000FF7FFD
(1785079439.286493) can0 18FF50E0#001287F17F0080BD
(1785079439.325595) can0 09F11219#78FEFFFF7FFF7FFC
(1785079439.329723) can0 18F01D21#AC821680FFFFFFFF
(1785079439.387172) can0 18FF50E0#001287F17F0080BE
(1785079439.410576) can0 09F112F8#FF66760000FF7FFD
(1785079439.425550) can0 09F11219#79FEFFFF7FFF7FFC
(1785079439.430085) can0 18F01D21#AC821680FFFFFFFF
(1785079439.489876) can0 18FF50E0#001287F17F0080BF
(1785079439.526375) can0 09F11219#7AFEFFFF7FFF7FFC
(1785079439.529383) can0 18F01D21#AC821680FFFFFFFF
(1785079439.548971) can0 09F112F8#FF65760000FF7FFD
(1785079439.591494) can0 18FF50E0#001287F17F0080C0
(1785079439.625630) can0 09F11219#7BFEFFFF7FFF7FFC
(1785079439.629771) can0 18F01D21#AC821680FFFFFFFF
(1785079439.687557) can0 09F112F8#FF6A760000FF7FFD
(1785079439.691995) can0 18FF50E0#001287F17F0080C1
(1785079439.725666) can0 09F11219#7CFEFFFF7FFF7FFC
(1785079439.730303) can0 18F01D21#AC821680FFFFFFFF
(1785079439.792987) can0 18FF50E0#001287F07F0080C2
(1785079439.824372) can0 09F112F8#FF6C760000FF7FFD
(1785079439.825640) can0 09F11219#7DFEFFFF7FFF7FFC
(1785079439.829489) can0 18F01D21#AC821680FFFFFFFF
(1785079439.893727) can0 18FF50E0#001287F07F0080C3
(1785079439.925705) can0 09F11219#7EFEFFFF7FFF7FFC
(1785079439.929915) can0 18F01D21#04831680FFFFFFFF
(1785079439.963419) can0 09F112F8#FF6B760000FF7FFD
(1785079439.996176) can0 18FF50E0#001287F07F0080C4
(1785079440.026454) can0 09F11219#7FFEFFFF7FFF7FFC
(1785079440.030222) can0 18F01D21#04831680FFFFFFFF
(1785079440.097719) can0 18FF50E0#001287EF7F0080C5
(1785079440.100911) can0 09F112F8#FF6B760000FF7FFD
(1785079440.125699) can0 09F11219#80FEFFFF7FFF7FFC
(1785079440.129543) can0 18F01D21#AC821680FFFFFFFF
(1785079440.198529) can0 18FF50E0#001287EF7F0080C6
(1785079440.225736) can0 09F11219#81FEFFFF7FFF7FFC
(1785079440.229916) can0 18F01D21#04831680FFFFFFFF
(1785079440.236679) can0 09F112F8#FF6C760000FF7FFD
(1785079440.299340) can0 18FF50E0#001287EF7F0080C7
(1785079440.325632) can0 09F11219#82FEFFFF7FFF7FFC
(1785079440.330302) can0 18F01D21#AC821680FFFFFFFF
(1785079440.375699) can0 09F112F8#FF6F760000FF7FFD
(1785079440.400157) can0 18FF50E0#001287EF7F0080C8
(1785079440.425656) can0 09F11219#83FEFFFF7FFF7FFC
(1785079440.429641) can0 18F01D21#AC821680FFFFFFFF
(1785079440.500970) can0 18FF50E0#001287EF7F0080C9
(1785079440.513378) can0 09F112F8#FF6F760000FF7FFD
(1785079440.526304) can0 09F11219#84FEFFFF7FFF7FFC
(1785079440.530036) can0 18F01D21#04831680FFFFFFFF
(1785079440.601893) can0 18FF50E0#001287ED7F0080CA
(1785079440.625749) can0 09F11219#85FEFFFF7FFF7FFC
(1785079440.630398) can0 18F01D21#04831680FFFFFFFF
(1785079440.649754) can0 09F112F8#FF70760000FF7FFD
(1785079440.702626) can0 18FF50E0#001287ED7F0080CB
(1785079440.725802) can0 09F11219#86FEFFFF7FFF7FFC
(1785079440.729709) can0 18F01D21#04831680FFFFFFFF
(1785079440.785816) can0 09F112F8#FF6F760000FF7FFD
(1785079440.803515) can0 18FF50E0#001287EC7F0080CC
(1785079440.825792) can0 09F11219#87FEFFFF7FFF7FFC
(1785079440.830212) can0 18F01D21#AC821680FFFFFFFF
(1785079440.904456) can0 18FF50E0#001287EC7F0080CD
(1785079440.925754) can0 09F11219#88FEFFFF7FFF7FFC
(1785079440.926709) can0 09F112F8#FF6E760000FF7FFD
(1785079440.930433) can0 18F01D21#AC821680FFFFFFFF
(1785079441.005242) can0 18FF50E0#001287EC7F0080CE
(1785079441.026361) can0 09F11219#89FEFFFF7FFF7FFC
(1785079441.029792) can0 18F01D21#AC821680FFFFFFFF
(1785079441.066129) can0 09F112F8#FF6E760000FF7FFD
(1785079441.105942) can0 18FF50E0#001287EC7F0080CF
(1785079441.125629) can0 09F11219#8AFEFFFF7FFF7FFC
(1785079441.130139) can0 18F01D21#AC821680FFFFFFFF
(1785079441.200645) can0 09F112F8#FF6F760000FF7FFD
(1785079441.206711) can0 18FF50E0#001287EC7F0080D0
(1785079441.225588) can0 09F11219#8BFEFFFF7FFF7FFC
(1785079441.229405) can0 18F01D21#AC821680FFFFFFFF
(1785079441.307456) can0 18FF50E0#001287EC7F0080D1
(1785079441.325576) can0 09F11219#8CFEFFFF7FFF7FFC
(1785079441.329854) can0 18F01D21#AC821680FFFFFFFF
(1785079441.337696) can0 09F112F8#FF70760000FF7FFD
(1785079441.408249) can0 18FF50E0#001287EC7F0080D2
(1785079441.425658) can0 09F11219#8DFEFFFF7FFF7FFC
(1785079441.430170) can0 18F01D21#AC821680FFFFFFFF
(1785079441.475690) can0 09F112F8#FF71760000FF7FFD
(1785079441.509841) can0 18FF50E0#001287EC7F0080D3
(1785079441.526505) can0 09F11219#8EFEFFFF7FFF7FFC
(1785079441.529522) can0 18F01D21#AC821680FFFFFFFF
(1785079441.610613) can0 18FF50E0#001287EC7F0080D4
(1785079441.610749) can0 09F112F8#FF71760000FF7FFD
(1785079441.625769) can0 09F11219#8FFEFFFF7FFF7FFC
(1785079441.629917) can0 18F01D21#AC821680FFFFFFFF
(1785079441.711413) can0 18FF50E0#001287EC7F0080D5
(1785079441.725632) can0 09F11219#90FEFFFF7FFF7FFC
(1785079441.730301) can0 18F01D21#AC821680FFFFFFFF
(1785079441.749828) can0 09F112F8#FF75760000FF7FFD
(1785079441.812772) can0 18FF50E0#001287EB7F0080D6
(1785079441.825586) can0 09F11219#91FEFFFF7FFF7FFC
(1785079441.829578) can0 18F01D21#AC821680FFFFFFFF
(1785079441.894068) can0 09F112F8#FF79760000FF7FFD
(1785079441.913584) can0 18FF50E0#001287EB7F0080D7
(1785079441.925827) can0 09F11219#92FEFFFF7FFF7FFC
(1785079441.930220) can0 18F01D21#04831680FFFFFFFF
(1785079442.014482) can0 18FF50E0#001287EB7F0080D8
(1785079442.026244) can0 09F11219#93FEFFFF7FFF7FFC
(1785079442.028734) can0 09F112F8#FF79760000FF7FFD
(1785079442.030400) can0 18F01D21#04831680FFFFFFFF
(1785079442.115508) can0 18FF50E0#001287E97F0080D9
(1785079442.125829) can0 09F11219#94FEFFFF7FFF7FFC
(1785079442.129788) can0 18F01D21#04831680FFFFFFFF
(1785079442.168086) can0 09F112F8#FF7C760000FF7FFD
(1785079442.216230) can0 18FF50E0#001287E97F0080DA
(1785079442.225674) can0 09F11219#95FEFFFF7FFF7FFC
(1785079442.230057) can0 18F01D21#AC821680FFFFFFFF
(1785079442.307720) can0 09F112F8#FF7D760000FF7FFD
(1785079442.316779) can0 18FF50E0#001287E77F0080DB
(1785079442.325625) can0 09F11219#96FEFFFF7FFF7FFC
(1785079442.330453) can0 18F01D21#04831680FFFFFFFF
(1785079442.417213) can0 18FF50E0#001287E77F0080DC
(1785079442.425626) can0 09F11219#97FEFFFF7FFF7FFC
(1785079442.429878) can0 18F01D21#AC821680FFFFFFFF
(1785079442.444332) can0 09F112F8#FF7A760000FF7FFD
(1785079442.517729) can0 18FF50E0#001287E77F0080DD
(1785079442.526338) can0 09F11219#98FEFFFF7FFF7FFC
(1785079442.530097) can0 18F01D21#AC821680FFFFFFFF
(1785079442.578661) can0 09F112F8#FF78760000FF7FFD
(1785079442.618440) can0 18FF50E0#001287E67F0080DE
(1785079442.625673) can0 09F11219#99FEFFFF7FFF7FFC
(1785079442.630435) can0 18F01D21#AC821680FFFFFFFF
(1785079442.717726) can0 09F112F8#FF76760000FF7FFD
(1785079442.718826) can0 18FF50E0#001287E67F0080DF
(1785079442.725677) can0 09F11219#9AFEFFFF7FFF7FFC
(1785079442.729724) can0 18F01D21#AC821680FFFFFFFF
(1785079442.819426) can0 18FF50E0#001287E77F0080E0
(1785079442.825729) can0 09F11219#9BFEFFFF7FFF7FFC
(1785079442.830152) can0 18F01D21#AC821680FFFFFFFF
(1785079442.854556) can0 09F112F8#FF78760000FF7FFD
(1785079442.921139) can0 18FF50E0#001287E77F0080E1
(1785079442.925688) can0 09F11219#9CFEFFFF7FFF7FFC
(1785079442.930532) can0 18F01D21#AC821680FFFFFFFF
(1785079442.993176) can0 09F112F8#FF78760000FF7FFD
(1785079443.022285) can0 18FF50E0#001287E77F0080E2
(1785079443.026432) can0 09F11219#9DFEFFFF7FFF7FFC
(1785079443.029853) can0 18F01D21#AC821680FFFFFFFF
(1785079443.123342) can0 18FF50E0#001287E77F0080E3
(1785079443.125688) can0 09F11219#9EFEFFFF7FFF7FFC
(1785079443.128615) can0 09F112F8#FF76760000FF7FFD
(1785079443.130263) can0 18F01D21#04831680FFFFFFFF
(1785079443.224055) can0 18FF50E0#001287E77F0080E4
(1785079443.225770) can0 09F11219#9FFEFFFF7FFF7FFC
(1785079443.230574) can0 18F01D21#AC821680FFFFFFFF
(1785079443.267971) can0 09F112F8#FF77760000FF7FFD
(1785079443.324432) can0 18FF50E0#001287E77F0080E5
(1785079443.326054) can0 09F11219#A0FEFFFF7FFF7FFC
(1785079443.330093) can0 18F01D21#AC821680FFFFFFFF
(1785079443.404324) can0 09F112F8#FF7B760000FF7FFD
(1785079443.425283) can0 18FF50E0#001287E77F0080E6
(1785079443.425700) can0 09F11219#A1FEFFFF7FFF7FFC
(1785079443.430300) can0 18F01D21#AC821680FFFFFFFF
(1785079443.525865) can0 18FF50E0#001287E77F0080E7
(1785079443.526508) can0 09F11219#A2FEFFFF7FFF7FFC
(1785079443.530663) can0 18F01D21#AC821680FFFFFFFF
(1785079443.538825) can0 09F112F8#FF80760000FF7FFD
(1785079443.625795) can0 09F11219#A3FEFFFF7FFF7FFC
(1785079443.627517) can0 18FF50E0#001287E67F0080E8
(1785079443.630058) can0 18F01D21#AC821680FFFFFFFF
(1785079443.679111) can0 09F112F8#FF81760000FF7FFD
(1785079443.725670) can0 09F11219#A4FEFFFF7FFF7FFC
(1785079443.728133) can0 18FF50E0#001287E67F0080E9
(1785079443.730395) can0 18F01D21#04831680FFFFFFFF
(1785079443.818842) can0 09F112F8#FF84760000FF7FFD
(1785079443.825728) can0 09F11219#A5FEFFFF7FFF7FFC
(1785079443.828929) can0 18FF50E0#001287E37F0080EA
(1785079443.830870) can0 18F01D21#AC821680FFFFFFFF
(1785079443.925721) can0 09F11219#A6FEFFFF7FFF7FFC
(1785079443.929544) can0 18FF50E0#001287E37F0080EB
(1785079443.930038) can0 18F01D21#04831680FFFFFFFF
(1785079443.954376) can0 09F112F8#FF84760000FF7FFD
(1785079444.026322) can0 09F11219#A7FEFFFF7FFF7FFC
(1785079444.030166) can0 18FF50E0#001287E37F0080EC
(1785079444.030584) can0 18F01D21#04831680FFFFFFFF
(1785079444.093400) can0 09F112F8#FF84760000FF7FFD
(1785079444.125712) can0 09F11219#A8FEFFFF7FFF7FFC
(1785079444.130780) can0 18F01D21#AC821680FFFFFFFF
(1785079444.130895) can0 18FF50E0#001287E17F0080ED
(1785079444.225777) can0 09F11219#A9FEFFFF7FFF7FFC
(1785079444.229782) can0 09F112F8#FF83760000FF7FFD
(1785079444.230317) can0 18F01D21#04831680FFFFFFFF
(1785079444.232382) can0 18FF50E0#001287E17F0080EE
(1785079444.325780) can0 09F11219#AAFEFFFF7FFF7FFC
(1785079444.330542) can0 18F01D21#AC821680FFFFFFFF
(1785079444.332960) can0 18FF50E0#001287E17F0080EF
(1785079444.367932) can0 09F112F8#FF81760000FF7FFD
(1785079444.425725) can0 09F11219#ABFEFFFF7FFF7FFC
(1785079444.429813) can0 18F01D21#04831680FFFFFFFF
(1785079444.433879) can0 18FF50E0#001287E17F0080F0
(1785079444.505817) can0 09F112F8#FF80760000FF7FFD
(1785079444.526386) can0 09F11219#ACFEFFFF7FFF7FFC
(1785079444.530228) can0 18F01D21#04831680FFFFFFFF
(1785079444.535109) can0 18FF50E0#001287E17F0080F1
(1785079444.625751) can0 09F11219#ADFEFFFF7FFF7FFC
(1785079444.630535) can0 18F01D21#AC821680FFFFFFFF
(1785079444.636567) can0 18FF50E0#001287E27F0080F2
(1785079444.643518) can0 09F112F8#FF80760000FF7FFD
(1785079444.725718) can0 09F11219#AEFEFFFF7FFF7FFC
(1785079444.729911) can0 18F01D21#AC821680FFFFFFFF
(1785079444.737424) can0 18FF50E0#001287E27F0080F3
(1785079444.784158) can0 09F112F8#FF80760000FF7FFD
(1785079444.825791) can0 09F11219#AFFEFFFF7FFF7FFC
(1785079444.830274) can0 18F01D21#AC821680FFFFFFFF
(1785079444.838106) can0 18FF50E0#001287E27F0080F4
(1785079444.924140) can0 09F112F8#FF80760000FF7FFD
(1785079444.925779) can0 09F11219#B0FEFFFF7FFF7FFC
(1785079444.930596) can0 18F01D21#04831680FFFFFFFF
(1785079444.938844) can0 18FF50E0#001287E27F0080F5
(1785079445.026491) can0 09F11219#B1FEFFFF7FFF7FFC
(1785079445.030016) can0 18F01D21#04831680FFFFFFFF
(1785079445.039587) can0 18FF50E0#001287E27F0080F6
(1785079445.067285) can0 09F112F8#FF7E760000FF7FFD
(1785079445.125810) can0 09F11219#B2FEFFFF7FFF7FFC
(1785079445.130365) can0 18F01D21#AC821680FFFFFFFF
(1785079445.140409) can0 18FF50E0#001287E37F0080F7
(1785079445.200881) can0 09F112F8#FF7E760000FF7FFD
(1785079445.225840) can0 09F11219#B3FEFFFF7FFF7FFC
(1785079445.230834) can0 18F01D21#AC821680FFFFFFFF
(1785079445.241117) can0 18FF50E0#001287E37F0080F8
(1785079445.325832) can0 09F11219#B4FEFFFF7FFF7FFC
(1785079445.330025) can0 18F01D21#04831680FFFFFFFF
(1785079445.341907) can0 18FF50E0#01158700800080F9
(1785079445.344150) can0 09F112F8#FF81760000FF7FFD
(1785079445.425860) can0 09F11219#B5FEFFFF7FFF7FFC
(1785079445.430387) can0 18F01D21#04831680FFFFFFFF
(1785079445.443224) can0 18FF50E0#011587FF7F0080FA
(1785079445.480957) can0 09F112F8#FF86760000FF7FFD
(1785079445.526574) can0 09F11219#B6FEFFFF7FFF7FFC
(1785079445.530860) can0 18F01D21#AC821680FFFFFFFF
(1785079445.543892) can0 18FF50E0#011587FF7F0080FB
(1785079445.617865) can0 09F112F8#FF8A760000FF7FFD
(1785079445.625901) can0 09F11219#B7FEFFFF7FFF7FFC
(1785079445.630126) can0 18F01D21#933A168000A61580
(1785079445.646110) can0 18FF50E0#011587FE7F0080FC
(1785079445.725841) can0 09F11219#B8FEFFFF7FFF7FFC
(1785079445.730689) can0 18F01D21#CDCF158000A61580
(1785079445.747076) can0 18FF50E0#011587FE7F0080FD
(1785079445.754164) can0 09F112F8#FF8D760000FF7FFD
(1785079445.825902) can0 09F11219#B9FEFFFF7FFF7FFC
(1785079445.831073) can0 18F01D21#1F96158000A61580
(1785079445.849102) can0 18FF50E0#011587FE7F0080FE
(1785079445.907819) can0 09F112F8#FF91760000FF7FFD
(1785079445.925852) can0 09F11219#BAFEFFFF7FFF7FFC
(1785079445.930251) can0 18F01D21#A1A7158000A61580
(1785079445.950154) can0 18FF50E0#011587FB7F0080FF
(1785079446.026604) can0 09F11219#BBFEFFFF7FFF7FFC
(1785079446.030542) can0 18F01D21#92A5158000A61580
(1785079446.036817) can0 09F112F8#FF96760000FF7FFD
(1785079446.051507) can0 18FF50E0#011587FB7F008000
(1785079446.125946) can0 09F11219#BCFEFFFF7FFF7FFC
(1785079446.131046) can0 18F01D21#D3A2158000A61580
(1785079446.152522) can0 18FF50E0#011587F77F008001
(1785079446.176830) can0 09F112F8#FF9A760000FF7FFD
(1785079446.225977) can0 09F11219#BDFEFFFF7FFF7FFC
(1785079446.230246) can0 18F01D21#42A6158000A61580
(1785079446.254375) can0 18FF50E0#011587F77F008002
(1785079446.318877) can0 09F112F8#FF9D760000FF7FFD
(1785079446.325985) can0 09F11219#BEFEFFFF7FFF7FFC
(1785079446.330755) can0 18F01D21#42A6158000A61580
(1785079446.355319) can0 18FF50E0#011587F77F008003
(1785079446.426069) can0 09F11219#BFFEFFFF7FFF7FFC
(1785079446.430982) can0 18F01D21#42A6158000A61580
(1785079446.454231) can0 09F112F8#FF9F760000FF7FFD
(1785079446.456241) can0 18FF50E0#011587F27F008004
(1785079446.526798) can0 09F11219#C0FEFFFF7FFF7FFC
(1785079446.530367) can0 18F01D21#42A6158000A61580
(1785079446.557731) can0 18FF50E0#011587F27F008005
(1785079446.596832) can0 09F112F8#FF9F760000FF7FFD
(1785079446.625837) can0 09F11219#C1FEFFFF7FFF7FFC
(1785079446.630624) can0 18F01D21#42A6158000A61580
(1785079446.659548) can0 18FF50E0#011587EF7F008006
(1785079446.725952) can0 09F11219#C2FEFFFF7FFF7FFC
(1785079446.731036) can0 18F01D21#42A6158000A61580
(1785079446.734688) can0 09F112F8#FF9F760000FF7FFD
(1785079446.760215) can0 18FF50E0#011587EF7F008007
(1785079446.825889) can0 09F11219#C3FEFFFF7FFF7FFC
(1785079446.830449) can0 18F01D21#42A6158000A61580
(1785079446.860868) can0 18FF50E0#011587EF7F008008
(1785079446.873369) can0 09F112F8#FFA1760000FF7FFD
(1785079446.925889) can0 09F11219#C4FEFFFF7FFF7FFC
(1785079446.930861) can0 18F01D21#42A6158000A61580
(1785079446.961617) can0 18FF50E0#011587EE7F008009
(1785079447.013823) can0 09F112F8#FFA4760000FF7FFD
(1785079447.026536) can0 09F11219#C5FEFFFF7FFF7FFC
(1785079447.031294) can0 18F01D21#42A6158000A61580
(1785079447.062436) can0 18FF50E0#011587EE7F00800A
(1785079447.125898) can0 09F11219#C6FEFFFF7FFF7FFC
(1785079447.130615) can0 18F01D21#42A6158000A61580
(1785079447.150939) can0 09F112F8#FFAB760000FF7FFD
(1785079447.164022) can0 18FF50E0#011587EC7F00800B
(1785079447.225852) can0 09F11219#C7FEFFFF7FFF7FFC
(1785079447.230784) can0 18F01D21#42A6158000A61580
(1785079447.264887) can0 18FF50E0#011587EC7F00800C
(1785079447.289014) can0 09F112F8#FFB7760000FF7FFD
(1785079447.325865) can0 09F11219#C8FEFFFF7FFF7FFC
(1785079447.331138) can0 18F01D21#42A6158000A61580
(1785079447.365766) can0 18FF50E0#011587EC7F00800D
(1785079447.425878) can0 09F11219#C9FEFFFF7FFF7FFC
(1785079447.426844) can0 09F112F8#FFBD760000FF7FFD
(1785079447.430495) can0 18F01D21#42A6158000A61580
(1785079447.466524) can0 18FF50E0#011587E67F00800E
(1785079447.526670) can0 09F11219#CAFEFFFF7FFF7FFC
(1785079447.530861) can0 18F01D21#42A6158000A61580
(1785079447.564049) can0 09F112F8#FFC3760000FF7FFD
(1785079447.567347) can0 18FF50E0#011587E67F00800F
(1785079447.625923) can0 09F11219#CBFEFFFF7FFF7FFC
(1785079447.630202) can0 18F01D21#42A6158000A61580
(1785079447.668506) can0 18FF50E0#011587DF7F008010
(1785079447.704273) can0 09F112F8#FFCB760000FF7FFD
(1785079447.725936) can0 09F11219#CCFEFFFF7FFF7FFC
(1785079447.730589) can0 18F01D21#42A6158000A61580
(1785079447.769851) can0 18FF50E0#011587DF7F008011
(1785079447.825963) can0 09F11219#CDFEFFFF7FFF7FFC
(1785079447.830909) can0 18F01D21#42A6158000A61580
(1785079447.846882) can0 09F112F8#FFCC760000FF7FFD
(1785079447.870471) can0 18FF50E0#011587DF7F008012
(1785079447.925862) can0 09F11219#CEFEFFFF7FFF7FFC
(1785079447.930312) can0 18F01D21#42A6158000A61580
(1785079447.971405) can0 18FF50E0#011587D87F008013
(1785079447.989043) can0 09F112F8#FFCE760000FF7FFD
(1785079448.026711) can0 09F11219#CFFEFFFF7FFF7FFC
(1785079448.030637) can0 18F01D21#42A6158000A61580
(1785079448.071931) can0 18FF50E0#011587D87F008014
(1785079448.124294) can0 09F112F8#FFD0760000FF7FFD
(1785079448.125914) can0 09F11219#D0FEFFFF7FFF7FFC
(1785079448.131025) can0 18F01D21#42A6158000A61580
(1785079448.172649) can0 18FF50E0#011587D47F008015
(1785079448.226003) can0 09F11219#D1FEFFFF7FFF7FFC
(1785079448.230393) can0 18F01D21#42A6158000A61580
(1785079448.267890) can0 09F112F8#FFD1760000FF7FFD
(1785079448.273396) can0 18FF50E0#011587D47F008016
(1785079448.326028) can0 09F11219#D2FEFFFF7FFF7FFC
(1785079448.330864) can0 18F01D21#42A6158000A61580
(1785079448.374204) can0 18FF50E0#011587D47F008017
(1785079448.403022) can0 09F112F8#FFD5760000FF7FFD
(1785079448.426072) can0 09F11219#D3FEFFFF7FFF7FFC
(1785079448.431214) can0 18F01D21#42A6158000A61580
(1785079448.475146) can0 18FF50E0#011587D17F008018
(1785079448.526758) can0 09F11219#D4FEFFFF7FFF7FFC
(1785079448.530356) can0 18F01D21#42A6158000A61580
(1785079448.539871) can0 09F112F8#FFD6760000FF7FFD
(1785079448.576094) can0 18FF50E0#011587D17F008019
(1785079448.625931) can0 09F11219#D5FEFFFF7FFF7FFC
(1785079448.630898) can0 18F01D21#42A6158000A61580
(1785079448.677078) can0 09F112F8#FFD7760000FF7FFD
(1785079448.677298) can0 18FF50E0#011587CF7F00801A
(1785079448.726097) can0 09F11219#D6FEFFFF7FFF7FFC
(1785079448.731124) can0 18F01D21#42A6158000A61580
(1785079448.778509) can0 18FF50E0#011587CF7F00801B
(1785079448.819047) can0 09F112F8#FFDA760000FF7FFD
(1785079448.826033) can0 09F11219#D7FEFFFF7FFF7FFC
(1785079448.830515) can0 18F01D21#42A6158000A61580
(1785079448.879748) can0 18FF50E0#011587CF7F00801C
(1785079448.926081) can0 09F11219#D8FEFFFF7FFF7FFC
(1785079448.930882) can0 18F01D21#42A6158000A61580
(1785079448.957442) can0 09F112F8#FFD9760000FF7FFD
(1785079448.981719) can0 18FF50E0#011587CC7F00801D
(1785079449.026580) can0 09F11219#D9FEFFFF7FFF7FFC
(1785079449.031239) can0 18F01D21#42A6158000A61580
(1785079449.082912) can0 18FF50E0#011587CC7F00801E
(1785079449.094600) can0 09F112F8#FFD9760000FF7FFD
(1785079449.126099) can0 09F11219#DAFEFFFF7FFF7FFC
(1785079449.130699) can0 18F01D21#42A6158000A61580
(1785079449.184345) can0 18FF50E0#011587CB7F00801F
(1785079449.225950) can0 09F11219#DBFEFFFF7FFF7FFC
(1785079449.230944) can0 18F01D21#42A6158000A61580
(1785079449.233982) can0 09F112F8#FFD7760000FF7FFD
(1785079449.285306) can0 18FF50E0#011587CB7F008020
(1785079449.325879) can0 09F11219#DCFEFFFF7FFF7FFC
(1785079449.331344) can0 18F01D21#42A6158000A61580
(1785079449.367079) can0 09F112F8#FFD8760000FF7FFD
(1785079449.386600) can0 18FF50E0#011587CB7F008021
(1785079449.426017) can0 09F11219#DDFEFFFF7FFF7FFC
(1785079449.430567) can0 18F01D21#42A6158000A61580
(1785079449.487564) can0 18FF50E0#011587CB7F008022
(1785079449.505928) can0 09F112F8#FFD5760000FF7FFD
(1785079449.526745) can0 09F11219#DEFEFFFF7FFF7FFC
(1785079449.531103) can0 18F01D21#42A6158000A61580
(1785079449.589226) can0 18FF50E0#011F872F80008023
(1785079449.626126) can0 09F11219#DFFEFFFF7FFF7FFC
(1785079449.631366) can0 18F01D21#42A6158000A61580
(1785079449.644353) can0 09F112F8#FFD7760000FF7FFD
(1785079449.690684) can0 18FF50E0#011F873080008024
(1785079449.726079) can0 09F11219#E0FEFFFF7FFF7FFC
(1785079449.730847) can0 18F01D21#42A6158000A61580
(1785079449.784400) can0 09F112F8#FFD9760000FF7FFD
(1785079449.791525) can0 18FF50E0#011F873080008025
(1785079449.825947) can0 09F11219#E1FEFFFF7FFF7FFC
(1785079449.831123) can0 18F01D21#42A6158000A61580
(1785079449.892471) can0 18FF50E0#011F873080008026
(1785079449.926487) can0 09F11219#E2FEFFFF7FFF7FFC
(1785079449.927083) can0 09F112F8#FFD7760000FF7FFD
(1785079449.931377) can0 18F01D21#42A6158000A61580
(1785079449.993478) can0 18FF50E0#0129879480008027
(1785079450.026783) can0 09F11219#E3FEFFFF7FFF7FFC
(1785079450.030723) can0 18F01D21#42A6158000A61580
(1785079450.060585) can0 09F112F8#FFD7760000FF7FFD
(1785079450.096486) can0 18FF50E0#0129879480008028
(1785079450.125941) can0 09F11219#E4FEFFFF7FFF7FFC
(1785079450.131119) can0 18F01D21#42A6158000A61580
(1785079450.197404) can0 18FF50E0#013387F880008029
(1785079450.199988) can0 09F112F8#FFD7760000FF7FFD
(1785079450.225940) can0 09F11219#E5FEFFFF7FFF7FFC
(1785079450.231464) can0 18F01D21#42A6158000A61580
(1785079450.298327) can0 18FF50E0#013387F88000802A
(1785079450.325939) can0 09F11219#E6FEFFFF7FFF7FFC
(1785079450.330811) can0 18F01D21#9AA6158000A61580
(1785079450.338934) can0 09F112F8#FFD4760000FF7FFD
(1785079450.399190) can0 18FF50E0#013D875C8100802B
(1785079450.426494) can0 09F11219#E7FEFFFF7FFF7FFC
(1785079450.431530) can0 18F01D21#42A6158000A61580
(1785079450.477156) can0 09F112F8#FFD3760000FF7FFD
(1785079450.500132) can0 18FF50E0#013D875D8100802C
(1785079450.526786) can0 09F11219#E8FEFFFF7FFF7FFC
(1785079450.531540) can0 18F01D21#42A6158000A61580
(1785079450.601378) can0 18FF50E0#014787C18100802D
(1785079450.614639) can0 09F112F8#FFD2760000FF7FFD
(1785079450.626037) can0 09F11219#E9FEFFFF7FFF7FFC
(1785079450.630992) can0 18F01D21#6CB7158000FF1680
(1785079450.704395) can0 18FF50E0#015187268200802E
(1785079450.726133) can0 09F11219#EAFEFFFF7FFF7FFC
(1785079450.731348) can0 18F01D21#B811168000FF1680
(1785079450.748970) can0 09F112F8#FFCC760000FF7FFD
(1785079450.805100) can0 18FF50E0#015187268200802F
(1785079450.826242) can0 09F11219#EBFEFFFF7FFF7FFC
(1785079450.830602) can0 18F01D21#0F79168000FF1680
(1785079450.887323) can0 09F112F8#FFC3760000FF7FFD
(1785079450.906015) can0 18FF50E0#015B878A82008030
(1785079450.926059) can0 09F11219#ECFEFFFF7FFF7FFC
(1785079450.931077) can0 18F01D21#0EE0168000FF1680
(1785079451.007709) can0 18FF50E0#015B878F82008031
(1785079451.026621) can0 09F11219#EDFEFFFF7FFF7FFC
(1785079451.027177) can0 09F112F8#FFBD760000FF7FFD
(1785079451.031496) can0 18F01D21#2205178000FF1680
(1785079451.108590) can0 18FF50E0#016587F382008032
(1785079451.126008) can0 09F11219#EEFEFFFF7FFF7FFC
(1785079451.130665) can0 18F01D21#A4FF168000FF1680
(1785079451.163463) can0 09F112F8#FFBA760000FF7FFD
(1785079451.209326) can0 18FF50E0#016587F882008033
(1785079451.226070) can0 09F11219#EFFEFFFF7FFF7FFC
(1785079451.231033) can0 18F01D21#A4FF168000FF1680
(1785079451.296335) can0 09F112F8#FFB7760000FF7FFD
(1785079451.310284) can0 18FF50E0#016F875C83008034
(1785079451.326164) can0 09F11219#F0FEFFFF7FFF7FFC
(1785079451.331385) can0 18F01D21#A4FF168000FF1680
(1785079451.411313) can0 18FF50E0#016F875C83008035
(1785079451.426144) can0 09F11219#F1FEFFFF7FFF7FFC
(1785079451.430883) can0 18F01D21#A4FF168000FF1680
(1785079451.438250) can0 09F112F8#FFB4760000FF7FFD
(1785079451.512672) can0 18FF50E0#017987C583008036
(1785079451.526760) can0 09F11219#F2FEFFFF7FFF7FFC
(1785079451.531250) can0 18F01D21#A4FF168000FF1680
(1785079451.573782) can0 09F112F8#FFAF760000FF7FFD
(1785079451.614157) can0 18FF50E0#017987C583008037
(1785079451.626191) can0 09F11219#F3FEFFFF7FFF7FFC
(1785079451.631746) can0 18F01D21#0B02178000AB1980
(1785079451.713553) can0 09F112F8#FFAC760000FF7FFD
(1785079451.715808) can0 18FF50E0#0183872D84008038
(1785079451.726285) can0 09F11219#F4FEFFFF7FFF7FFC
(1785079451.730994) can0 18F01D21#3335178000AB1980
(1785079451.816645) can0 18FF50E0#0183872D84008039
(1785079451.826094) can0 09F11219#F5FEFFFF7FFF7FFC
(1785079451.831271) can0 18F01D21#3986178000AB1980
(1785079451.849420) can0 09F112F8#FFAA760000FF7FFD
(1785079451.917390) can0 18FF50E0#018D87918400803A
(1785079451.926168) can0 09F11219#F6FEFFFF7FFF7FFC
(1785079451.931542) can0 18F01D21#9FEF178000AB1980
(1785079451.989026) can0 09F112F8#FFAA760000FF7FFD
(1785079452.018131) can0 18FF50E0#018D87958400803B
(1785079452.027135) can0 09F11219#F7FEFFFF7FFF7FFC
(1785079452.030934) can0 18F01D21#4756188000AB1980
(1785079452.119439) can0 18FF50E0#018D87958400803C
(1785079452.124431) can0 09F112F8#FFAA760000FF7FFD
(1785079452.126158) can0 09F11219#F8FEFFFF7FFF7FFC
(1785079452.131269) can0 18F01D21#46BD188000AB1980
(1785079452.220106) can0 18FF50E0#018D87978400803D
(1785079452.226260) can0 09F11219#F9FEFFFF7FFF7FFC
(1785079452.231790) can0 18F01D21#FD25198000AB1980
(1785079452.264387) can0 09F112F8#FFAA760000FF7FFD
(1785079452.321004) can0 18FF50E0#018D87978400803E
(1785079452.326241) can0 09F11219#FAFEFFFF7FFF7FFC
(1785079452.331016) can0 18F01D21#F48B198000AB1980
(1785079452.403769) can0 09F112F8#FFA8760000FF7FFD
(1785079452.421786) can0 18FF50E0#018D87978400803F
(1785079452.426114) can0 09F11219#00FEFFFF7FFF7FFC
(1785079452.431414) can0 18F01D21#70B3198000AB1980
(1785079452.522770) can0 18FF50E0#018D879884008040
(1785079452.526942) can0 09F11219#01FEFFFF7FFF7FFC
(1785079452.531685) can0 18F01D21#D3A9198000AB1980
(1785079452.536036) can0 09F112F8#FFA7760000FF7FFD
(1785079452.623559) can0 18FF50E0#018D879884008041
(1785079452.626212) can0 09F11219#02FEFFFF7FFF7FFC
(1785079452.631123) can0 18F01D21#D3A9198000521B80
(1785079452.675452) can0 09F112F8#FFAB760000FF7FFD
(1785079452.725949) can0 18FF50E0#018D879884008042
(1785079452.726443) can0 09F11219#03FEFFFF7FFF7FFC
(1785079452.731472) can0 18F01D21#DCD8198000521B80
(1785079452.814372) can0 09F112F8#FFAD760000FF7FFD
(1785079452.826109) can0 09F11219#04FEFFFF7FFF7FFC
(1785079452.827547) can0 18FF50E0#018D879884008043
(1785079452.831831) can0 18F01D21#B02E1A8000521B80
(1785079452.926126) can0 09F11219#05FEFFFF7FFF7FFC
(1785079452.928717) can0 18FF50E0#018D879884008044
(1785079452.931160) can0 18F01D21#0F971A8000521B80
(1785079452.957308) can0 09F112F8#FFB0760000FF7FFD
(1785079453.026980) can0 09F11219#06FEFFFF7FFF7FFC
(1785079453.030881) can0 18FF50E0#018D879684008045
(1785079453.031414) can0 18F01D21#16FF1A8000521B80
(1785079453.094419) can0 09F112F8#FFAF760000FF7FFD
(1785079453.126168) can0 09F11219#07FEFFFF7FFF7FFC
(1785079453.131797) can0 18F01D21#7C511B8000521B80
(1785079453.134264) can0 18FF50E0#018D879684008046
(1785079453.226127) can0 09F11219#08FEFFFF7FFF7FFC
(1785079453.231202) can0 18F01D21#DB521B8000521B80
(1785079453.235011) can0 18FF50E0#018D879584008047
(1785079453.239037) can0 09F112F8#FFAD760000FF7FFD
(1785079453.326285) can0 09F11219#09FEFFFF7FFF7FFC
(1785079453.331518) can0 18F01D21#CC501B8000521B80
(1785079453.335966) can0 18FF50E0#018D879584008048
(1785079453.377231) can0 09F112F8#FFAF760000FF7FFD
(1785079453.426173) can0 09F11219#0AFEFFFF7FFF7FFC
(1785079453.432037) can0 18F01D21#CC501B8000521B80
(1785079453.436810) can0 18FF50E0#018D879584008049
(1785079453.514863) can0 09F112F8#FFB3760000FF7FFD
(1785079453.526794) can0 09F11219#0BFEFFFF7FFF7FFC
(1785079453.531424) can0 18F01D21#CC501B8000521B80
(1785079453.537765) can0 18FF50E0#018D87958400804A
(1785079453.626265) can0 09F11219#0CFEFFFF7FFF7FFC
(1785079453.631746) can0 18F01D21#CC501B8000521B80
(1785079453.639604) can0 18FF50E0#018D87958400804B
(1785079453.657034) can0 09F112F8#FFB2760000FF7FFD
(1785079453.726355) can0 09F11219#0DFEFFFF7FFF7FFC
(1785079453.731884) can0 18F01D21#CC501B8000521B80
(1785079453.741560) can0 18FF50E0#018D87948400804C
(1785079453.794939) can0 09F112F8#FFB0760000FF7FFD
(1785079453.826074) can0 09F11219#0EFEFFFF7FFF7FFC
(1785079453.831236) can0 18F01D21#CC501B8000521B80
(1785079453.842458) can0 18FF50E0#018D87948400804D
(1785079453.926155) can0 09F11219#0FFEFFFF7FFF7FFC
(1785079453.931623) can0 18F01D21#CC501B8000521B80
(1785079453.937103) can0 09F112F8#FFAE760000FF7FFD
(1785079453.943657) can0 18FF50E0#018D87948400804E
(1785079454.026925) can0 09F11219#10FEFFFF7FFF7FFC
(1785079454.031157) can0 18F01D21#CC501B8000521B80
(1785079454.044419) can0 18FF50E0#018D87958400804F
(1785079454.077073) can0 09F112F8#FFAF760000FF7FFD
(1785079454.126116) can0 09F11219#11FEFFFF7FFF7FFC
(1785079454.131290) can0 18F01D21#CC501B8000521B80
(1785079454.145577) can0 18FF50E0#018D879584008050
(1785079454.209233) can0 09F112F8#FFAC760000FF7FFD
(1785079454.226278) can0 09F11219#12FEFFFF7FFF7FFC
(1785079454.231860) can0 18F01D21#CC501B8000521B80
(1785079454.246464) can0 18FF50E0#018D879684008051
(1785079454.326078) can0 09F11219#13FEFFFF7FFF7FFC
(1785079454.330996) can0 18F01D21#CC501B8000521B80
(1785079454.347783) can0 18FF50E0#018D879684008052
(1785079454.353599) can0 09F112F8#FFAB760000FF7FFD
(1785079454.426128) can0 09F11219#14FEFFFF7FFF7FFC
(1785079454.431373) can0 18F01D21#CC501B8000521B80
(1785079454.448563) can0 18FF50E0#018D879684008053
(1785079454.488075) can0 09F112F8#FFAD760000FF7FFD
(1785079454.526977) can0 09F11219#15FEFFFF7FFF7FFC
(1785079454.531775) can0 18F01D21#CC501B8000521B80
(1785079454.549387) can0 18FF50E0#018D879684008054
(1785079454.623838) can0 09F112F8#FFAF760000FF7FFD
(1785079454.626244) can0 09F11219#16FEFFFF7FFF7FFC
(1785079454.631237) can0 18F01D21#CC501B8000521B80
(1785079454.650469) can0 18FF50E0#018D879684008055
(1785079454.726344) can0 09F11219#17FEFFFF7FFF7FFC
(1785079454.731654) can0 18F01D21#CC501B8000521B80
(1785079454.752490) can0 18FF50E0#018D879684008056
(1785079454.767101) can0 09F112F8#FFB2760000FF7FFD
(1785079454.826169) can0 09F11219#18FEFFFF7FFF7FFC
(1785079454.831982) can0 18F01D21#CC501B8000521B80
(1785079454.854060) can0 18FF50E0#018D879684008057
(1785079454.908383) can0 09F112F8#FFB1760000FF7FFD
(1785079454.926245) can0 09F11219#19FEFFFF7FFF7FFC
(1785079454.931134) can0 18F01D21#CC501B8000521B80
(1785079454.954761) can0 18FF50E0#018D879684008058
(1785079455.029516) can0 09F11219#1AFEFFFF7FFF7FFC
(1785079455.031505) can0 18F01D21#CC501B8000521B80
(1785079455.044948) can0 09F112F8#FFB0760000FF7FFD
(1785079455.055555) can0 18FF50E0#018D879584008059
(1785079455.126131) can0 09F11219#1BFEFFFF7FFF7FFC
(1785079455.131869) can0 18F01D21#CC501B8000521B80
(1785079455.156789) can0 18FF50E0#018D87958400805A
(1785079455.180248) can0 09F112F8#FFB4760000FF7FFD
(1785079455.226142) can0 09F11219#1CFEFFFF7FFF7FFC
(1785079455.231244) can0 18F01D21#CC501B8000521B80
(1785079455.258519) can0 18FF50E0#018D87938400805B
(1785079455.324157) can0 09F112F8#FFB5760000FF7FFD
(1785079455.326349) can0 09F11219#1DFEFFFF7FFF7FFC
(1785079455.331589) can0 18F01D21#CC501B8000521B80
(1785079455.361052) can0 18FF50E0#018D87938400805C
(1785079455.426471) can0 09F11219#1EFEFFFF7FFF7FFC
(1785079455.432011) can0 18F01D21#CC501B8000521B80
(1785079455.463989) can0 18FF50E0#018D87938400805D
(1785079455.466460) can0 09F112F8#FFB7760000FF7FFD
(1785079455.527171) can0 09F11219#1FFEFFFF7FFF7FFC
(1785079455.531312) can0 18F01D21#CC501B8000521B80
(1785079455.565077) can0 18FF50E0#018D87928400805E
(1785079455.598699) can0 09F112F8#FFBA760000FF7FFD
(1785079455.626234) can0 09F11219#20FEFFFF7FFF7FFC
(1785079455.631692) can0 18F01D21#CC501B8000521B80
(1785079455.665858) can0 18FF50E0#018D87928400805F
(1785079455.726411) can0 09F11219#21FEFFFF7FFF7FFC
(1785079455.732193) can0 18F01D21#CC501B8000521B80
(1785079455.739124) can0 09F112F8#FFBB760000FF7FFD
(1785079455.767126) can0 18FF50E0#018D879284008060
(1785079455.826257) can0 09F11219#22FEFFFF7FFF7FFC
(1785079455.831556) can0 18F01D21#CC501B8000521B80
(1785079455.869085) can0 18FF50E0#018D879084008061
(1785079455.879113) can0 09F112F8#FFBF760000FF7FFD
(1785079455.926357) can0 09F11219#23FEFFFF7FFF7FFC
(1785079455.931880) can0 18F01D21#CC501B8000521B80
(1785079455.969838) can0 18FF50E0#018D879084008062
(1785079456.016238) can0 09F112F8#FFBF760000FF7FFD
(1785079456.026950) can0 09F11219#24FEFFFF7FFF7FFC
(1785079456.032288) can0 18F01D21#CC501B8000521B80
(1785079456.070556) can0 18FF50E0#018D878E84008063
(1785079456.126449) can0 09F11219#25FEFFFF7FFF7FFC
(1785079456.131602) can0 18F01D21#CC501B8000521B80
(1785079456.157102) can0 09F112F8#FFBD760000FF7FFD
(1785079456.174356) can0 18FF50E0#018D878E84008064
(1785079456.226262) can0 09F11219#26FEFFFF7FFF7FFC
(1785079456.231807) can0 18F01D21#CC501B8000521B80
(1785079456.275102) can0 18FF50E0#018D878D84008065
(1785079456.294718) can0 09F112F8#FFBD760000FF7FFD
(1785079456.326241) can0 09F11219#27FEFFFF7FFF7FFC
(1785079456.332145) can0 18F01D21#CC501B8000521B80
(1785079456.376039) can0 18FF50E0#018D878D84008066
(1785079456.426269) can0 09F11219#28FEFFFF7FFF7FFC
(1785079456.431506) can0 18F01D21#CC501B8000521B80
(1785079456.436138) can0 09F112F8#FFBC760000FF7FFD
(1785079456.477435) can0 18FF50E0#018D878D84008067
(1785079456.527100) can0 09F11219#29FEFFFF7FFF7FFC
(1785079456.531993) can0 18F01D21#CC501B8000521B80
(1785079456.577150) can0 09F112F8#FFBE760000FF7FFD
(1785079456.579539) can0 18FF50E0#018D878D84008068
(1785079456.626499) can0 09F11219#2AFEFFFF7FFF7FFC
(1785079456.632328) can0 18F01D21#CC501B8000521B80
(1785079456.682065) can0 18FF50E0#018D878D84008069
(1785079456.714777) can0 09F112F8#FFC1760000FF7FFD
(1785079456.726260) can0 09F11219#2BFEFFFF7FFF7FFC
(1785079456.731837) can0 18F01D21#CC501B8000521B80
(1785079456.783286) can0 18FF50E0#018D878D8400806A
(1785079456.826252) can0 09F11219#2CFEFFFF7FFF7FFC
(1785079456.831909) can0 18F01D21#CC501B8000521B80
(1785079456.853706) can0 09F112F8#FFBE760000FF7FFD
(1785079456.884061) can0 18FF50E0#018D878C8400806B
(1785079456.926305) can0 09F11219#2DFEFFFF7FFF7FFC
(1785079456.932281) can0 18F01D21#CC501B8000521B80
(1785079456.984843) can0 18FF50E0#018D878C8400806C
(1785079456.995144) can0 09F112F8#FFBB760000FF7FFD
(1785079457.028847) can0 09F11219#2EFEFFFF7FFF7FFC
(1785079457.031650) can0 18F01D21#CC501B8000521B80
(1785079457.085378) can0 18FF50E0#018D878C8400806D
(1785079457.126364) can0 09F11219#2FFEFFFF7FFF7FFC
(1785079457.131305) can0 09F112F8#FFB9760000FF7FFD
(1785079457.131990) can0 18F01D21#CC501B8000521B80
(1785079457.186060) can0 18FF50E0#018D878C8400806E
(1785079457.226274) can0 09F11219#30FEFFFF7FFF7FFC
(1785079457.231359) can0 18F01D21#CC501B8000521B80
(1785079457.268543) can0 09F112F8#FFB5760000FF7FFD
(1785079457.286781) can0 18FF50E0#018D878C8400806F
(1785079457.326409) can0 09F11219#31FEFFFF7FFF7FFC
(1785079457.331882) can0 18F01D21#CC501B8000521B80
(1785079457.387608) can0 18FF50E0#018D878F84008070
(1785079457.409163) can0 09F112F8#FFB5760000FF7FFD
(1785079457.426289) can0 09F11219#32FEFFFF7FFF7FFC
(1785079457.432098) can0 18F01D21#CC501B8000521B80
(1785079457.488418) can0 18FF50E0#018D878F84008071
(1785079457.527250) can0 09F11219#33FEFFFF7FFF7FFC
(1785079457.531427) can0 18F01D21#CC501B8000521B80
(1785079457.541174) can0 09F112F8#FFB4760000FF7FFD
(1785079457.589097) can0 18FF50E0#018D879084008072
(1785079457.626297) can0 09F11219#34FEFFFF7FFF7FFC
(1785079457.631915) can0 18F01D21#CC501B8000521B80
(1785079457.681511) can0 09F112F8#FFB2760000FF7FFD
(1785079457.689821) can0 18FF50E0#018D879084008073
(1785079457.726626) can0 09F11219#35FEFFFF7FFF7FFC
(1785079457.732279) can0 18F01D21#705B1B8000A71B80
(1785079457.792411) can0 18FF50E0#018D879084008074
(1785079457.818582) can0 09F112F8#FFB2760000FF7FFD
(1785079457.826232) can0 09F11219#36FEFFFF7FFF7FFC
(1785079457.831485) can0 18F01D21#A49B1B8000A71B80
(1785079457.893254) can0 18FF50E0#018D879284008075
(1785079457.926260) can0 09F11219#37FEFFFF7FFF7FFC
(1785079457.931955) can0 18F01D21#4DB21B8000A71B80
(1785079457.959178) can0 09F112F8#FFAD760000FF7FFD
(1785079457.994116) can0 18FF50E0#018D879284008076
(1785079458.026941) can0 09F11219#38FEFFFF7FFF7FFC
(1785079458.032171) can0 18F01D21#39A41B8000A71B80
(1785079458.094560) can0 09F112F8#FFAA760000FF7FFD
(1785079458.094819) can0 18FF50E0#018D879484008077
(1785079458.126256) can0 09F11219#39FEFFFF7FFF7FFC
(1785079458.131557) can0 18F01D21#A8A71B8000A71B80
(1785079458.196506) can0 18FF50E0#018D879484008078
(1785079458.226277) can0 09F11219#3AFEFFFF7FFF7FFC
(1785079458.231881) can0 18F01D21#B0A81B8000A71B80
(1785079458.236182) can0 09F112F8#FFA7760000FF7FFD
(1785079458.297337) can0 18FF50E0#018D879484008079
(1785079458.326625) can0 09F11219#3BFEFFFF7FFF7FFC
(1785079458.332302) can0 18F01D21#08A91B8000A71B80
(1785079458.370183) can0 09F112F8#FFA5760000FF7FFD
(1785079458.398602) can0 18FF50E0#018D87978400807A
(1785079458.426629) can0 09F11219#3CFEFFFF7FFF7FFC
(1785079458.431629) can0 18F01D21#B0A81B8000A71B80
(1785079458.499967) can0 18FF50E0#018D87978400807B
(1785079458.508239) can0 09F112F8#FFA3760000FF7FFD
(1785079458.527118) can0 09F11219#3DFEFFFF7FFF7FFC
(1785079458.532097) can0 18F01D21#B0A81B8000A71B80
(1785079458.600927) can0 18FF50E0#018D879A8400807C
(1785079458.626694) can0 09F11219#3EFEFFFF7FFF7FFC
(1785079458.632338) can0 18F01D21#08A91B8000A71B80
(1785079458.643720) can0 09F112F8#FFA2760000FF7FFD
(1785079458.701864) can0 18FF50E0#018D879A8400807D
(1785079458.726433) can0 09F11219#3FFEFFFF7FFF7FFC
(1785079458.731712) can0 18F01D21#B0A81B8000A71B80
(1785079458.785139) can0 09F112F8#FF9F760000FF7FFD
(1785079458.803748) can0 18FF50E0#018D879A8400807E
(1785079458.826417) can0 09F11219#40FEFFFF7FFF7FFC
(1785079458.832062) can0 18F01D21#B0A81B8000A71B80
(1785079458.904535) can0 18FF50E0#018D879C8400807F
(1785079458.921214) can0 09F112F8#FF9B760000FF7FFD
(1785079458.926437) can0 09F11219#41FEFFFF7FFF7FFC
(1785079458.932363) can0 18F01D21#B0A81B8000A71B80
(1785079459.005374) can0 18FF50E0#018D879C84008080
(1785079459.027149) can0 09F11219#42FEFFFF7FFF7FFC
(1785079459.032172) can0 18F01D21#B0A81B8000A71B80
(1785079459.064471) can0 09F112F8#FF95760000FF7FFD
(1785079459.106627) can0 18FF50E0#018D879F84008081
(1785079459.126523) can0 09F11219#43FEFFFF7FFF7FFC
(1785079459.132257) can0 18F01D21#B0A81B8000A71B80
(1785079459.203336) can0 09F112F8#FF90760000FF7FFD
(1785079459.207518) can0 18FF50E0#018D879F84008082
(1785079459.226629) can0 09F11219#44FEFFFF7FFF7FFC
(1785079459.232501) can0 18F01D21#B0A81B8000A71B80
(1785079459.308216) can0 18FF50E0#018D879F84008083
(1785079459.326421) can0 09F11219#45FEFFFF7FFF7FFC
(1785079459.331832) can0 18F01D21#B0A81B8000A71B80
(1785079459.336210) can0 09F112F8#FF8F760000FF7FFD
(1785079459.409192) can0 18FF50E0#018D87A384008084
(1785079459.426415) can0 09F11219#46FEFFFF7FFF7FFC
(1785079459.432158) can0 18F01D21#B0A81B8000A71B80
(1785079459.476230) can0 09F112F8#FF91760000FF7FFD
(1785079459.509888) can0 18FF50E0#018D87A384008085
(1785079459.527274) can0 09F11219#47FEFFFF7FFF7FFC
(1785079459.532512) can0 18F01D21#B0A81B8000A71B80
(1785079459.609639) can0 09F112F8#FF8E760000FF7FFD
(1785079459.610671) can0 18FF50E0#018D87A684008086
(1785079459.626393) can0 09F11219#48FEFFFF7FFF7FFC
(1785079459.632013) can0 18F01D21#B0A81B8000A71B80
(1785079459.711455) can0 18FF50E0#018D87A684008087
(1785079459.726685) can0 09F11219#49FEFFFF7FFF7FFC
(1785079459.732271) can0 18F01D21#B0A81B8000A71B80
(1785079459.751226) can0 09F112F8#FF8B760000FF7FFD
(1785079459.812539) can0 18FF50E0#018D87A684008088
(1785079459.826382) can0 09F11219#4AFEFFFF7FFF7FFC
(1785079459.832639) can0 18F01D21#B0A81B8000A71B80
(1785079459.891399) can0 09F112F8#FF87760000FF7FFD
(1785079459.913300) can0 18FF50E0#018D87A884008089
(1785079459.926529) can0 09F11219#4BFEFFFF7FFF7FFC
(1785079459.931927) can0 18F01D21#B0A81B8000A71B80
(1785079460.014677) can0 18FF50E0#018D87A88400808A
(1785079460.027029) can0 09F11219#4CFEFFFF7FFF7FFC
(1785079460.028642) can0 09F112F8#FF84760000FF7FFD
(1785079460.032286) can0 18F01D21#B0A81B8000A71B80
(1785079460.115851) can0 18FF50E0#018D87AB8400808B
(1785079460.126300) can0 09F11219#4DFEFFFF7FFF7FFC
(1785079460.132638) can0 18F01D21#B0A81B8000A71B80
(1785079460.169278) can0 09F112F8#FF86760000FF7FFD
(1785079460.216690) can0 18FF50E0#018D87AB8400808C
(1785079460.226351) can0 09F11219#4EFEFFFF7FFF7FFC
(1785079460.232003) can0 18F01D21#B0A81B8000A71B80
(1785079460.306837) can0 09F112F8#FF84760000FF7FFD
(1785079460.317576) can0 18FF50E0#018D87AB8400808D
(1785079460.326359) can0 09F11219#4FFEFFFF7FFF7FFC
(1785079460.332382) can0 18F01D21#B0A81B8000A71B80
(1785079460.418627) can0 18FF50E0#018D87AD8400808E
(1785079460.426361) can0 09F11219#50FEFFFF7FFF7FFC
(1785079460.431685) can0 18F01D21#B0A81B8000A71B80
(1785079460.448252) can0 09F112F8#FF80760000FF7FFD
(1785079460.520450) can0 18FF50E0#018D87AD8400808F
(1785079460.527153) can0 09F11219#51FEFFFF7FFF7FFC
(1785079460.532081) can0 18F01D21#B0A81B8000A71B80
(1785079460.589276) can0 09F112F8#FF80760000FF7FFD
(1785079460.621036) can0 18FF50E0#018D87AF84008090
(1785079460.626524) can0 09F11219#52FEFFFF7FFF7FFC
(1785079460.632465) can0 18F01D21#B0A81B8000A71B80
(1785079460.721900) can0 18FF50E0#018D87AF84008091
(1785079460.726455) can0 09F11219#53FEFFFF7FFF7FFC
(1785079460.727629) can0 09F112F8#FF82760000FF7FFD
(1785079460.731782) can0 18F01D21#77AC1B8000111C80
(1785079460.824037) can0 18FF50E0#018D87AF84008092
(1785079460.826429) can0 09F11219#54FEFFFF7FFF7FFC
(1785079460.832243) can0 18F01D21#5EF91B8000111C80
(1785079460.869370) can0 09F112F8#FF86760000FF7FFD
(1785079460.924640) can0 18FF50E0#018D87B084008093
(1785079460.926684) can0 09F11219#55FEFFFF7FFF7FFC
(1785079460.932650) can0 18F01D21#DA201C8000111C80
(1785079461.017161) can0 09F112F8#FF85760000FF7FFD
(1785079461.025533) can0 18FF50E0#018D87B084008094
(1785079461.027584) can0 09F11219#56FEFFFF7FFF7FFC
(1785079461.031851) can0 18F01D21#07101C8000111C80
(1785079461.126254) can0 18FF50E0#018D87AF84008095
(1785079461.126501) can0 09F11219#57FEFFFF7FFF7FFC
(1785079461.132385) can0 18F01D21#890A1C8000111C80
(1785079461.143798) can0 09F112F8#FF84760000FF7FFD
(1785079461.226418) can0 09F11219#58FEFFFF7FFF7FFC
(1785079461.227032) can0 18FF50E0#018D87AF84008096
(1785079461.232538) can0 18F01D21#26141C8000111C80
(1785079461.278757) can0 09F112F8#FF80760000FF7FFD
(1785079461.326473) can0 09F11219#59FEFFFF7FFF7FFC
(1785079461.328284) can0 18FF50E0#018D87AF84008097
(1785079461.331870) can0 18F01D21#6E121C8000111C80
(1785079461.419466) can0 09F112F8#FF7E760000FF7FFD
(1785079461.426475) can0 09F11219#5AFEFFFF7FFF7FFC
(1785079461.429152) can0 18FF50E0#018D87B084008098
(1785079461.432262) can0 18F01D21#BE111C8000111C80
(1785079461.527305) can0 09F11219#5BFEFFFF7FFF7FFC
(1785079461.530720) can0 18FF50E0#018D87B084008099
(1785079461.532646) can0 18F01D21#BE111C8000111C80
(1785079461.556639) can0 09F112F8#FF7B760000FF7FFD
(1785079461.626420) can0 09F11219#5CFEFFFF7FFF7FFC
(1785079461.631437) can0 18FF50E0#018D87B28400809A
(1785079461.632036) can0 18F01D21#BE111C8000111C80
(1785079461.698367) can0 09F112F8#FF79760000FF7FFD
(1785079461.726739) can0 09F11219#5DFEFFFF7FFF7FFC
(1785079461.732122) can0 18FF50E0#018D87B28400809B
(1785079461.732355) can0 18F01D21#BE111C8000111C80
(1785079461.826418) can0 09F11219#5EFEFFFF7FFF7FFC
(1785079461.832711) can0 18F01D21#BE111C8000111C80
(1785079461.832954) can0 18FF50E0#018D87B28400809C
(1785079461.839378) can0 09F112F8#FF76760000FF7FFD
(1785079461.926516) can0 09F11219#5FFEFFFF7FFF7FFC
(1785079461.932043) can0 18F01D21#BE111C8000111C80
(1785079461.934947) can0 18FF50E0#018D87B48400809D
(1785079461.973786) can0 09F112F8#FF77760000FF7FFD
(1785079462.027085) can0 09F11219#60FEFFFF7FFF7FFC
(1785079462.032367) can0 18F01D21#BE111C8000111C80
(1785079462.035632) can0 18FF50E0#018D87B48400809E
(1785079462.115177) can0 09F112F8#FF79760000FF7FFD
(1785079462.126441) can0 09F11219#61FEFFFF7FFF7FFC
(1785079462.132829) can0 18F01D21#BE111C8000111C80
(1785079462.137168) can0 18FF50E0#018D87B68400809F
(1785079462.226637) can0 09F11219#62FEFFFF7FFF7FFC
(1785079462.232239) can0 18F01D21#BE111C8000111C80
(1785079462.237901) can0 18FF50E0#018D87B6840080A0
(1785079462.254407) can0 09F112F8#FF7D760000FF7FFD
(1785079462.326663) can0 09F11219#63FEFFFF7FFF7FFC
(1785079462.332508) can0 18F01D21#BE111C8000111C80
(1785079462.338614) can0 18FF50E0#018D87B6840080A1
(1785079462.393824) can0 09F112F8#FF7F760000FF7FFD
(1785079462.426501) can0 09F11219#64FEFFFF7FFF7FFC
(1785079462.432820) can0 18F01D21#BE111C8000111C80
(1785079462.439363) can0 18FF50E0#018D87B5840080A2
(1785079462.527265) can0 09F11219#65FEFFFF7FFF7FFC
(1785079462.532183) can0 18F01D21#BE111C8000111C80
(1785079462.534146) can0 09F112F8#FF81760000FF7FFD
(1785079462.540726) can0 18FF50E0#018D87B5840080A3
(1785079462.626407) can0 09F11219#66FEFFFF7FFF7FFC
(1785079462.632527) can0 18F01D21#BE111C8000111C80
(1785079462.642255) can0 18FF50E0#018D87B2840080A4
(1785079462.670330) can0 09F112F8#FF7E760000FF7FFD
(1785079462.726532) can0 09F11219#67FEFFFF7FFF7FFC
(1785079462.732928) can0 18F01D21#BE111C8000111C80
(1785079462.744799) can0 18FF50E0#018D87B2840080A5
(1785079462.809308) can0 09F112F8#FF7C760000FF7FFD
(1785079462.826432) can0 09F11219#68FEFFFF7FFF7FFC
(1785079462.832206) can0 18F01D21#BE111C8000111C80
(1785079462.845921) can0 18FF50E0#018D87B2840080A6
(1785079462.926672) can0 09F11219#69FEFFFF7FFF7FFC
(1785079462.932735) can0 18F01D21#BE111C8000111C80
(1785079462.946938) can0 18FF50E0#018D87B2840080A7
(1785079462.947414) can0 09F112F8#FF7B760000FF7FFD
(1785079463.027316) can0 09F11219#6AFEFFFF7FFF7FFC
(1785079463.032965) can0 18F01D21#BE111C8000111C80
(1785079463.047936) can0 18FF50E0#018D87B2840080A8
(1785079463.088412) can0 09F112F8#FF7C760000FF7FFD
(1785079463.126519) can0 09F11219#6BFEFFFF7FFF7FFC
(1785079463.132288) can0 18F01D21#BE111C8000111C80
(1785079463.151633) can0 18FF50E0#018D87B3840080A9
(1785079463.226484) can0 09F11219#6CFEFFFF7FFF7FFC
(1785079463.227069) can0 09F112F8#FF7D760000FF7FFD
(1785079463.232714) can0 18F01D21#BE111C8000111C80
(1785079463.252886) can0 18FF50E0#018D87B3840080AA
(1785079463.326465) can0 09F11219#6DFEFFFF7FFF7FFC
(1785079463.333067) can0 18F01D21#BE111C8000111C80
(1785079463.354792) can0 18FF50E0#018D87B3840080AB
(1785079463.368645) can0 09F112F8#FF80760000FF7FFD
(1785079463.426439) can0 09F11219#6EFEFFFF7FFF7FFC
(1785079463.432586) can0 18F01D21#BE111C8000111C80
(1785079463.455672) can0 18FF50E0#018D87B2840080AC
(1785079463.517264) can0 09F112F8#FF82760000FF7FFD
(1785079463.527118) can0 09F11219#6FFEFFFF7FFF7FFC
(1785079463.532727) can0 18F01D21#BE111C8000111C80
(1785079463.556379) can0 18FF50E0#018D87B2840080AD
(1785079463.626665) can0 09F11219#70FEFFFF7FFF7FFC
(1785079463.632123) can0 18F01D21#BE111C8000111C80
(1785079463.641541) can0 09F112F8#FF88760000FF7FFD
(1785079463.657315) can0 18FF50E0#018D87B0840080AE
(1785079463.726880) can0 09F11219#71FEFFFF7FFF7FFC
(1785079463.732446) can0 18F01D21#BE111C8000111C80
(1785079463.758086) can0 18FF50E0#018D87B0840080AF
(1785079463.783876) can0 09F112F8#FF8A760000FF7FFD
(1785079463.826511) can0 09F11219#72FEFFFF7FFF7FFC
(1785079463.832770) can0 18F01D21#BE111C8000111C80
(1785079463.859069) can0 18FF50E0#018D87B0840080B0
(1785079463.923256) can0 09F112F8#FF8E760000FF7FFD
(1785079463.926514) can0 09F11219#73FEFFFF7FFF7FFC
(1785079463.932204) can0 18F01D21#BE111C8000111C80
(1785079463.959913) can0 18FF50E0#018D87AE840080B1
(1785079464.027195) can0 09F11219#74FEFFFF7FFF7FFC
(1785079464.032541) can0 18F01D21#BE111C8000111C80
(1785079464.060819) can0 18FF50E0#018D87AE840080B2
(1785079464.061746) can0 09F112F8#FF8F760000FF7FFD
(1785079464.126750) can0 09F11219#75FEFFFF7FFF7FFC
(1785079464.132853) can0 18F01D21#BE111C8000111C80
(1785079464.161628) can0 18FF50E0#018D87AB840080B3
(1785079464.198390) can0 09F112F8#FF91760000FF7FFD
(1785079464.226679) can0 09F11219#76FEFFFF7FFF7FFC
(1785079464.232309) can0 18F01D21#BE111C8000111C80
(1785079464.262538) can0 18FF50E0#018D87AB840080B4
(1785079464.326679) can0 09F11219#77FEFFFF7FFF7FFC
(1785079464.332567) can0 18F01D21#BE111C8000111C80
(1785079464.339379) can0 09F112F8#FF91760000FF7FFD
(1785079464.363353) can0 18FF50E0#018D87AB840080B5
(1785079464.426487) can0 09F11219#78FEFFFF7FFF7FFC
(1785079464.432917) can0 18F01D21#BE111C8000111C80
(1785079464.464393) can0 18FF50E0#018D87A8840080B6
(1785079464.476976) can0 09F112F8#FF91760000FF7FFD
(1785079464.527759) can0 09F11219#79FEFFFF7FFF7FFC
(1785079464.532233) can0 18F01D21#BE111C8000111C80
(1785079464.565823) can0 18FF50E0#018D87A8840080B7
(1785079464.617368) can0 09F112F8#FF8F760000FF7FFD
(1785079464.626562) can0 09F11219#7AFEFFFF7FFF7FFC
(1785079464.632669) can0 18F01D21#BE111C8000111C80
(1785079464.666698) can0 18FF50E0#018D87A7840080B8
(1785079464.726600) can0 09F11219#7BFEFFFF7FFF7FFC
(1785079464.732989) can0 18F01D21#BE111C8000111C80
(1785079464.758425) can0 09F112F8#FF8E760000FF7FFD
(1785079464.768383) can0 18FF50E0#018D87A7840080B9
(1785079464.826596) can0 09F11219#7CFEFFFF7FFF7FFC
(1785079464.832450) can0 18F01D21#1B351C80006B1C80
(1785079464.869669) can0 18FF50E0#018D87A7840080BA
(1785079464.894765) can0 09F112F8#FF8B760000FF7FFD
(1785079464.926718) can0 09F11219#7DFEFFFF7FFF7FFC
(1785079464.932816) can0 18F01D21#D4641C80006B1C80
(1785079464.970217) can0 18FF50E0#018D87A8840080BB
(1785079465.028138) can0 09F11219#7EFEFFFF7FFF7FFC
(1785079465.033070) can0 18F01D21#696D1C80006B1C80
(1785079465.038378) can0 09F112F8#FF89760000FF7FFD
(1785079465.070674) can0 18FF50E0#018D87A8840080BC
(1785079465.126702) can0 09F11219#7FFEFFFF7FFF7FFC
(1785079465.132563) can0 18F01D21#026B1C80006B1C80
(1785079465.171466) can0 18FF50E0#018D87AA840080BD
(1785079465.173282) can0 09F112F8#FF86760000FF7FFD
(1785079465.226664) can0 09F11219#80FEFFFF7FFF7FFC
(1785079465.232783) can0 18F01D21#026B1C80006B1C80
(1785079465.272747) can0 18FF50E0#018D87AA840080BE
(1785079465.311405) can0 09F112F8#FF80760000FF7FFD
(1785079465.326948) can0 09F11219#81FEFFFF7FFF7FFC
(1785079465.333112) can0 18F01D21#026B1C80006B1C80
(1785079465.373623) can0 18FF50E0#018D87AA840080BF
(1785079465.426577) can0 09F11219#82FEFFFF7FFF7FFC
(1785079465.432480) can0 18F01D21#026B1C80006B1C80
(1785079465.447588) can0 09F112F8#FF80760000FF7FFD
(1785079465.474374) can0 18FF50E0#018D87AD840080C0
(1785079465.528101) can0 09F11219#83FEFFFF7FFF7FFC
(1785079465.532819) can0 18F01D21#026B1C80006B1C80
(1785079465.575250) can0 18FF50E0#018D87AD840080C1
(1785079465.587414) can0 09F112F8#FF80760000FF7FFD
(1785079465.626628) can0 09F11219#84FEFFFF7FFF7FFC
(1785079465.633215) can0 18F01D21#026B1C80006B1C80
(1785079465.675963) can0 18FF50E0#018D87AF840080C2
(1785079465.725279) can0 09F112F8#FF84760000FF7FFD
(1785079465.726965) can0 09F11219#85FEFFFF7FFF7FFC
(1785079465.732559) can0 18F01D21#026B1C80006B1C80
(1785079465.776428) can0 18FF50E0#018D87AF840080C3
(1785079465.826605) can0 09F11219#86FEFFFF7FFF7FFC
(1785079465.832853) can0 18F01D21#026B1C80006B1C80
(1785079465.867397) can0 09F112F8#FF84760000FF7FFD
(1785079465.876992) can0 18FF50E0#018D87AF840080C4
(1785079465.926684) can0 09F11219#87FEFFFF7FFF7FFC
(1785079465.933311) can0 18F01D21#026B1C80006B1C80
(1785079465.978234) can0 18FF50E0#018D87AF840080C5
(1785079466.006413) can0 09F112F8#FF89760000FF7FFD
(1785079466.028107) can0 09F11219#88FEFFFF7FFF7FFC
(1785079466.032607) can0 18F01D21#026B1C80006B1C80
(1785079466.078596) can0 18FF50E0#018D87AF840080C6
(1785079466.126689) can0 09F11219#89FEFFFF7FFF7FFC
(1785079466.132955) can0 18F01D21#026B1C80006B1C80
(1785079466.144265) can0 09F112F8#FF8C760000FF7FFD
(1785079466.179291) can0 18FF50E0#018D87AC840080C7
(1785079466.226642) can0 09F11219#8AFEFFFF7FFF7FFC
(1785079466.233313) can0 18F01D21#026B1C80006B1C80
(1785079466.279703) can0 18FF50E0#018D87AC840080C8
(1785079466.287468) can0 09F112F8#FF8C760000FF7FFD
(1785079466.326591) can0 09F11219#8BFEFFFF7FFF7FFC
(1785079466.332663) can0 18F01D21#026B1C80006B1C80
(1785079466.380279) can0 18FF50E0#018D87AC840080C9
(1785079466.421311) can0 09F112F8#FF8E760000FF7FFD
(1785079466.426645) can0 09F11219#8CFEFFFF7FFF7FFC
(1785079466.433018) can0 18F01D21#026B1C80006B1C80
(1785079466.480841) can0 18FF50E0#018D87AA840080CA
(1785079466.528157) can0 09F11219#8DFEFFFF7FFF7FFC
(1785079466.533385) can0 18F01D21#026B1C80006B1C80
(1785079466.560709) can0 09F112F8#FF8E760000FF7FFD
(1785079466.581378) can0 18FF50E0#018D87AA840080CB
(1785079466.626670) can0 09F11219#8EFEFFFF7FFF7FFC
(1785079466.632696) can0 18F01D21#026B1C80006B1C80
(1785079466.681913) can0 18FF50E0#018D87A9840080CC
(1785079466.699976) can0 09F112F8#FF89760000FF7FFD
(1785079466.726728) can0 09F11219#8FFEFFFF7FFF7FFC
(1785079466.733084) can0 18F01D21#026B1C80006B1C80
(1785079466.782487) can0 18FF50E0#018D87A9840080CD
(1785079466.826602) can0 09F11219#90FEFFFF7FFF7FFC
(1785079466.832449) can0 18F01D21#026B1C80006B1C80
(1785079466.838472) can0 09F112F8#FF83760000FF7FFD
(1785079466.883134) can0 18FF50E0#018D87A9840080CE
(1785079466.926566) can0 09F11219#91FEFFFF7FFF7FFC
(1785079466.932806) can0 18F01D21#026B1C80006B1C80
(1785079466.975306) can0 09F112F8#FF86760000FF7FFD
(1785079466.984074) can0 18FF50E0#018D87AB840080CF
(1785079467.028198) can0 09F11219#92FEFFFF7FFF7FFC
(1785079467.033184) can0 18F01D21#026B1C80006B1C80
(1785079467.084595) can0 18FF50E0#018D87AB840080D0
(1785079467.110460) can0 09F112F8#FF84760000FF7FFD
(1785079467.126591) can0 09F11219#93FEFFFF7FFF7FFC
(1785079467.132483) can0 18F01D21#026B1C80006B1C80
(1785079467.185536) can0 18FF50E0#018D87AD840080D1
(1785079467.226795) can0 09F11219#94FEFFFF7FFF7FFC
(1785079467.232853) can0 18F01D21#026B1C80006B1C80
(1785079467.249824) can0 09F112F8#FF88760000FF7FFD
(1785079467.285939) can0 18FF50E0#018D87AD840080D2
(1785079467.326682) can0 09F11219#95FEFFFF7FFF7FFC
(1785079467.333251) can0 18F01D21#026B1C80006B1C80
(1785079467.386503) can0 18FF50E0#018D87AD840080D3
(1785079467.388448) can0 09F112F8#FF8C760000FF7FFD
(1785079467.426636) can0 09F11219#96FEFFFF7FFF7FFC
(1785079467.432527) can0 18F01D21#026B1C80006B1C80
(1785079467.487113) can0 18FF50E0#018D87AC840080D4
(1785079467.523956) can0 09F112F8#FF8D760000FF7FFD
(1785079467.527422) can0 09F11219#97FEFFFF7FFF7FFC
(1785079467.532879) can0 18F01D21#026B1C80006B1C80
(1785079467.587613) can0 18FF50E0#018D87AC840080D5
(1785079467.626591) can0 09F11219#98FEFFFF7FFF7FFC
(1785079467.633290) can0 18F01D21#026B1C80006B1C80
(1785079467.668461) can0 09F112F8#FF90760000FF7FFD
(1785079467.688272) can0 18FF50E0#018D87A9840080D6
(1785079467.726638) can0 09F11219#99FEFFFF7FFF7FFC
(1785079467.732582) can0 18F01D21#026B1C80006B1C80
(1785079467.788642) can0 18FF50E0#018D87A9840080D7
(1785079467.804113) can0 09F112F8#FF95760000FF7FFD
(1785079467.826588) can0 09F11219#9AFEFFFF7FFF7FFC
(1785079467.832987) can0 18F01D21#026B1C80006B1C80
(1785079467.889262) can0 18FF50E0#018D87A9840080D8
(1785079467.926592) can0 09F11219#9BFEFFFF7FFF7FFC
(1785079467.933372) can0 18F01D21#026B1C80006B1C80
(1785079467.944114) can0 09F112F8#FF9D760000FF7FFD
(1785079467.989618) can0 18FF50E0#018D87A6840080D9
(1785079468.027480) can0 09F11219#9CFEFFFF7FFF7FFC
(1785079468.032684) can0 18F01D21#026B1C80006B1C80
(1785079468.081330) can0 09F112F8#FF9F760000FF7FFD
(1785079468.090468) can0 18FF50E0#018D87A6840080DA
(1785079468.126667) can0 09F11219#9DFEFFFF7FFF7FFC
(1785079468.133049) can0 18F01D21#026B1C80006B1C80
(1785079468.191125) can0 18FF50E0#018D87A2840080DB
(1785079468.218470) can0 09F112F8#FFA2760000FF7FFD
(1785079468.226664) can0 09F11219#9EFEFFFF7FFF7FFC
(1785079468.233389) can0 18F01D21#026B1C80006B1C80
(1785079468.291523) can0 18FF50E0#018D87A2840080DC
(1785079468.326696) can0 09F11219#9FFEFFFF7FFF7FFC
(1785079468.332724) can0 18F01D21#026B1C80006B1C80
(1785079468.354859) can0 09F112F8#FFA3760000FF7FFD
(1785079468.392054) can0 18FF50E0#018D87A2840080DD
(1785079468.426817) can0 09F11219#A0FEFFFF7FFF7FFC
(1785079468.433126) can0 18F01D21#026B1C80006B1C80
(1785079468.492566) can0 18FF50E0#018D879F840080DE
(1785079468.494118) can0 09F112F8#FFA6760000FF7FFD
(1785079468.527337) can0 09F11219#A1FEFFFF7FFF7FFC
(1785079468.533501) can0 18F01D21#026B1C80006B1C80
(1785079468.593374) can0 18FF50E0#018D879F840080DF
(1785079468.626700) can0 09F11219#A2FEFFFF7FFF7FFC
(1785079468.629497) can0 09F112F8#FFAB760000FF7FFD
(1785079468.632874) can0 18F01D21#026B1C80006B1C80
(1785079468.694485) can0 18FF50E0#018D879B840080E0
(1785079468.726813) can0 09F11219#A3FEFFFF7FFF7FFC
(1785079468.733235) can0 18F01D21#026B1C80006B1C80
(1785079468.770564) can0 09F112F8#FFB3760000FF7FFD
(1785079468.795063) can0 18FF50E0#018D879B840080E1
(1785079468.826722) can0 09F11219#A4FEFFFF7FFF7FFC
(1785079468.833834) can0 18F01D21#90721C8000BE1C80
(1785079468.896520) can0 18FF50E0#018D879B840080E2
(1785079468.908909) can0 09F112F8#FFB5760000FF7FFD
(1785079468.926875) can0 09F11219#A5FEFFFF7FFF7FFC
(1785079468.933100) can0 18F01D21#35AB1C8000BE1C80
(1785079468.997309) can0 18FF50E0#018D8796840080E3
(1785079469.027405) can0 09F11219#A6FEFFFF7FFF7FFC
(1785079469.033312) can0 18F01D21#6FBE1C8000BE1C80
(1785079469.050527) can0 09F112F8#FFB7760000FF7FFD
(1785079469.099307) can0 18FF50E0#018D8796840080E4
(1785079469.126715) can0 09F11219#A7FEFFFF7FFF7FFC
(1785079469.133690) can0 18F01D21#60BC1C8000BE1C80
(1785079469.190569) can0 09F112F8#FFB7760000FF7FFD
(1785079469.200976) can0 18FF50E0#018D8796840080E5
(1785079469.226674) can0 09F11219#A8FEFFFF7FFF7FFC
(1785079469.233024) can0 18F01D21#08BC1C8000BE1C80
(1785079469.301852) can0 18FF50E0#018D8792840080E6
(1785079469.326747) can0 09F11219#A9FEFFFF7FFF7FFC
(1785079469.327870) can0 09F112F8#FFB6760000FF7FFD
(1785079469.333312) can0 18F01D21#08BC1C8000BE1C80
(1785079469.404085) can0 18FF50E0#018D8792840080E7
(1785079469.426747) can0 09F11219#AAFEFFFF7FFF7FFC
(1785079469.433725) can0 18F01D21#08BC1C8000BE1C80
(1785079469.468576) can0 09F112F8#FFB7760000FF7FFD
(1785079469.505768) can0 18FF50E0#018D8791840080E8
(1785079469.527514) can0 09F11219#ABFEFFFF7FFF7FFC
(1785079469.533249) can0 18F01D21#08BC1C8000BE1C80
(1785079469.604932) can0 09F112F8#FFBB760000FF7FFD
(1785079469.606351) can0 18FF50E0#018D8791840080E9
(1785079469.626872) can0 09F11219#ACFEFFFF7FFF7FFC
(1785079469.633443) can0 18F01D21#60BC1C8000BE1C80
(1785079469.707353) can0 18FF50E0#018D8791840080EA
(1785079469.726982) can0 09F11219#ADFEFFFF7FFF7FFC
(1785079469.733779) can0 18F01D21#08BC1C8000BE1C80
(1785079469.744964) can0 09F112F8#FFBC760000FF7FFD
(1785079469.808357) can0 18FF50E0#018D878F840080EB
(1785079469.826734) can0 09F11219#AEFEFFFF7FFF7FFC
(1785079469.833120) can0 18F01D21#08BC1C8000BE1C80
(1785079469.884933) can0 09F112F8#FFB8760000FF7FFD
(1785079469.909406) can0 18FF50E0#018D878F840080EC
(1785079469.926702) can0 09F11219#AFFEFFFF7FFF7FFC
(1785079469.933532) can0 18F01D21#08BC1C8000BE1C80
(1785079470.010359) can0 18FF50E0#018D878E840080ED
(1785079470.021791) can0 09F112F8#FFB8760000FF7FFD
(1785079470.027346) can0 09F11219#B0FEFFFF7FFF7FFC
(1785079470.032839) can0 18F01D21#08BC1C8000BE1C80
(1785079470.111162) can0 18FF50E0#018D878E840080EE
(1785079470.126886) can0 09F11219#B1FEFFFF7FFF7FFC
(1785079470.133311) can0 18F01D21#08BC1C8000BE1C80
(1785079470.161541) can0 09F112F8#FFBB760000FF7FFD
(1785079470.211942) can0 18FF50E0#018D878E840080EF
(1785079470.227026) can0 09F11219#B2FEFFFF7FFF7FFC
(1785079470.233568) can0 18F01D21#08BC1C8000BE1C80
(1785079470.299598) can0 09F112F8#FFBB760000FF7FFD
(1785079470.312610) can0 18FF50E0#018D878E840080F0
(1785079470.326947) can0 09F11219#B3FEFFFF7FFF7FFC
(1785079470.332861) can0 18F01D21#08BC1C8000BE1C80
(1785079470.414343) can0 18FF50E0#018D878E840080F1
(1785079470.426775) can0 09F11219#B4FEFFFF7FFF7FFC
(1785079470.433275) can0 18F01D21#08BC1C8000BE1C80
(1785079470.435010) can0 09F112F8#FFBC760000FF7FFD
(1785079470.514929) can0 18FF50E0#018D878D840080F2
(1785079470.527407) can0 09F11219#B5FEFFFF7FFF7FFC
(1785079470.533634) can0 18F01D21#60BC1C8000BE1C80
(1785079470.575408) can0 09F112F8#FFBD760000FF7FFD
(1785079470.616625) can0 18FF50E0#018D878D840080F3
(1785079470.626778) can0 09F11219#B6FEFFFF7FFF7FFC
