(1785078893.037992) can0 0CF00400#FF7D7D000000FFFF
(1785078893.041405) can0 09F112F8#FFAE770000FF7FFD
(1785078893.057053) can0 0CF00400#FF7D7D000000FFFF
(1785078893.064699) can0 09F8021C#EDFCD6EF0000FFFF
(1785078893.066933) can0 09F8011C#5A6D2618066C5BC1
(1785078893.067492) can0 18F01D21#A73A0E80FFFFFFFF
(1785078893.070844) can0 18FEE81C#E8AF00002164697E
(1785078893.077073) can0 0CF00400#FF7D7D000000FFFF
(1785078893.093689) can0 19F10D13#2B9D01A101000153
(1785078893.097091) can0 0CF00400#FF7D7D000000FFFF
(1785078893.110830) can0 09F11219#B4FEFFFF7FFF7FFC
(1785078893.117066) can0 0CF00400#FF7D7D000000FFFF
(1785078893.127263) can0 18FF50E0#0000800080008001
(1785078893.137650) can0 0CF00400#FF7D7D000000FFFF
(1785078893.157275) can0 0CF00400#FF7D7D000000FFFF
(1785078893.166072) can0 18F01D21#A73A0E80FFFFFFFF
(1785078893.176033) can0 09F112F8#FFAA770000FF7FFD
(1785078893.178091) can0 0CF00400#FF7D7D000000FFFF
(1785078893.193157) can0 19F10D13#2C9C01A101000153
(1785078893.197178) can0 0CF00400#FF7D7D000000FFFF
(1785078893.204330) can0 09F11219#B5FEFFFF7FFF7FFC
(1785078893.217042) can0 0CF00400#FF7D7D000000FFFF
(1785078893.227895) can0 18FF50E0#0000800080008002
(1785078893.238742) can0 0CF00400#FF7D7D000000FFFF
(1785078893.257124) can0 0CF00400#FF7D7D000000FFFF
(1785078893.266491) can0 18F01D21#A73A0E80FFFFFFFF
(1785078893.277125) can0 0CF00400#FF7D7D000000FFFF
(1785078893.293182) can0 19F10D13#2D9C01A101000153
(1785078893.297028) can0 0CF00400#FF7D7D000000FFFF
(1785078893.304346) can0 09F11219#B6FEFFFF7FFF7FFC
(1785078893.312371) can0 09F112F8#FFA9770000FF7FFD
(1785078893.317077) can0 0CF00400#FF7D7D000000FFFF
(1785078893.329610) can0 18FF50E0#00008021C5008003
(1785078893.338106) can0 0CF00400#FF7D7D000000FFFF
(1785078893.357201) can0 0CF00400#FF7D7D000000FFFF
(1785078893.366748) can0 18F01D21#A73A0E80FFFFFFFF
(1785078893.377024) can0 0CF00400#FF7D7D000000FFFF
(1785078893.393122) can0 19F10D13#2E9C01A101000153
(1785078893.397158) can0 0CF00400#FF7D7D000000FFFF
(1785078893.404460) can0 09F11219#B7FEFFFF7FFF7FFC
(1785078893.417071) can0 0CF00400#FF7D7D000000FFFF
(1785078893.438176) can0 0CF00400#FF7D7D000000FFFF
(1785078893.450504) can0 09F112F8#FFAC770000FF7FFD
(1785078893.457198) can0 0CF00400#FF7D7D000000FFFF
(1785078893.466015) can0 18F01D21#A73A0E80FFFFFFFF
(1785078893.477069) can0 0CF00400#FF7D7D000000FFFF
(1785078893.493165) can0 19F10D13#2F9C01A101000153
(1785078893.497081) can0 0CF00400#FF7D7D000000FFFF
(1785078893.504886) can0 09F11219#B8FEFFFF7FFF7FFC
(1785078893.517067) can0 0CF00400#FF7D7D000000FFFF
(1785078893.537787) can0 0CF00400#FF7D7D000000FFFF
(1785078893.556979) can0 0CF00400#FF7D7D000000FFFF
(1785078893.566319) can0 18F01D21#A73A0E80FFFFFFFF
(1785078893.576995) can0 0CF00400#FF7D7D000000FFFF
(1785078893.585455) can0 09F8021C#EEFCD6EF0000FFFF
(1785078893.586452) can0 09F8011C#606D26180A6C5BC1
(1785078893.587023) can0 09F112F8#FFAE770000FF7FFD
(1785078893.590672) can0 18FEE81C#E8AF00002164687E
(1785078893.593148) can0 19F10D13#309C01A101000153
(1785078893.597152) can0 0CF00400#FF7D7D000000FFFF
(1785078893.604334) can0 09F11219#B9FEFFFF7FFF7FFC
(1785078893.617380) can0 0CF00400#FF7D7D000000FFFF
(1785078893.638098) can0 0CF00400#FF7D7D000000FFFF
(1785078893.657169) can0 0CF00400#FF7D7D000000FFFF
(1785078893.666604) can0 18F01D21#A73A0E80FFFFFFFF
(1785078893.677090) can0 0CF00400#FF7D7D000000FFFF
(1785078893.693162) can0 19F10D13#319C01A101000153
(1785078893.697192) can0 0CF00400#FF7D7D000000FFFF
(1785078893.704371) can0 09F11219#BAFEFFFF7FFF7FFC
(1785078893.717097) can0 0CF00400#FF7D7D000000FFFF
(1785078893.728432) can0 09F112F8#FFAD770000FF7FFD
(1785078893.738158) can0 0CF00400#FF7D7D000000FFFF
(1785078893.757059) can0 0CF00400#FF7D7D000000FFFF
(1785078893.766009) can0 18F01D21#A73A0E80FFFFFFFF
(1785078893.777193) can0 0CF00400#FF7D7D000000FFFF
(1785078893.793209) can0 19F10D13#329C01A101000153
(1785078893.797197) can0 0CF00400#FF7D7D000000FFFF
(1785078893.804373) can0 09F11219#BBFEFFFF7FFF7FFC
(1785078893.817032) can0 0CF00400#FF7D7D000000FFFF
(1785078893.838113) can0 0CF00400#FF7D7D000000FFFF
(1785078893.857124) can0 0CF00400#FF7D7D000000FFFF
(1785078893.862557) can0 09F112F8#FFAA770000FF7FFD
(1785078893.866528) can0 18F01D21#A73A0E80FFFFFFFF
(1785078893.877200) can0 0CF00400#FF7D7D000000FFFF
(1785078893.893124) can0 19F10D13#339C01A101000153
(1785078893.895846) can0 18EEFF1C#0204450E00000042
(1785078893.896985) can0 0CF00400#FF7D7D000000FFFF
(1785078893.904364) can0 09F11219#BCFEFFFF7FFF7FFC
(1785078893.917004) can0 0CF00400#FF7D7D000000FFFF
(1785078893.938146) can0 0CF00400#FF7D7D000000FFFF
(1785078893.957079) can0 0CF00400#FF7D7D000000FFFF
(1785078893.966151) can0 18F01D21#A73A0E80FFFFFFFF
(1785078893.977061) can0 0CF00400#FF7D7D000000FFFF
(1785078893.993125) can0 19F10D13#349C01A101000153
(1785078893.996996) can0 0CF00400#FF7D7D000000FFFF
(1785078893.998111) can0 09F112F8#FFA8770000FF7FFD
(1785078894.005034) can0 09F11219#BDFEFFFF7FFF7FFC
(1785078894.017078) can0 0CF00400#FF7D7D000000FFFF
(1785078894.037619) can0 0CF00400#FF7D7D000000FFFF
(1785078894.057185) can0 0CF00400#FF7D7D000000FFFF
(1785078894.066120) can0 18F01D21#A73A0E80FFFFFFFF
(1785078894.078446) can0 0CF00400#FF7D7D000000FFFF
(1785078894.090276) can0 09F8021C#EFFCD6EF0300FFFF
(1785078894.091433) can0 09F8011C#606D26180A6C5BC1
(1785078894.093677) can0 19F10D13#359C01A101000153
(1785078894.095300) can0 18FEE81C#E8AF00002164677E
(1785078894.097622) can0 0CF00400#FF7D7D000000FFFF
(1785078894.104757) can0 09F11219#BEFEFFFF7FFF7FFC
(1785078894.117075) can0 0CF00400#FF7D7D000000FFFF
(1785078894.138683) can0 0CF00400#FF7D7D000000FFFF
(1785078894.139383) can0 09F112F8#FFAC770000FF7FFD
(1785078894.156921) can0 0CF00400#FF7D7D000000FFFF
(1785078894.166550) can0 18F01D21#A73A0E80FFFFFFFF
(1785078894.177143) can0 0CF00400#FF7D7D000000FFFF
(1785078894.193225) can0 19F10D13#369C01A101000153
(1785078894.197189) can0 0CF00400#FF7D7D000000FFFF
(1785078894.204542) can0 09F11219#BFFEFFFF7FFF7FFC
(1785078894.217209) can0 0CF00400#FF7D7D000000FFFF
(1785078894.238075) can0 0CF00400#FF7D7D000000FFFF
(1785078894.256990) can0 0CF00400#FF7D7D000000FFFF
(1785078894.265897) can0 18F01D21#A73A0E80FFFFFFFF
(1785078894.276201) can0 09F112F8#FFB0770000FF7FFD
(1785078894.277058) can0 0CF00400#FF7D7D000000FFFF
(1785078894.293233) can0 19F10D13#379C01A101000153
(1785078894.296985) can0 0CF00400#FF7D7D000000FFFF
(1785078894.304403) can0 09F11219#C0FEFFFF7FFF7FFC
(1785078894.317133) can0 0CF00400#FF7D7D000000FFFF
(1785078894.338091) can0 0CF00400#FF7D7D000000FFFF
(1785078894.356997) can0 0CF00400#FF7D7D000000FFFF
(1785078894.366243) can0 18F01D21#A73A0E80FFFFFFFF
(1785078894.377014) can0 0CF00400#FF7D7D000000FFFF
(1785078894.393341) can0 19F10D13#389C01A101000153
(1785078894.397110) can0 0CF00400#FF7D7D000000FFFF
(1785078894.404418) can0 09F11219#C1FEFFFF7FFF7FFC
(1785078894.411397) can0 09F112F8#FFAF770000FF7FFD
(1785078894.416958) can0 0CF00400#FF7D7D000000FFFF
(1785078894.438114) can0 0CF00400#FF7D7D000000FFFF
(1785078894.457139) can0 0CF00400#FF7D7D000000FFFF
(1785078894.466798) can0 18F01D21#A73A0E80FFFFFFFF
(1785078894.477142) can0 0CF00400#FF7D7D000000FFFF
(1785078894.493168) can0 19F10D13#399B01A101000154
(1785078894.496930) can0 0CF00400#FF7D7D000000FFFF
(1785078894.505621) can0 09F11219#C2FEFFFF7FFF7FFC
(1785078894.516948) can0 0CF00400#FF7D7D000000FFFF
(1785078894.537819) can0 0CF00400#FF7D7D000000FFFF
(1785078894.551903) can0 09F112F8#FFB2770000FF7FFD
(1785078894.557101) can0 0CF00400#FF7D7D000000FFFF
(1785078894.566061) can0 18F01D21#A73A0E80FFFFFFFF
(1785078894.577142) can0 0CF00400#FF7D7D000000FFFF
(1785078894.593155) can0 19F10D13#3A9D01A101000153
(1785078894.594500) can0 09F8021C#F0FCD6EF0000FFFF
(1785078894.595465) can0 09F8011C#646D2618106C5BC1
(1785078894.597138) can0 0CF00400#FF7D7D000000FFFF
(1785078894.598570) can0 18FEE81C#E8AF00002164677E
(1785078894.604368) can0 09F11219#C3FEFFFF7FFF7FFC
(1785078894.617371) can0 0CF00400#FF7D7D000000FFFF
(1785078894.638151) can0 0CF00400#FF7D7D000000FFFF
(1785078894.657134) can0 0CF00400#FF7D7D000000FFFF
(1785078894.666154) can0 18F01D21#A73A0E80FFFFFFFF
(1785078894.677011) can0 0CF00400#FF7D7D000000FFFF
(1785078894.686325) can0 09F112F8#FFB4770000FF7FFD
(1785078894.693209) can0 19F10D13#3B9D01A101000153
(1785078894.696974) can0 0CF00400#FF7D7D000000FFFF
(1785078894.704493) can0 09F11219#C4FEFFFF7FFF7FFC
(1785078894.716930) can0 0CF00400#FF7D7D000000FFFF
(1785078894.738140) can0 0CF00400#FF7D7D000000FFFF
(1785078894.756915) can0 0CF00400#FF7D7D000000FFFF
(1785078894.766564) can0 18F01D21#A73A0E80FFFFFFFF
(1785078894.776937) can0 0CF00400#FF7D7D000000FFFF
(1785078894.793159) can0 19F10D13#3C9D01A101000153
(1785078894.796981) can0 0CF00400#FF7D7D000000FFFF
(1785078894.804606) can0 09F11219#C5FEFFFF7FFF7FFC
(1785078894.817014) can0 0CF00400#FF7D7D000000FFFF
(1785078894.825982) can0 09F112F8#FFB3770000FF7FFD
(1785078894.838096) can0 0CF00400#FF7D7D000000FFFF
(1785078894.856960) can0 0CF00400#FF7D7D000000FFFF
(1785078894.866054) can0 18F01D21#A73A0E80FFFFFFFF
(1785078894.876924) can0 0CF00400#FF7D7D000000FFFF
(1785078894.893305) can0 19F10D13#3D9C01A101000153
(1785078894.896991) can0 0CF00400#FF7D7D000000FFFF
(1785078894.904611) can0 09F11219#C6FEFFFF7FFF7FFC
(1785078894.915201) can0 18EEFF1C#0204450E00000042
(1785078894.917003) can0 0CF00400#FF7D7D000000FFFF
(1785078894.938082) can0 0CF00400#FF7D7D000000FFFF
(1785078894.958117) can0 0CF00400#FF7D7D000000FFFF
(1785078894.965979) can0 09F112F8#FFB2770000FF7FFD
(1785078894.966480) can0 18F01D21#A73A0E80FFFFFFFF
(1785078894.977766) can0 0CF00400#FF7D7D000000FFFF
(1785078894.993171) can0 19F10D13#3E9D01A101000153
(1785078894.997444) can0 0CF00400#FF7D7D000000FFFF
(1785078895.005222) can0 09F11219#C7FEFFFF7FFF7FFC
(1785078895.016968) can0 0CF00400#FF7D7D000000FFFF
(1785078895.038654) can0 0CF00400#FF7D7D000000FFFF
(1785078895.057258) can0 0CF00400#FF7D7D000000FFFF
(1785078895.067017) can0 18F01D21#A73A0E80FFFFFFFF
(1785078895.076941) can0 0CF00400#FF7D7D000000FFFF
(1785078895.093205) can0 19F10D13#3F9C01A101000153
(1785078895.097006) can0 0CF00400#FF7D7D000000FFFF
(1785078895.097524) can0 09F8021C#F1FCD6EF0100FFFF
(1785078895.101053) can0 09F8021C#F2FCD6EF0100FFFF
(1785078895.102452) can0 09F8011C#686D2618126C5BC1
(1785078895.104644) can0 09F11219#C8FEFFFF7FFF7FFC
(1785078895.105213) can0 18FEE81C#E8AF00002164667E
(1785078895.107537) can0 09F112F8#FFAF770000FF7FFD
(1785078895.116906) can0 0CF00400#FF7D7D000000FFFF
(1785078895.138155) can0 0CF00400#FF7D7D000000FFFF
(1785078895.156890) can0 0CF00400#FF7D7D000000FFFF
(1785078895.166106) can0 18F01D21#A73A0E80FFFFFFFF
(1785078895.176972) can0 0CF00400#FF7D7D000000FFFF
(1785078895.193128) can0 19F10D13#409C01A101000153
(1785078895.196966) can0 0CF00400#FF7D7D000000FFFF
(1785078895.204388) can0 09F11219#C9FEFFFF7FFF7FFC
(1785078895.216932) can0 0CF00400#FF7D7D000000FFFF
(1785078895.238108) can0 0CF00400#FF7D7D000000FFFF
(1785078895.242511) can0 09F112F8#FFAE770000FF7FFD
(1785078895.257099) can0 0CF00400#FF7D7D000000FFFF
(1785078895.266562) can0 18F01D21#A73A0E80FFFFFFFF
(1785078895.276908) can0 0CF00400#FF7D7D000000FFFF
(1785078895.293109) can0 19F10D13#419C01A101000153
(1785078895.296969) can0 0CF00400#FF7D7D000000FFFF
(1785078895.304404) can0 09F11219#CAFEFFFF7FFF7FFC
(1785078895.316910) can0 0CF00400#FF7D7D000000FFFF
(1785078895.338119) can0 0CF00400#FF7D7D000000FFFF
(1785078895.356937) can0 0CF00400#FF7D7D000000FFFF
(1785078895.366697) can0 18F01D21#A73A0E80FFFFFFFF
(1785078895.376972) can0 0CF00400#FF7D7D000000FFFF
(1785078895.386886) can0 09F112F8#FFAF770000FF7FFD
(1785078895.393179) can0 19F10D13#429C01A101000153
(1785078895.397065) can0 0CF00400#FF7D7D000000FFFF
(1785078895.404458) can0 09F11219#CBFEFFFF7FFF7FFC
(1785078895.417103) can0 0CF00400#FF7D7D000000FFFF
(1785078895.438079) can0 0CF00400#FF7D7D000000FFFF
(1785078895.456920) can0 0CF00400#FF7D7D000000FFFF
(1785078895.466027) can0 18F01D21#A73A0E80FFFFFFFF
(1785078895.476952) can0 0CF00400#FF7D7D000000FFFF
(1785078895.493620) can0 19F10D13#439D01A101000153
(1785078895.496961) can0 0CF00400#FF7D7D000000FFFF
(1785078895.505297) can0 09F11219#CCFEFFFF7FFF7FFC
(1785078895.517086) can0 0CF00400#FF7D7D000000FFFF
(1785078895.523528) can0 09F112F8#FFAF770000FF7FFD
(1785078895.537755) can0 0CF00400#FF7D7D000000FFFF
(1785078895.556942) can0 0CF00400#FF7D7D000000FFFF
(1785078895.566458) can0 18F01D21#A73A0E80FFFFFFFF
(1785078895.576922) can0 0CF00400#FF7D7D000000FFFF
(1785078895.593174) can0 19F10D13#449B01A101000154
(1785078895.596900) can0 0CF00400#FF7D7D000000FFFF
(1785078895.604481) can0 09F11219#CDFEFFFF7FFF7FFC
(1785078895.605664) can0 09F8021C#F3FCD6EF0100FFFF
(1785078895.606658) can0 09F8011C#706D2618146C5BC1
(1785078895.609704) can0 18FEE81C#E8AF00002064657E
(1785078895.617360) can0 0CF00400#FF7D7D000000FFFF
(1785078895.638086) can0 0CF00400#FF7D7D000000FFFF
(1785078895.656940) can0 0CF00400#FF7D7D000000FFFF
(1785078895.660426) can0 09F112F8#FFAB770000FF7FFD
(1785078895.666735) can0 18F01D21#A73A0E80FFFFFFFF
(1785078895.676958) can0 0CF00400#FF7D7D000000FFFF
(1785078895.693176) can0 19F10D13#459D01A101000153
(1785078895.697052) can0 0CF00400#FF7D7D000000FFFF
(1785078895.704395) can0 09F11219#CEFEFFFF7FFF7FFC
(1785078895.716894) can0 0CF00400#FF7D7D000000FFFF
(1785078895.738077) can0 0CF00400#FF7D7D000000FFFF
(1785078895.757052) can0 0CF00400#FF7D7D000000FFFF
(1785078895.766115) can0 18F01D21#A73A0E80FFFFFFFF
(1785078895.776982) can0 0CF00400#FF7D7D000000FFFF
(1785078895.793135) can0 19F10D13#469D01A101000153
(1785078895.796237) can0 09F112F8#FFA8770000FF7FFD
(1785078895.796884) can0 0CF00400#FF7D7D000000FFFF
(1785078895.804402) can0 09F11219#CFFEFFFF7FFF7FFC
(1785078895.817208) can0 0CF00400#FF7D7D000000FFFF
(1785078895.838075) can0 0CF00400#FF7D7D000000FFFF
(1785078895.856936) can0 0CF00400#FF7D7D000000FFFF
(1785078895.866517) can0 18F01D21#A73A0E80FFFFFFFF
(1785078895.877680) can0 0CF00400#FF7D7D000000FFFF
(1785078895.893132) can0 19F10D13#479B01A101000154
(1785078895.897374) can0 0CF00400#FF7D7D000000FFFF
(1785078895.904467) can0 09F11219#D0FEFFFF7FFF7FFC
(1785078895.915091) can0 18EEFF1C#0204450E00000042
(1785078895.916933) can0 0CF00400#FF7D7D000000FFFF
(1785078895.936752) can0 09F112F8#FFA8770000FF7FFD
(1785078895.938293) can0 0CF00400#FF7D7D000000FFFF
(1785078895.956943) can0 0CF00400#FF7D7D000000FFFF
(1785078895.966825) can0 18F01D21#A73A0E80FFFFFFFF
(1785078895.976905) can0 0CF00400#FF7D7D000000FFFF
(1785078895.993115) can0 19F10D13#489C01A101000153
(1785078895.996956) can0 0CF00400#FF7D7D000000FFFF
(1785078896.005491) can0 09F11219#D1FEFFFF7FFF7FFC
(1785078896.017065) can0 0CF00400#FF7D7D000000FFFF
(1785078896.038102) can0 0CF00400#FF7D7D000000FFFF
(1785078896.056887) can0 0CF00400#FF7D7D000000FFFF
(1785078896.066370) can0 18F01D21#A73A0E80FFFFFFFF
(1785078896.072452) can0 09F112F8#FFAA770000FF7FFD
(1785078896.077948) can0 0CF00400#FF7D7D000000FFFF
(1785078896.093657) can0 19F10D13#499C01A101000153
(1785078896.096936) can0 0CF00400#FF7D7D000000FFFF
(1785078896.104610) can0 09F11219#D2FEFFFF7FFF7FFC
(1785078896.110249) can0 09F8021C#F4FCD6EF0000FFFF
(1785078896.111173) can0 09F8011C#786D2618146C5BC1
(1785078896.114237) can0 18FEE81C#E8AF00002064647E
(1785078896.116865) can0 0CF00400#FF7D7D000000FFFF
(1785078896.137640) can0 0CF00400#FF7D7D000000FFFF
(1785078896.156951) can0 0CF00400#FF7D7D000000FFFF
(1785078896.166606) can0 18F01D21#A73A0E80FFFFFFFF
(1785078896.176927) can0 0CF00400#FF7D7D000000FFFF
(1785078896.193179) can0 19F10D13#4A9C01A101000153
(1785078896.196946) can0 0CF00400#FF7D7D000000FFFF
(1785078896.204513) can0 09F11219#D3FEFFFF7FFF7FFC
(1785078896.207879) can0 09F112F8#FFA8770000FF7FFD
(1785078896.216892) can0 0CF00400#FF7D7D000000FFFF
(1785078896.238140) can0 0CF00400#FF7D7D000000FFFF
(1785078896.257057) can0 0CF00400#FF7D7D000000FFFF
(1785078896.267414) can0 18F01D21#A73A0E80FFFFFFFF
(1785078896.276933) can0 0CF00400#FF7D7D000000FFFF
(1785078896.293215) can0 19F10D13#4B9C01A101000153
(1785078896.297102) can0 0CF00400#FF7D7D000000FFFF
(1785078896.304403) can0 09F11219#D4FEFFFF7FFF7FFC
(1785078896.316926) can0 0CF00400#FF7D7D000000FFFF
(1785078896.338037) can0 0CF00400#FF7D7D000000FFFF
(1785078896.348660) can0 09F112F8#FFA7770000FF7FFD
(1785078896.357040) can0 0CF00400#FF7D7D000000FFFF
(1785078896.366484) can0 18F01D21#A73A0E80FFFFFFFF
(1785078896.376950) can0 0CF00400#FF7D7D000000FFFF
(1785078896.393140) can0 19F10D13#4C9C01A101000153
(1785078896.396853) can0 0CF00400#FF7D7D000000FFFF
(1785078896.404409) can0 09F11219#D5FEFFFF7FFF7FFC
(1785078896.416920) can0 0CF00400#FF7D7D000000FFFF
(1785078896.438137) can0 0CF00400#FF7D7D000000FFFF
(1785078896.457038) can0 0CF00400#FF7D7D000000FFFF
(1785078896.466851) can0 18F01D21#A73A0E80FFFFFFFF
(1785078896.476866) can0 0CF00400#FF7D7D000000FFFF
(1785078896.482969) can0 09F112F8#FFA9770000FF7FFD
(1785078896.493103) can0 19F10D13#4D9D01A101000153
(1785078896.496855) can0 0CF00400#FF7D7D000000FFFF
(1785078896.505127) can0 09F11219#D6FEFFFF7FFF7FFC
(1785078896.516920) can0 0CF00400#FF7D7D000000FFFF
(1785078896.537896) can0 0CF00400#FF7D7D000000FFFF
(1785078896.557060) can0 0CF00400#FF7D7D000000FFFF
(1785078896.567429) can0 18F01D21#A73A0E80FFFFFFFF
(1785078896.576908) can0 0CF00400#FF7D7D000000FFFF
(1785078896.593128) can0 19F10D13#4E9C01A101000153
(1785078896.596933) can0 0CF00400#FF7D7D000000FFFF
(1785078896.604554) can0 09F11219#D7FEFFFF7FFF7FFC
(1785078896.614848) can0 09F8021C#F5FCD6EF0000FFFF
(1785078896.615688) can0 09F8011C#826D2618166C5BC1
(1785078896.617317) can0 0CF00400#FF7D7D000000FFFF
(1785078896.618824) can0 18FEE81C#E8AF00002064637E
(1785078896.620730) can0 09F112F8#FFA8770000FF7FFD
(1785078896.638089) can0 0CF00400#FF7D7D000000FFFF
(1785078896.656860) can0 0CF00400#FF7D7D000000FFFF
(1785078896.666367) can0 18F01D21#A73A0E80FFFFFFFF
(1785078896.676910) can0 0CF00400#FF7D7D000000FFFF
(1785078896.693176) can0 19F10D13#4F9C01A101000153
(1785078896.696931) can0 0CF00400#FF7D7D000000FFFF
(1785078896.704617) can0 09F11219#D8FEFFFF7FFF7FFC
(1785078896.717055) can0 0CF00400#FF7D7D000000FFFF
(1785078896.737985) can0 0CF00400#FF7D7D000000FFFF
(1785078896.756041) can0 09F112F8#FFA9770000FF7FFD
(1785078896.756912) can0 0CF00400#FF7D7D000000FFFF
(1785078896.766914) can0 18F01D21#A73A0E80FFFFFFFF
(1785078896.776999) can0 0CF00400#FF7D7D000000FFFF
(1785078896.793199) can0 19F10D13#509C01A101000153
(1785078896.796912) can0 0CF00400#FF7D7D000000FFFF
(1785078896.804735) can0 09F11219#D9FEFFFF7FFF7FFC
(1785078896.816924) can0 0CF00400#FF7D7D000000FFFF
(1785078896.838063) can0 0CF00400#FF7D7D000000FFFF
(1785078896.856943) can0 0CF00400#FF7D7D000000FFFF
(1785078896.867640) can0 18F01D21#A73A0E80FFFFFFFF
(1785078896.877743) can0 0CF00400#FF7D7D000000FFFF
(1785078896.893152) can0 19F10D13#519D01A101000153
(1785078896.895572) can0 09F112F8#FFAB770000FF7FFD
(1785078896.895949) can0 18EEFF1C#0204450E00000042
(1785078896.897370) can0 0CF00400#FF7D7D000000FFFF
(1785078896.904486) can0 09F11219#DAFEFFFF7FFF7FFC
(1785078896.916905) can0 0CF00400#FF7D7D000000FFFF
(1785078896.938597) can0 0CF00400#FF7D7D000000FFFF
(1785078896.957023) can0 0CF00400#FF7D7D000000FFFF
(1785078896.966638) can0 18F01D21#A73A0E80FFFFFFFF
(1785078896.977029) can0 0CF00400#FF7D7D000000FFFF
(1785078896.993143) can0 19F10D13#529C01A101000153
(1785078896.996889) can0 0CF00400#FF7D7D000000FFFF
(1785078897.005199) can0 09F11219#DBFEFFFF7FFF7FFC
(1785078897.016909) can0 0CF00400#FF7D7D000000FFFF
(1785078897.037864) can0 0CF00400#FF7D7D000000FFFF
(1785078897.046184) can0 09F112F8#FFAD770000FF7FFD
(1785078897.057347) can0 0CF00400#FF7D7D000000FFFF
(1785078897.067101) can0 18F01D21#A73A0E80FFFFFFFF
(1785078897.077802) can0 0CF00400#FF7D7D000000FFFF
(1785078897.093115) can0 19F10D13#539C01A101000153
(1785078897.097074) can0 0CF00400#FF7D7D000000FFFF
(1785078897.104482) can0 09F11219#DCFEFFFF7FFF7FFC
(1785078897.116880) can0 0CF00400#FF7D7D000000FFFF
(1785078897.124394) can0 09F8021C#F6FCD6EF0000FFFF
(1785078897.125373) can0 09F8011C#846D2618166C5BC1
(1785078897.128585) can0 18FEE81C#E8AF00002064617E
(1785078897.137623) can0 0CF00400#FF7D7D000000FFFF
(1785078897.156958) can0 0CF00400#FF7D7D000000FFFF
(1785078897.166082) can0 18F01D21#A73A0E80FFFFFFFF
(1785078897.167425) can0 09F112F8#FFAC770000FF7FFD
(1785078897.176910) can0 0CF00400#FF7D7D000000FFFF
(1785078897.193120) can0 19F10D13#549C01A101000153
(1785078897.196906) can0 0CF00400#FF7D7D000000FFFF
(1785078897.204716) can0 09F11219#DDFEFFFF7FFF7FFC
(1785078897.217016) can0 0CF00400#FF7D7D000000FFFF
(1785078897.238034) can0 0CF00400#FF7D7D000000FFFF
(1785078897.256836) can0 0CF00400#FF7D7D000000FFFF
(1785078897.266404) can0 18F01D21#A73A0E80FFFFFFFF
(1785078897.276993) can0 0CF00400#FF7D7D000000FFFF
(1785078897.293234) can0 19F10D13#559C01A101000153
(1785078897.297015) can0 0CF00400#FF7D7D000000FFFF
(1785078897.304705) can0 09F11219#DEFEFFFF7FFF7FFC
(1785078897.308590) can0 09F112F8#FFB0770000FF7FFD
(1785078897.317066) can0 0CF00400#FF7D7D000000FFFF
(1785078897.337977) can0 0CF00400#FF7D7D000000FFFF
(1785078897.356861) can0 0CF00400#FF7D7D000000FFFF
(1785078897.366856) can0 18F01D21#A73A0E80FFFFFFFF
(1785078897.376844) can0 0CF00400#FF7D7D000000FFFF
(1785078897.393186) can0 19F10D13#569C01A101000153
(1785078897.396991) can0 0CF00400#FF7D7D000000FFFF
(1785078897.404426) can0 09F11219#DFFEFFFF7FFF7FFC
(1785078897.416849) can0 0CF00400#FF7D7D000000FFFF
(1785078897.437946) can0 0CF00400#FF7D7D000000FFFF
(1785078897.443493) can0 09F112F8#FFB3770000FF7FFD
(1785078897.456992) can0 0CF00400#FF7D7D000000FFFF
(1785078897.466233) can0 18F01D21#A73A0E80FFFFFFFF
(1785078897.477029) can0 0CF00400#FF7D7D000000FFFF
(1785078897.493198) can0 19F10D13#579D01A101000153
(1785078897.496989) can0 0CF00400#FF7D7D000000FFFF
(1785078897.505350) can0 09F11219#E0FEFFFF7FFF7FFC
(1785078897.516867) can0 0CF00400#FF7D7D000000FFFF
(1785078897.537983) can0 0CF00400#FF7D7D000000FFFF
(1785078897.556866) can0 0CF00400#FF7D7D000000FFFF
(1785078897.566818) can0 18F01D21#A73A0E80FFFFFFFF
(1785078897.577002) can0 0CF00400#FF7D7D000000FFFF
(1785078897.581711) can0 09F112F8#FFB7770000FF7FFD
(1785078897.593131) can0 19F10D13#589C01A101000153
(1785078897.596813) can0 0CF00400#FF7D7D000000FFFF
(1785078897.604584) can0 09F11219#E1FEFFFF7FFF7FFC
(1785078897.616861) can0 0CF00400#FF7D7D000000FFFF
(1785078897.628887) can0 09F8021C#F7FCD6EF0100FFFF
(1785078897.629888) can0 09F8011C#8A6D2618166C5BC1
(1785078897.633939) can0 18FEE81C#E8AF00002064617E
(1785078897.637961) can0 0CF00400#FF7D7D000000FFFF
(1785078897.657203) can0 0CF00400#FF7D7D000000FFFF
(1785078897.667472) can0 18F01D21#A73A0E80FFFFFFFF
(1785078897.676883) can0 0CF00400#FF7D7D000000FFFF
(1785078897.693154) can0 19F10D13#599B01A101000154
(1785078897.696837) can0 0CF00400#FF7D7D000000FFFF
(1785078897.704618) can0 09F11219#E2FEFFFF7FFF7FFC
(1785078897.716866) can0 0CF00400#FF7D7D000000FFFF
(1785078897.720726) can0 09F112F8#FFBD770000FF7FFD
(1785078897.738007) can0 0CF00400#FF7D7D000000FFFF
(1785078897.756895) can0 0CF00400#FF7D7D000000FFFF
(1785078897.767416) can0 18F01D21#A73A0E80FFFFFFFF
(1785078897.777632) can0 0CF00400#FF7D7D000000FFFF
(1785078897.793156) can0 19F10D13#5A9C01A101000153
(1785078897.797224) can0 0CF00400#FF7D7D000000FFFF
(1785078897.804777) can0 09F11219#E3FEFFFF7FFF7FFC
(1785078897.816865) can0 0CF00400#FF7D7D000000FFFF
(1785078897.838523) can0 0CF00400#FF7D7D000000FFFF
(1785078897.856794) can0 0CF00400#FF7D7D000000FFFF
(1785078897.861750) can0 09F112F8#FFC3770000FF7FFD
(1785078897.866572) can0 18F01D21#A73A0E80FFFFFFFF
(1785078897.876877) can0 0CF00400#FF7D7D000000FFFF
(1785078897.893138) can0 19F10D13#5B9C01A101000153
(1785078897.895868) can0 18EEFF1C#0204450E00000042
(1785078897.896872) can0 0CF00400#FF7D7D000000FFFF
(1785078897.904745) can0 09F11219#E4FEFFFF7FFF7FFC
(1785078897.916998) can0 0CF00400#FF7D7D000000FFFF
(1785078897.937998) can0 0CF00400#FF7D7D000000FFFF
(1785078897.956845) can0 0CF00400#FF7D7D000000FFFF
(1785078897.967402) can0 18F01D21#A73A0E80FFFFFFFF
(1785078897.977011) can0 0CF00400#FF7D7D000000FFFF
(1785078897.993222) can0 19F10D13#5C9D01A101000153
(1785078897.996975) can0 0CF00400#FF7D7D000000FFFF
(1785078897.999140) can0 09F112F8#FFC8770000FF7FFD
(1785078898.005430) can0 09F11219#E5FEFFFF7FFF7FFC
(1785078898.016982) can0 0CF00400#FF7D7D000000FFFF
(1785078898.037935) can0 0CF00400#FF7D7D000000FFFF
(1785078898.057346) can0 0CF00400#FF7D7D000000FFFF
(1785078898.066289) can0 18F01D21#A73A0E80FFFFFFFF
(1785078898.076860) can0 0CF00400#FF7D7D000000FFFF
(1785078898.093141) can0 19F10D13#5D9C01A101000153
(1785078898.097210) can0 0CF00400#FF7D7D000000FFFF
(1785078898.104539) can0 09F11219#E6FEFFFF7FFF7FFC
(1785078898.116828) can0 0CF00400#FF7D7D000000FFFF
(1785078898.138000) can0 0CF00400#FF7D7D000000FFFF
(1785078898.138547) can0 09F8021C#F8FCD6EF0000FFFF
(1785078898.139499) can0 09F8011C#8E6D2618166C5BC1
(1785078898.142132) can0 09F112F8#FFD3770000FF7FFD
(1785078898.144949) can0 18FEE81C#E8AF00002064607E
(1785078898.156958) can0 0CF00400#FF7D7D000000FFFF
(1785078898.166648) can0 18F01D21#A73A0E80FFFFFFFF
(1785078898.176983) can0 0CF00400#FF7D7D000000FFFF
(1785078898.193157) can0 19F10D13#5E9C01A101000153
(1785078898.196782) can0 0CF00400#FF7D7D000000FFFF
(1785078898.204561) can0 09F11219#E7FEFFFF7FFF7FFC
(1785078898.216794) can0 0CF00400#FF7D7D000000FFFF
(1785078898.238000) can0 0CF00400#FF7D7D000000FFFF
(1785078898.256961) can0 0CF00400#FF7D7D000000FFFF
(1785078898.267363) can0 18F01D21#A73A0E80FFFFFFFF
(1785078898.276865) can0 0CF00400#FF7D7D000000FFFF
(1785078898.279696) can0 09F112F8#FFDB770000FF7FFD
(1785078898.293147) can0 19F10D13#5F9C01A101000153
(1785078898.296855) can0 0CF00400#FF7D7D000000FFFF
(1785078898.304742) can0 09F11219#E8FEFFFF7FFF7FFC
(1785078898.316958) can0 0CF00400#FF7D7D000000FFFF
(1785078898.337967) can0 0CF00400#FF7D7D000000FFFF
(1785078898.356850) can0 0CF00400#FF7D7D000000FFFF
(1785078898.366412) can0 18F01D21#A73A0E80FFFFFFFF
(1785078898.376763) can0 0CF00400#FF7D7D000000FFFF
(1785078898.393146) can0 19F10D13#609C01A101000153
(1785078898.396900) can0 0CF00400#FF7D7D000000FFFF
(1785078898.404847) can0 09F11219#E9FEFFFF7FFF7FFC
(1785078898.416272) can0 09F112F8#FFE2770000FF7FFD
(1785078898.416838) can0 0CF00400#FF7D7D000000FFFF
(1785078898.438040) can0 0CF00400#FF7D7D000000FFFF
(1785078898.456773) can0 0CF00400#FF7D7D000000FFFF
(1785078898.466737) can0 18F01D21#A73A0E80FFFFFFFF
(1785078898.476781) can0 0CF00400#FF7D7D000000FFFF
(1785078898.493156) can0 19F10D13#619C01A101000153
(1785078898.496850) can0 0CF00400#FF7D7D000000FFFF
(1785078898.505771) can0 09F11219#EAFEFFFF7FFF7FFC
(1785078898.516976) can0 0CF00400#FF7D7D000000FFFF
(1785078898.537899) can0 0CF00400#FF7D7D000000FFFF
(1785078898.557220) can0 0CF00400#FF7D7D000000FFFF
(1785078898.560712) can0 09F112F8#FFE9770000FF7FFD
(1785078898.567354) can0 18F01D21#A73A0E80FFFFFFFF
(1785078898.576974) can0 0CF00400#FF7D7D000000FFFF
(1785078898.593321) can0 19F10D13#629C01A101000153
(1785078898.596854) can0 0CF00400#FF7D7D000000FFFF
(1785078898.604780) can0 09F11219#EBFEFFFF7FFF7FFC
(1785078898.616865) can0 0CF00400#FF7D7D000000FFFF
(1785078898.637925) can0 0CF00400#FF7D7D000000FFFF
(1785078898.645034) can0 09F8021C#F9FCD6EF0000FFFF
(1785078898.647017) can0 09F8011C#906D2618166C5BC1
(1785078898.650130) can0 18FEE81C#E8AF00002064607E
(1785078898.656950) can0 0CF00400#FF7D7D000000FFFF
(1785078898.666858) can0 18F01D21#A73A0E80FFFFFFFF
(1785078898.677529) can0 0CF00400#FF7D7D000000FFFF
(1785078898.693162) can0 19F10D13#639C01A101000153
(1785078898.695494) can0 09F112F8#FFF1770000FF7FFD
(1785078898.697103) can0 0CF00400#FF7D7D000000FFFF
(1785078898.704799) can0 09F11219#ECFEFFFF7FFF7FFC
(1785078898.716791) can0 0CF00400#FF7D7D000000FFFF
(1785078898.738459) can0 0CF00400#FF7D7D000000FFFF
(1785078898.756956) can0 0CF00400#FF7D7D000000FFFF
(1785078898.767915) can0 18F01D21#A73A0E80FFFFFFFF
(1785078898.776833) can0 0CF00400#FF7D7D000000FFFF
(1785078898.793194) can0 19F10D13#649D01A101000153
(1785078898.796761) can0 0CF00400#FF7D7D000000FFFF
(1785078898.804574) can0 09F11219#EDFEFFFF7FFF7FFC
(1785078898.816824) can0 0CF00400#FF7D7D000000FFFF
(1785078898.830610) can0 09F112F8#FFF7770000FF7FFD
(1785078898.837900) can0 0CF00400#FF7D7D000000FFFF
(1785078898.856981) can0 0CF00400#FF7D7D000000FFFF
(1785078898.867334) can0 18F01D21#A73A0E80FFFFFFFF
(1785078898.876844) can0 0CF00400#FF7D7D000000FFFF
(1785078898.893158) can0 19F10D13#659C01A101000153
(1785078898.896828) can0 0CF00400#FF7D7D000000FFFF
(1785078898.904661) can0 09F11219#EEFEFFFF7FFF7FFC
(1785078898.916766) can0 0CF00400#FF7D7D000000FFFF
(1785078898.937882) can0 0CF00400#FF7D7D000000FFFF
(1785078898.955415) can0 18EEFF1C#0204450E00000042
(1785078898.956750) can0 0CF00400#FF7D7D000000FFFF
(1785078898.966493) can0 18F01D21#A73A0E80FFFFFFFF
(1785078898.969532) can0 09F112F8#FFFE770000FF7FFD
(1785078898.977341) can0 0CF00400#FF7D7D000000FFFF
(1785078898.993119) can0 19F10D13#669B01A101000154
(1785078898.996756) can0 0CF00400#FF7D7D000000FFFF
(1785078899.005280) can0 09F11219#EFFEFFFF7FFF7FFC
(1785078899.016741) can0 0CF00400#FF7D7D000000FFFF
(1785078899.037885) can0 0CF00400#FF7D7D000000FFFF
(1785078899.057122) can0 0CF00400#FF7D7D000000FFFF
(1785078899.067118) can0 18F01D21#A73A0E80FFFFFFFF
(1785078899.077481) can0 0CF00400#FF7D7D000000FFFF
(1785078899.093545) can0 19F10D13#679C01A101000153
(1785078899.096736) can0 0CF00400#FF7D7D000000FFFF
(1785078899.104778) can0 09F11219#F0FEFFFF7FFF7FFC
(1785078899.105420) can0 09F112F8#FF03780000FF7FFD
(1785078899.116764) can0 0CF00400#FF7D7D000000FFFF
(1785078899.137854) can0 0CF00400#FF7D7D000000FFFF
(1785078899.153569) can0 09F8021C#FAFCD6EF0200FFFF
(1785078899.154583) can0 09F8011C#906D2618166C5BC1
(1785078899.157174) can0 0CF00400#FF7D7D000000FFFF
(1785078899.157732) can0 18FEE81C#E8AF000020645F7E
(1785078899.167310) can0 18F01D21#A73A0E80FFFFFFFF
(1785078899.177551) can0 0CF00400#FF7D7D000000FFFF
(1785078899.193112) can0 19F10D13#689C01A101000153
(1785078899.196726) can0 0CF00400#FF7D7D000000FFFF
(1785078899.204570) can0 09F11219#F1FEFFFF7FFF7FFC
(1785078899.216738) can0 0CF00400#FF7D7D000000FFFF
(1785078899.237853) can0 0CF00400#FF7D7D000000FFFF
(1785078899.243977) can0 09F112F8#FF0A780000FF7FFD
(1785078899.256714) can0 0CF00400#FF7D7D000000FFFF
(1785078899.266490) can0 18F01D21#A73A0E80FFFFFFFF
(1785078899.276713) can0 0CF00400#FF7D7D000000FFFF
(1785078899.293658) can0 19F10D13#699D01A101000153
(1785078899.296711) can0 0CF00400#FF7D7D000000FFFF
(1785078899.304747) can0 09F11219#F2FEFFFF7FFF7FFC
(1785078899.316738) can0 0CF00400#FF7D7D000000FFFF
(1785078899.337945) can0 0CF00400#FF7D7D000000FFFF
(1785078899.356982) can0 0CF00400#FF7D7D000000FFFF
(1785078899.367363) can0 18F01D21#A73A0E80FFFFFFFF
(1785078899.377383) can0 0CF00400#FF7D7D000000FFFF
(1785078899.382859) can0 09F112F8#FF12780000FF7FFD
(1785078899.393208) can0 19F10D13#6A9C01A101000153
(1785078899.396740) can0 0CF00400#FF7D7D000000FFFF
(1785078899.404862) can0 09F11219#F3FEFFFF7FFF7FFC
(1785078899.416785) can0 0CF00400#FF7D7D000000FFFF
(1785078899.437881) can0 0CF00400#FF7D7D000000FFFF
(1785078899.456975) can0 0CF00400#FF7D7D000000FFFF
(1785078899.467321) can0 18F01D21#A73A0E80FFFFFFFF
(1785078899.476817) can0 0CF00400#FF7D7D000000FFFF
(1785078899.493138) can0 19F10D13#6B9D01A101000153
(1785078899.496810) can0 0CF00400#FF7D7D000000FFFF
(1785078899.505405) can0 09F11219#F4FEFFFF7FFF7FFC
(1785078899.516784) can0 0CF00400#FF7D7D000000FFFF
(1785078899.521767) can0 09F112F8#FF1A780000FF7FFD
(1785078899.537971) can0 0CF00400#FF7D7D000000FFFF
(1785078899.556795) can0 0CF00400#FF7D7D000000FFFF
(1785078899.566750) can0 18F01D21#A73A0E80FFFFFFFF
(1785078899.577760) can0 0CF00400#FF7D7D000000FFFF
(1785078899.593194) can0 19F10D13#6C9C01A101000153
(1785078899.597016) can0 0CF00400#FF7D7D000000FFFF
(1785078899.604636) can0 09F11219#F5FEFFFF7FFF7FFC
(1785078899.617217) can0 0CF00400#FF7D7D000000FFFF
(1785078899.638485) can0 0CF00400#FF7D7D000000FFFF
(1785078899.656426) can0 09F112F8#FF1E780000FF7FFD
(1785078899.657019) can0 0CF00400#FF7D7D000000FFFF
(1785078899.659177) can0 09F8021C#00FCD6EF0100FFFF
(1785078899.660147) can0 09F8011C#906D2618186C5BC1
(1785078899.663197) can0 18FEE81C#E8AF000020645E7E
(1785078899.668029) can0 18F01D21#A73A0E80FFFFFFFF
(1785078899.678010) can0 0CF00400#FF7D7D000000FFFF
(1785078899.693164) can0 19F10D13#6D9C01A101000153
(1785078899.696772) can0 0CF00400#FF7D7D000000FFFF
(1785078899.704771) can0 09F11219#F6FEFFFF7FFF7FFC
(1785078899.716927) can0 0CF00400#FF7D7D000000FFFF
(1785078899.737867) can0 0CF00400#FF7D7D000000FFFF
(1785078899.756737) can0 0CF00400#FF7D7D000000FFFF
(1785078899.767355) can0 18F01D21#A73A0E80FFFFFFFF
(1785078899.777391) can0 0CF00400#FF7D7D000000FFFF
(1785078899.793198) can0 19F10D13#6E9C01A101000153
(1785078899.793748) can0 09F112F8#FF1F780000FF7FFD
(1785078899.796931) can0 0CF00400#FF7D7D000000FFFF
(1785078899.804651) can0 09F11219#F7FEFFFF7FFF7FFC
(1785078899.816958) can0 0CF00400#FF7D7D000000FFFF
(1785078899.837850) can0 0CF00400#FF7D7D000000FFFF
(1785078899.856761) can0 0CF00400#FF7D7D000000FFFF
(1785078899.866873) can0 18F01D21#A73A0E80FFFFFFFF
(1785078899.877328) can0 0CF00400#FF7D7D000000FFFF
(1785078899.893173) can0 19F10D13#6F9C01A101000153
(1785078899.895979) can0 18EEFF1C#0204450E00000042
(1785078899.896719) can0 0CF00400#FF7D7D000000FFFF
(1785078899.904578) can0 09F11219#F8FEFFFF7FFF7FFC
(1785078899.916769) can0 0CF00400#FF7D7D000000FFFF
(1785078899.930983) can0 09F112F8#FF21780000FF7FFD
(1785078899.937872) can0 0CF00400#FF7D7D000000FFFF
(1785078899.956765) can0 0CF00400#FF7D7D000000FFFF
(1785078899.967322) can0 18F01D21#A73A0E80FFFFFFFF
(1785078899.976783) can0 0CF00400#FF7D7D000000FFFF
(1785078899.993128) can0 19F10D13#709D01A101000153
(1785078899.996735) can0 0CF00400#FF7D7D000000FFFF
(1785078900.005151) can0 09F11219#F9FEFFFF7FFF7FFC
(1785078900.016714) can0 0CF00400#FF7D7D000000FFFF
(1785078900.037885) can0 0CF00400#FF7D7D000000FFFF
(1785078900.057315) can0 0CF00400#FF7D7D000000FFFF
(1785078900.068051) can0 18F01D21#A73A0E80FFFFFFFF
(1785078900.077850) can0 0CF00400#FF7D7D000000FFFF
(1785078900.093501) can0 19F10D13#719D01A101000153
(1785078900.096922) can0 0CF00400#FF7D7D000000FFFF
(1785078900.097999) can0 09F112F8#FF26780000FF7FFD
(1785078900.105954) can0 09F11219#FAFEFFFF7FFF7FFC
(1785078900.116774) can0 0CF00400#FF7D7D000000FFFF
(1785078900.137914) can0 0CF00400#FF7D7D000000FFFF
(1785078900.156782) can0 0CF00400#FF7D7D000000FFFF
(1785078900.163752) can0 09F8021C#01FCD6EF0100FFFF
(1785078900.164655) can0 09F8011C#926D2618186C5BC1
(1785078900.167929) can0 18F01D21#A73A0E80FFFFFFFF
(1785078900.169035) can0 18FEE81C#E8AF000020645E7E
(1785078900.176696) can0 0CF00400#FF7D7D000000FFFF
(1785078900.193581) can0 19F10D13#729B01A101000154
(1785078900.196749) can0 0CF00400#FF7D7D000000FFFF
(1785078900.203933) can0 09F112F8#FF2A780000FF7FFD
(1785078900.204569) can0 09F11219#00FEFFFF7FFF7FFC
(1785078900.216973) can0 0CF00400#FF7D7D000000FFFF
(1785078900.237852) can0 0CF00400#FF7D7D000000FFFF
(1785078900.256712) can0 0CF00400#FF7D7D000000FFFF
(1785078900.267286) can0 18F01D21#A73A0E80FFFFFFFF
(1785078900.276716) can0 0CF00400#FF7D7D000000FFFF
(1785078900.293204) can0 19F10D13#739C01A101000153
(1785078900.296771) can0 0CF00400#FF7D7D000000FFFF
(1785078900.304854) can0 09F11219#01FEFFFF7FFF7FFC
(1785078900.316960) can0 0CF00400#FF7D7D000000FFFF
(1785078900.337884) can0 0CF00400#FF7D7D000000FFFF
(1785078900.348600) can0 09F112F8#FF2F780000FF7FFD
(1785078900.356688) can0 0CF00400#FF7D7D000000FFFF
(1785078900.366515) can0 18F01D21#A73A0E80FFFFFFFF
(1785078900.376788) can0 0CF00400#FF7D7D000000FFFF
(1785078900.393265) can0 19F10D13#749B01A101000154
(1785078900.396917) can0 0CF00400#FF7D7D000000FFFF
(1785078900.404862) can0 09F11219#02FEFFFF7FFF7FFC
(1785078900.416948) can0 0CF00400#FF7D7D000000FFFF
(1785078900.437867) can0 0CF00400#FF7D7D000000FFFF
(1785078900.456690) can0 0CF00400#FF7D7D000000FFFF
(1785078900.467296) can0 18F01D21#A73A0E80FFFFFFFF
(1785078900.476720) can0 0CF00400#FF7D7D000000FFFF
(1785078900.483988) can0 09F112F8#FF30780000FF7FFD
(1785078900.493151) can0 19F10D13#759C01A101000153
(1785078900.496956) can0 0CF00400#FF7D7D000000FFFF
(1785078900.505314) can0 09F11219#03FEFFFF7FFF7FFC
(1785078900.517186) can0 0CF00400#FF7D7D000000FFFF
(1785078900.538387) can0 0CF00400#FF7D7D000000FFFF
(1785078900.556761) can0 0CF00400#FF7D7D000000FFFF
(1785078900.568098) can0 18F01D21#A73A0E80FFFFFFFF
(1785078900.576730) can0 0CF00400#FF7D7D000000FFFF
(1785078900.593191) can0 19F10D13#769C01A101000153
(1785078900.596892) can0 0CF00400#FF7D7D000000FFFF
(1785078900.604578) can0 09F11219#04FEFFFF7FFF7FFC
(1785078900.616704) can0 0CF00400#FF7D7D000000FFFF
(1785078900.620600) can0 09F112F8#FF34780000FF7FFD
(1785078900.637834) can0 0CF00400#FF7D7D000000FFFF
(1785078900.656777) can0 0CF00400#FF7D7D000000FFFF
(1785078900.666753) can0 18F01D21#A73A0E80FFFFFFFF
(1785078900.671306) can0 09F8021C#02FCD6EF0000FFFF
(1785078900.672358) can0 09F8011C#966D26181A6C5BC1
(1785078900.675318) can0 18FEE81C#E8AF000020645E7E
(1785078900.676730) can0 0CF00400#FF7D7D000000FFFF
(1785078900.693242) can0 19F10D13#779D01A101000153
(1785078900.697171) can0 0CF00400#FF7D7D000000FFFF
(1785078900.704682) can0 09F11219#05FEFFFF7FFF7FFC
(1785078900.716731) can0 0CF00400#FF7D7D000000FFFF
(1785078900.737824) can0 0CF00400#FF7D7D000000FFFF
(1785078900.756917) can0 0CF00400#FF7D7D000000FFFF
(1785078900.761341) can0 09F112F8#FF36780000FF7FFD
(1785078900.767251) can0 18F01D21#A73A0E80FFFFFFFF
(1785078900.776703) can0 0CF00400#FF7D7D000000FFFF
(1785078900.793148) can0 19F10D13#789D01A101000153
(1785078900.796679) can0 0CF00400#FF7D7D000000FFFF
(1785078900.804620) can0 09F11219#06FEFFFF7FFF7FFC
(1785078900.816757) can0 0CF00400#FF7D7D000000FFFF
(1785078900.837876) can0 0CF00400#FF7D7D000000FFFF
(1785078900.856924) can0 0CF00400#FF7D7D000000FFFF
(1785078900.867295) can0 18F01D21#A73A0E80FFFFFFFF
(1785078900.876771) can0 0CF00400#FF7D7D000000FFFF
(1785078900.893168) can0 19F10D13#799C01A101000153
(1785078900.895825) can0 18EEFF1C#0204450E00000042
(1785078900.896744) can0 0CF00400#FF7D7D000000FFFF
(1785078900.903802) can0 09F112F8#FF3B780000FF7FFD
(1785078900.904595) can0 09F11219#07FEFFFF7FFF7FFC
(1785078900.916881) can0 0CF00400#FF7D7D000000FFFF
(1785078900.937892) can0 0CF00400#FF7D7D000000FFFF
(1785078900.956769) can0 0CF00400#FF7D7D000000FFFF
(1785078900.966632) can0 18F01D21#A73A0E80FFFFFFFF
(1785078900.976747) can0 0CF00400#FF7D7D000000FFFF
(1785078900.993312) can0 19F10D13#7A9C01A101000153
(1785078900.996875) can0 0CF00400#FF7D7D000000FFFF
(1785078901.005737) can0 09F11219#08FEFFFF7FFF7FFC
(1785078901.016936) can0 0CF00400#FF7D7D000000FFFF
(1785078901.037820) can0 0CF00400#FF7D7D000000FFFF
(1785078901.040811) can0 09F112F8#FF3E780000FF7FFD
(1785078901.056647) can0 0CF00400#FF7D7D000000FFFF
(1785078901.067310) can0 18F01D21#A73A0E80FFFFFFFF
(1785078901.077582) can0 0CF00400#FF7D7D000000FFFF
(1785078901.093626) can0 19F10D13#7B9B01A101000154
(1785078901.097188) can0 0CF00400#FF7D7D000000FFFF
(1785078901.105669) can0 09F11219#09FEFFFF7FFF7FFC
(1785078901.116899) can0 0CF00400#FF7D7D000000FFFF
(1785078901.137779) can0 0CF00400#FF7D7D000000FFFF
(1785078901.156716) can0 0CF00400#FF7D7D000000FFFF
(1785078901.167348) can0 18F01D21#A73A0E80FFFFFFFF
(1785078901.176665) can0 0CF00400#FF7D7D000000FFFF
(1785078901.177257) can0 09F112F8#FF40780000FF7FFD
(1785078901.178349) can0 09F8021C#03FCD6EF0000FFFF
(1785078901.180008) can0 09F8011C#966D26181C6C5BC1
(1785078901.185106) can0 18FEE81C#E8AF000020645D7E
(1785078901.193653) can0 19F10D13#7C9C01A101000153
(1785078901.196744) can0 0CF00400#FF7D7D000000FFFF
(1785078901.204713) can0 09F11219#0AFEFFFF7FFF7FFC
(1785078901.216676) can0 0CF00400#FF7D7D000000FFFF
(1785078901.237834) can0 0CF00400#FF7D7D000000FFFF
(1785078901.256902) can0 0CF00400#FF7D7D000000FFFF
(1785078901.266861) can0 18F01D21#A73A0E80FFFFFFFF
(1785078901.276861) can0 0CF00400#FF7D7D000000FFFF
(1785078901.293155) can0 19F10D13#7D9C01A101000153
(1785078901.296642) can0 0CF00400#FF7D7D000000FFFF
(1785078901.304675) can0 09F11219#0BFEFFFF7FFF7FFC
(1785078901.316395) can0 09F112F8#FF44780000FF7FFD
(1785078901.316981) can0 0CF00400#FF7D7D000000FFFF
(1785078901.337798) can0 0CF00400#FF7D7D000000FFFF
(1785078901.356725) can0 0CF00400#FF7D7D000000FFFF
(1785078901.367261) can0 18F01D21#A73A0E80FFFFFFFF
(1785078901.376661) can0 0CF00400#FF7D7D000000FFFF
(1785078901.393169) can0 19F10D13#7E9C01A101000153
(1785078901.396789) can0 0CF00400#FF7D7D000000FFFF
(1785078901.404916) can0 09F11219#0CFEFFFF7FFF7FFC
(1785078901.417046) can0 0CF00400#FF7D7D000000FFFF
(1785078901.438416) can0 0CF00400#FF7D7D000000FFFF
(1785078901.456344) can0 09F112F8#FF49780000FF7FFD
(1785078901.456704) can0 0CF00400#FF7D7D000000FFFF
(1785078901.467803) can0 18F01D21#A73A0E80FFFFFFFF
(1785078901.476731) can0 0CF00400#FF7D7D000000FFFF
(1785078901.493167) can0 19F10D13#7F9D01A101000153
(1785078901.496866) can0 0CF00400#FF7D7D000000FFFF
(1785078901.505398) can0 09F11219#0DFEFFFF7FFF7FFC
(1785078901.516894) can0 0CF00400#FF7D7D000000FFFF
(1785078901.537792) can0 0CF00400#FF7D7D000000FFFF
(1785078901.556631) can0 0CF00400#FF7D7D000000FFFF
(1785078901.566885) can0 18F01D21#A73A0E80FFFFFFFF
(1785078901.577314) can0 0CF00400#FF7D7D000000FFFF
(1785078901.591708) can0 09F112F8#FF4B780000FF7FFD
(1785078901.593163) can0 19F10D13#809C01A101000153
(1785078901.596830) can0 0CF00400#FF7D7D000000FFFF
(1785078901.604789) can0 09F11219#0EFEFFFF7FFF7FFC
(1785078901.616851) can0 0CF00400#FF7D7D000000FFFF
(1785078901.637882) can0 0CF00400#FF7D7D000000FFFF
(1785078901.656708) can0 0CF00400#FF7D7D000000FFFF
(1785078901.667284) can0 18F01D21#A73A0E80FFFFFFFF
(1785078901.676904) can0 0CF00400#FF7D7D000000FFFF
(1785078901.683608) can0 09F8021C#04FCD6EF0000FFFF
(1785078901.684395) can0 09F8011C#9A6D26181E6C5BC1
(1785078901.688554) can0 18FEE81C#E8AF000020645D7E
(1785078901.693280) can0 19F10D13#819C01A101000153
(1785078901.697232) can0 0CF00400#FF7D7D000000FFFF
(1785078901.705317) can0 09F11219#0FFEFFFF7FFF7FFC
(1785078901.716734) can0 0CF00400#FF7D7D000000FFFF
(1785078901.732647) can0 09F112F8#FF4C780000FF7FFD
(1785078901.737290) can0 0CF00400#FF7D7D000000FFFF
(1785078901.756638) can0 0CF00400#FF7D7D000000FFFF
(1785078901.767414) can0 18F01D21#A73A0E80FFFFFFFF
(1785078901.776647) can0 0CF00400#FF7D7D000000FFFF
(1785078901.793169) can0 19F10D13#829C01A101000153
(1785078901.796714) can0 0CF00400#FF7D7D000000FFFF
(1785078901.804870) can0 09F11219#10FEFFFF7FFF7FFC
(1785078901.816626) can0 0CF00400#FF7D7D000000FFFF
(1785078901.837851) can0 0CF00400#FF7D7D000000FFFF
(1785078901.856820) can0 0CF00400#FF7D7D000000FFFF
(1785078901.865713) can0 09F112F8#FF4F780000FF7FFD
(1785078901.867258) can0 18F01D21#A73A0E80FFFFFFFF
(1785078901.876860) can0 0CF00400#FF7D7D000000FFFF
(1785078901.893241) can0 19F10D13#839C01A101000153
(1785078901.895771) can0 18EEFF1C#0204450E00000042
(1785078901.896641) can0 0CF00400#FF7D7D000000FFFF
(1785078901.904578) can0 09F11219#11FEFFFF7FFF7FFC
(1785078901.916724) can0 0CF00400#FF7D7D000000FFFF
(1785078901.937827) can0 0CF00400#FF7D7D000000FFFF
(1785078901.956848) can0 0CF00400#FF7D7D000000FFFF
(1785078901.967285) can0 18F01D21#A73A0E80FFFFFFFF
(1785078901.976857) can0 0CF00400#FF7D7D000000FFFF
(1785078901.993404) can0 19F10D13#849B01A101000154
(1785078901.996632) can0 0CF00400#FF7D7D000000FFFF
(1785078902.002181) can0 09F112F8#FF51780000FF7FFD
(1785078902.005200) can0 09F11219#12FEFFFF7FFF7FFC
(1785078902.016683) can0 0CF00400#FF7D7D000000FFFF
(1785078902.037814) can0 0CF00400#FF7D7D000000FFFF
(1785078902.056697) can0 0CF00400#FF7D7D000000FFFF
(1785078902.067945) can0 18F01D21#A73A0E80FFFFFFFF
(1785078902.077426) can0 0CF00400#FF7D7D000000FFFF
(1785078902.093321) can0 19F10D13#859C01A101000153
(1785078902.096829) can0 0CF00400#FF7D7D000000FFFF
(1785078902.105548) can0 09F11219#13FEFFFF7FFF7FFC
(1785078902.116684) can0 0CF00400#FF7D7D000000FFFF
(1785078902.137860) can0 0CF00400#FF7D7D000000FFFF
(1785078902.138657) can0 09F112F8#FF51780000FF7FFD
(1785078902.156622) can0 0CF00400#FF7D7D000000FFFF
(1785078902.167205) can0 18F01D21#A73A0E80FFFFFFFF
(1785078902.176644) can0 0CF00400#FF7D7D000000FFFF
(1785078902.188984) can0 09F8021C#05FCD6EF0200FFFF
(1785078902.190203) can0 09F8011C#9E6D2618246C5BC1
(1785078902.193290) can0 18FEE81C#E8AF000020645C7E
(1785078902.193771) can0 19F10D13#869C01A101000153
(1785078902.196664) can0 0CF00400#FF7D7D000000FFFF
(1785078902.204786) can0 09F11219#14FEFFFF7FFF7FFC
(1785078902.216869) can0 0CF00400#FF7D7D000000FFFF
(1785078902.237762) can0 0CF00400#FF7D7D000000FFFF
(1785078902.256621) can0 0CF00400#FF7D7D000000FFFF
(1785078902.267247) can0 18F01D21#A73A0E80FFFFFFFF
(1785078902.276459) can0 09F112F8#FF4C780000FF7FFD
(1785078902.277618) can0 0CF00400#FF7D7D000000FFFF
(1785078902.293202) can0 19F10D13#879C01A101000153
(1785078902.296702) can0 0CF00400#FF7D7D000000FFFF
(1785078902.304851) can0 09F11219#15FEFFFF7FFF7FFC
(1785078902.316942) can0 0CF00400#FF7D7D000000FFFF
(1785078902.337753) can0 0CF00400#FF7D7D000000FFFF
(1785078902.356668) can0 0CF00400#FF7D7D000000FFFF
(1785078902.367733) can0 18F01D21#A73A0E80FFFFFFFF
(1785078902.376686) can0 0CF00400#FF7D7D000000FFFF
(1785078902.393256) can0 19F10D13#889C01A101000153
(1785078902.396812) can0 0CF00400#FF7D7D000000FFFF
(1785078902.404764) can0 09F11219#16FEFFFF7FFF7FFC
(1785078902.410687) can0 09F112F8#FF44780000FF7FFD
(1785078902.416634) can0 0CF00400#FF7D7D000000FFFF
(1785078902.438307) can0 0CF00400#FF7D7D000000FFFF
(1785078902.456867) can0 0CF00400#FF7D7D000000FFFF
(1785078902.467187) can0 18F01D21#A73A0E80FFFFFFFF
(1785078902.476687) can0 0CF00400#FF7D7D000000FFFF
(1785078902.493296) can0 19F10D13#899C01A101000153
(1785078902.496625) can0 0CF00400#FF7D7D000000FFFF
(1785078902.505809) can0 09F11219#17FEFFFF7FFF7FFC
(1785078902.516670) can0 0CF00400#FF7D7D000000FFFF
(1785078902.537765) can0 0CF00400#FF7D7D000000FFFF
(1785078902.547391) can0 09F112F8#FF3B780000FF7FFD
(1785078902.556848) can0 0CF00400#FF7D7D000000FFFF
(1785078902.567568) can0 18F01D21#A73A0E80FFFFFFFF
(1785078902.577280) can0 0CF00400#FF7D7D000000FFFF
(1785078902.593184) can0 19F10D13#8A9C01A101000153
(1785078902.596682) can0 0CF00400#FF7D7D000000FFFF
(1785078902.604649) can0 09F11219#18FEFFFF7FFF7FFC
(1785078902.616680) can0 0CF00400#FF7D7D000000FFFF
(1785078902.637799) can0 0CF00400#FF7D7D000000FFFF
(1785078902.656837) can0 0CF00400#FF7D7D000000FFFF
(1785078902.667810) can0 18F01D21#A73A0E80FFFFFFFF
(1785078902.676618) can0 0CF00400#FF7D7D000000FFFF
(1785078902.682188) can0 09F112F8#FF33780000FF7FFD
(1785078902.692522) can0 09F8021C#06FCD6EF0000FFFF
(1785078902.693175) can0 19F10D13#8B9C01A101000153
(1785078902.693666) can0 09F8011C#A06D2618286C5BC1
(1785078902.696530) can0 18FEE81C#E8AF000020645B7E
(1785078902.697089) can0 0CF00400#FF7D7D000000FFFF
(1785078902.704724) can0 09F11219#19FEFFFF7FFF7FFC
(1785078902.716672) can0 0CF00400#FF7D7D000000FFFF
(1785078902.737754) can0 0CF00400#FF7D7D000000FFFF
(1785078902.756638) can0 0CF00400#FF7D7D000000FFFF
(1785078902.767168) can0 18F01D21#A73A0E80FFFFFFFF
(1785078902.776618) can0 0CF00400#FF7D7D000000FFFF
(1785078902.793340) can0 19F10D13#8C9C01A101000153
(1785078902.796648) can0 0CF00400#FF7D7D000000FFFF
(1785078902.804885) can0 09F11219#1AFEFFFF7FFF7FFC
(1785078902.816834) can0 0CF00400#FF7D7D000000FFFF
(1785078902.820906) can0 09F112F8#FF2B780000FF7FFD
(1785078902.837754) can0 0CF00400#FF7D7D000000FFFF
(1785078902.856657) can0 0CF00400#FF7D7D000000FFFF
(1785078902.867351) can0 18F01D21#A73A0E80FFFFFFFF
(1785078902.876638) can0 0CF00400#FF7D7D000000FFFF
(1785078902.893339) can0 19F10D13#8D9C01A101000153
(1785078902.896598) can0 0CF00400#FF7D7D000000FFFF
(1785078902.904646) can0 09F11219#1BFEFFFF7FFF7FFC
(1785078902.916606) can0 0CF00400#FF7D7D000000FFFF
(1785078902.935259) can0 18EEFF1C#0204450E00000042
(1785078902.937773) can0 0CF00400#FF7D7D000000FFFF
(1785078902.956635) can0 0CF00400#FF7D7D000000FFFF
(1785078902.957228) can0 09F112F8#FF24780000FF7FFD
(1785078902.967811) can0 18F01D21#A73A0E80FFFFFFFF
(1785078902.976657) can0 0CF00400#FF7D7D000000FFFF
(1785078902.994581) can0 19F10D13#8E9C01A101000153
(1785078902.996654) can0 0CF00400#FF7D7D000000FFFF
(1785078903.005473) can0 09F11219#1CFEFFFF7FFF7FFC
(1785078903.016599) can0 0CF00400#FF7D7D000000FFFF
(1785078903.037741) can0 0CF00400#FF7D7D000000FFFF
(1785078903.056976) can0 0CF00400#FF7D7D000000FFFF
(1785078903.067674) can0 18F01D21#A73A0E80FFFFFFFF
(1785078903.077343) can0 0CF00400#FF7D7D000000FFFF
(1785078903.093949) can0 19F10D13#8F9C01A101000153
(1785078903.096774) can0 0CF00400#FF7D7D000000FFFF
(1785078903.101053) can0 09F112F8#FF1F780000FF7FFD
(1785078903.106354) can0 09F11219#1DFEFFFF7FFF7FFC
(1785078903.116607) can0 0CF00400#FF7D7D000000FFFF
(1785078903.137819) can0 0CF00400#FF7D7D000000FFFF
(1785078903.156670) can0 0CF00400#FF7D7D000000FFFF
(1785078903.167557) can0 18F01D21#A73A0E80FFFFFFFF
(1785078903.176657) can0 0CF00400#FF7D7D000000FFFF
(1785078903.193599) can0 19F10D13#909C01A101000153
(1785078903.196577) can0 0CF00400#FF7D7D000000FFFF
(1785078903.198039) can0 09F8021C#07FCD6EF0000FFFF
(1785078903.199009) can0 09F8011C#A46D26182A6C5BC1
(1785078903.202233) can0 18FEE81C#E8AF000020645A7E
(1785078903.204718) can0 09F11219#1EFEFFFF7FFF7FFC
(1785078903.216771) can0 0CF00400#FF7D7D000000FFFF
(1785078903.237613) can0 09F112F8#FF19780000FF7FFD
(1785078903.238206) can0 0CF00400#FF7D7D000000FFFF
(1785078903.256772) can0 0CF00400#FF7D7D000000FFFF
(1785078903.267883) can0 18F01D21#A73A0E80FFFFFFFF
(1785078903.276588) can0 0CF00400#FF7D7D000000FFFF
(1785078903.293611) can0 19F10D13#919D01A101000153
(1785078903.296585) can0 0CF00400#FF7D7D000000FFFF
(1785078903.304951) can0 09F11219#1FFEFFFF7FFF7FFC
(1785078903.316823) can0 0CF00400#FF7D7D000000FFFF
(1785078903.338305) can0 0CF00400#FF7D7D000000FFFF
(1785078903.356818) can0 0CF00400#FF7D7D000000FFFF
(1785078903.367198) can0 18F01D21#A73A0E80FFFFFFFF
(1785078903.376220) can0 09F112F8#FF13780000FF7FFD
(1785078903.377306) can0 0CF00400#FF7D7D000000FFFF
(1785078903.393610) can0 19F10D13#929C01A101000153
(1785078903.396613) can0 0CF00400#FF7D7D000000FFFF
(1785078903.404814) can0 09F11219#20FEFFFF7FFF7FFC
(1785078903.416798) can0 0CF00400#FF7D7D000000FFFF
(1785078903.437781) can0 0CF00400#FF7D7D000000FFFF
(1785078903.456654) can0 0CF00400#FF7D7D000000FFFF
(1785078903.467545) can0 18F01D21#A73A0E80FFFFFFFF
(1785078903.476653) can0 0CF00400#FF7D7D000000FFFF
(1785078903.493261) can0 19F10D13#939D01A101000153
(1785078903.496641) can0 0CF00400#FF7D7D000000FFFF
(1785078903.505453) can0 09F11219#21FEFFFF7FFF7FFC
(1785078903.511252) can0 09F112F8#FF0A780000FF7FFD
(1785078903.516794) can0 0CF00400#FF7D7D000000FFFF
(1785078903.537727) can0 0CF00400#FF7D7D000000FFFF
(1785078903.556653) can0 0CF00400#FF7D7D000000FFFF
(1785078903.567194) can0 18F01D21#A73A0E80FFFFFFFF
(1785078903.577456) can0 0CF00400#FF7D7D000000FFFF
(1785078903.593250) can0 19F10D13#949C01A101000153
(1785078903.596639) can0 0CF00400#FF7D7D000000FFFF
(1785078903.604982) can0 09F11219#22FEFFFF7FFF7FFC
(1785078903.616600) can0 0CF00400#FF7D7D000000FFFF
(1785078903.637717) can0 0CF00400#FF7D7D000000FFFF
(1785078903.653103) can0 09F112F8#FF02780000FF7FFD
(1785078903.656643) can0 0CF00400#FF7D7D000000FFFF
(1785078903.667270) can0 18F01D21#A73A0E80FFFFFFFF
(1785078903.676664) can0 0CF00400#FF7D7D000000FFFF
(1785078903.693295) can0 19F10D13#959C01A101000153
(1785078903.696671) can0 0CF00400#FF7D7D000000FFFF
(1785078903.702721) can0 09F8021C#08FCD6EF0500FFFF
(1785078903.703614) can0 09F8011C#A66D26182A6C5BC1
(1785078903.705203) can0 09F11219#23FEFFFF7FFF7FFC
(1785078903.707208) can0 18FEE81C#E8AF00002064597E
(1785078903.716650) can0 0CF00400#FF7D7D000000FFFF
(1785078903.737694) can0 0CF00400#FF7D7D000000FFFF
(1785078903.756759) can0 0CF00400#FF7D7D000000FFFF
(1785078903.767809) can0 18F01D21#A73A0E80FFFFFFFF
(1785078903.776641) can0 0CF00400#FF7D7D000000FFFF
(1785078903.790757) can0 09F112F8#FFFD770000FF7FFD
(1785078903.793211) can0 19F10D13#969C01A101000153
(1785078903.796617) can0 0CF00400#FF7D7D000000FFFF
(1785078903.804799) can0 09F11219#24FEFFFF7FFF7FFC
(1785078903.816594) can0 0CF00400#FF7D7D000000FFFF
(1785078903.837741) can0 0CF00400#FF7D7D000000FFFF
(1785078903.856754) can0 0CF00400#FF7D7D000000FFFF
(1785078903.867178) can0 18F01D21#A73A0E80FFFFFFFF
(1785078903.876619) can0 0CF00400#FF7D7D000000FFFF
(1785078903.893210) can0 19F10D13#979C01A101000153
(1785078903.895737) can0 18EEFF1C#0204450E00000042
(1785078903.896957) can0 0CF00400#FF7D7D000000FFFF
(1785078903.904874) can0 09F11219#25FEFFFF7FFF7FFC
(1785078903.916779) can0 0CF00400#FF7D7D000000FFFF
(1785078903.929925) can0 09F112F8#FFFA770000FF7FFD
(1785078903.937762) can0 0CF00400#FF7D7D000000FFFF
(1785078903.956800) can0 0CF00400#FF7D7D000000FFFF
(1785078903.967344) can0 18F01D21#A73A0E80FFFFFFFF
(1785078903.976570) can0 0CF00400#FF7D7D000000FFFF
(1785078903.993273) can0 19F10D13#989D01A101000153
(1785078903.996681) can0 0CF00400#FF7D7D000000FFFF
(1785078904.005863) can0 09F11219#26FEFFFF7FFF7FFC
(1785078904.016760) can0 0CF00400#FF7D7D000000FFFF
(1785078904.037700) can0 0CF00400#FF7D7D000000FFFF
(1785078904.056984) can0 0CF00400#FF7D7D000000FFFF
(1785078904.067850) can0 18F01D21#A73A0E80FFFFFFFF
(1785078904.069731) can0 09F112F8#FFF7770000FF7FFD
(1785078904.077237) can0 0CF00400#FF7D7D000000FFFF
(1785078904.093715) can0 19F10D13#999D01A101000153
(1785078904.097181) can0 0CF00400#FF7D7D000000FFFF
(1785078904.104936) can0 09F11219#27FEFFFF7FFF7FFC
(1785078904.116723) can0 0CF00400#FF7D7D000000FFFF
(1785078904.137470) can0 0CF00400#FF7D7D000000FFFF
(1785078904.156581) can0 0CF00400#FF7D7D000000FFFF
(1785078904.167712) can0 18F01D21#A73A0E80FFFFFFFF
(1785078904.176618) can0 0CF00400#FF7D7D000000FFFF
(1785078904.193192) can0 19F10D13#9A9C01A101000153
(1785078904.196585) can0 0CF00400#FF7D7D000000FFFF
(1785078904.204837) can0 09F11219#28FEFFFF7FFF7FFC
(1785078904.206164) can0 09F8021C#09FCD6EF0300FFFF
(1785078904.207862) can0 09F112F8#FFF3770000FF7FFD
(1785078904.208341) can0 09F8011C#A86D26182C6C5BC1
(1785078904.211162) can0 18FEE81C#E8AF00002164587E
(1785078904.216860) can0 0CF00400#FF7D7D000000FFFF
(1785078904.238214) can0 0CF00400#FF7D7D000000FFFF
(1785078904.256578) can0 0CF00400#FF7D7D000000FFFF
(1785078904.267408) can0 18F01D21#A73A0E80FFFFFFFF
(1785078904.276617) can0 0CF00400#FF7D7D000000FFFF
(1785078904.293201) can0 19F10D13#9B9C01A101000153
(1785078904.296719) can0 0CF00400#FF7D7D000000FFFF
(1785078904.304788) can0 09F11219#29FEFFFF7FFF7FFC
(1785078904.316615) can0 0CF00400#FF7D7D000000FFFF
(1785078904.337718) can0 0CF00400#FF7D7D000000FFFF
(1785078904.342098) can0 09F112F8#FFEB770000FF7FFD
(1785078904.356578) can0 0CF00400#FF7D7D000000FFFF
(1785078904.367772) can0 18F01D21#A73A0E80FFFFFFFF
(1785078904.376598) can0 0CF00400#FF7D7D000000FFFF
(1785078904.393147) can0 19F10D13#9C9C01A101000153
(1785078904.396531) can0 0CF00400#FF7D7D000000FFFF
(1785078904.404840) can0 09F11219#2AFEFFFF7FFF7FFC
(1785078904.416670) can0 0CF00400#FF7D7D000000FFFF
(1785078904.437712) can0 0CF00400#FF7D7D000000FFFF
(1785078904.456564) can0 0CF00400#FF7D7D000000FFFF
(1785078904.467139) can0 18F01D21#A73A0E80FFFFFFFF
(1785078904.476552) can0 0CF00400#FF7D7D000000FFFF
(1785078904.482094) can0 09F112F8#FFE3770000FF7FFD
(1785078904.493250) can0 19F10D13#9D9D01A101000153
(1785078904.496575) can0 0CF00400#FF7D7D000000FFFF
(1785078904.505648) can0 09F11219#2BFEFFFF7FFF7FFC
(1785078904.516572) can0 0CF00400#FF7D7D000000FFFF
(1785078904.537705) can0 0CF00400#FF7D7D000000FFFF
(1785078904.556574) can0 0CF00400#FF7D7D000000FFFF
(1785078904.567500) can0 18F01D21#A73A0E80FFFFFFFF
(1785078904.576514) can0 0CF00400#FF7D7D000000FFFF
(1785078904.593162) can0 19F10D13#9E9D01A101000153
(1785078904.596941) can0 0CF00400#FF7D7D000000FFFF
(1785078904.604824) can0 09F11219#2CFEFFFF7FFF7FFC
(1785078904.616543) can0 0CF00400#FF7D7D000000FFFF
(1785078904.617124) can0 09F112F8#FFDE770000FF7FFD
(1785078904.637704) can0 0CF00400#FF7D7D000000FFFF
(1785078904.656515) can0 0CF00400#FF7D7D000000FFFF
(1785078904.667895) can0 18F01D21#A73A0E80FFFFFFFF
(1785078904.676538) can0 0CF00400#FF7D7D000000FFFF
(1785078904.693161) can0 19F10D13#9F9D01A101000153
(1785078904.696564) can0 0CF00400#FF7D7D000000FFFF
(1785078904.704798) can0 09F11219#2DFEFFFF7FFF7FFC
(1785078904.710681) can0 09F8021C#0AFCD6EF0100FFFF
(1785078904.711634) can0 09F8011C#A86D26182C6C5BC1
(1785078904.715694) can0 18FEE81C#E8AF00002164587E
(1785078904.716563) can0 0CF00400#FF7D7D000000FFFF
(1785078904.737124) can0 0CF00400#FF7D7D000000FFFF
(1785078904.756555) can0 0CF00400#FF7D7D000000FFFF
(1785078904.757155) can0 09F112F8#FFDD770000FF7FFD
(1785078904.767262) can0 18F01D21#A73A0E80FFFFFFFF
(1785078904.776559) can0 0CF00400#FF7D7D000000FFFF
(1785078904.793205) can0 19F10D13#A09D01A101000153
(1785078904.796557) can0 0CF00400#FF7D7D000000FFFF
(1785078904.804821) can0 09F11219#2EFEFFFF7FFF7FFC
(1785078904.816571) can0 0CF00400#FF7D7D000000FFFF
(1785078904.837679) can0 0CF00400#FF7D7D000000FFFF
(1785078904.856525) can0 0CF00400#FF7D7D000000FFFF
(1785078904.867557) can0 18F01D21#A73A0E80FFFFFFFF
(1785078904.876552) can0 0CF00400#FF7D7D000000FFFF
(1785078904.893171) can0 19F10D13#A19D01A101000153
(1785078904.895750) can0 18EEFF1C#0204450E00000042
(1785078904.896556) can0 0CF00400#FF7D7D000000FFFF
(1785078904.897146) can0 09F112F8#FFD9770000FF7FFD
(1785078904.905336) can0 09F11219#2FFEFFFF7FFF7FFC
(1785078904.916618) can0 0CF00400#FF7D7D000000FFFF
(1785078904.937685) can0 0CF00400#FF7D7D000000FFFF
(1785078904.956523) can0 0CF00400#FF7D7D000000FFFF
(1785078904.967925) can0 18F01D21#A73A0E80FFFFFFFF
(1785078904.976555) can0 0CF00400#FF7D7D000000FFFF
(1785078904.993180) can0 19F10D13#A29D01A101000153
(1785078904.996501) can0 0CF00400#FF7D7D000000FFFF
(1785078905.005733) can0 09F11219#30FEFFFF7FFF7FFC
(1785078905.016593) can0 0CF00400#FF7D7D000000FFFF
(1785078905.036799) can0 09F112F8#FFD4770000FF7FFD
(1785078905.037948) can0 0CF00400#FF7D7D000000FFFF
(1785078905.056998) can0 0CF00400#FF7D7D000000FFFF
(1785078905.067603) can0 18F01D21#A73A0E80FFFFFFFF
(1785078905.077879) can0 0CF00400#FF7D7D000000FFFF
(1785078905.093457) can0 19F10D13#A39B01A101000154
(1785078905.096528) can0 0CF00400#FF7D7D000000FFFF
(1785078905.104789) can0 09F11219#31FEFFFF7FFF7FFC
(1785078905.116845) can0 0CF00400#FF7D7D000000FFFF
(1785078905.138220) can0 0CF00400#FF7D7D000000FFFF
(1785078905.156519) can0 0CF00400#FF7D7D000000FFFF
(1785078905.167616) can0 18F01D21#A73A0E80FFFFFFFF
(1785078905.173823) can0 09F112F8#FFCE770000FF7FFD
(1785078905.176533) can0 0CF00400#FF7D7D000000FFFF
(1785078905.193177) can0 19F10D13#A49D01A101000153
(1785078905.196504) can0 0CF00400#FF7D7D000000FFFF
(1785078905.204942) can0 09F11219#32FEFFFF7FFF7FFC
(1785078905.214238) can0 09F8021C#0BFCD6EF0000FFFF
(1785078905.215296) can0 09F8011C#A86D26182C6C5BC1
(1785078905.216754) can0 0CF00400#FF7D7D000000FFFF
(1785078905.219256) can0 18FEE81C#E8AF00002164587E
(1785078905.237634) can0 0CF00400#FF7D7D000000FFFF
(1785078905.256530) can0 0CF00400#FF7D7D000000FFFF
(1785078905.267928) can0 18F01D21#A73A0E80FFFFFFFF
(1785078905.276484) can0 0CF00400#FF7D7D000000FFFF
(1785078905.293131) can0 19F10D13#A59C01A101000153
(1785078905.296505) can0 0CF00400#FF7D7D000000FFFF
(1785078905.304804) can0 09F11219#33FEFFFF7FFF7FFC
(1785078905.316511) can0 0CF00400#FF7D7D000000FFFF
(1785078905.318746) can0 09F112F8#FFCB770000FF7FFD
(1785078905.337646) can0 0CF00400#FF7D7D000000FFFF
(1785078905.356484) can0 0CF00400#FF7D7D000000FFFF
(1785078905.367274) can0 18F01D21#A73A0E80FFFFFFFF
(1785078905.376505) can0 0CF00400#FF7D7D000000FFFF
(1785078905.393126) can0 19F10D13#A69C01A101000153
(1785078905.396477) can0 0CF00400#FF7D7D000000FFFF
(1785078905.404873) can0 09F11219#34FEFFFF7FFF7FFC
(1785078905.416510) can0 0CF00400#FF7D7D000000FFFF
(1785078905.437674) can0 0CF00400#FF7D7D000000FFFF
(1785078905.453777) can0 09F112F8#FFC8770000FF7FFD
(1785078905.456490) can0 0CF00400#FF7D7D000000FFFF
(1785078905.467694) can0 18F01D21#A73A0E80FFFFFFFF
(1785078905.476521) can0 0CF00400#FF7D7D000000FFFF
(1785078905.493162) can0 19F10D13#A79C01A101000153
(1785078905.496520) can0 0CF00400#FF7D7D000000FFFF
(1785078905.505510) can0 09F11219#35FEFFFF7FFF7FFC
(1785078905.516487) can0 0CF00400#FF7D7D000000FFFF
(1785078905.537642) can0 0CF00400#FF7D7D000000FFFF
(1785078905.556517) can0 0CF00400#FF7D7D000000FFFF
(1785078905.568040) can0 18F01D21#A73A0E80FFFFFFFF
(1785078905.576522) can0 0CF00400#FF7D7D000000FFFF
(1785078905.587626) can0 09F112F8#FFC3770000FF7FFD
(1785078905.593166) can0 19F10D13#A89D01A101000153
(1785078905.596486) can0 0CF00400#FF7D7D000000FFFF
(1785078905.604901) can0 09F11219#36FEFFFF7FFF7FFC
(1785078905.616888) can0 0CF00400#FF7D7D000000FFFF
(1785078905.637645) can0 0CF00400#FF7D7D000000FFFF
(1785078905.656516) can0 0CF00400#FF7D7D000000FFFF
(1785078905.667291) can0 18F01D21#A73A0E80FFFFFFFF
(1785078905.676526) can0 0CF00400#FF7D7D000000FFFF
(1785078905.693174) can0 19F10D13#A99D01A101000153
(1785078905.696486) can0 0CF00400#FF7D7D000000FFFF
(1785078905.704803) can0 09F11219#37FEFFFF7FFF7FFC
(1785078905.716500) can0 0CF00400#FF7D7D000000FFFF
(1785078905.720801) can0 09F8021C#0CFCD6EF0000FFFF
(1785078905.722038) can0 09F8011C#A86D26182E6C5BC1
(1785078905.725818) can0 18FEE81C#E8AF00002164587E
(1785078905.729765) can0 09F112F8#FFBD770000FF7FFD
(1785078905.736541) can0 0CF00400#FF7D7D000000FFFF
(1785078905.757097) can0 0CF00400#FF7D7D000000FFFF
(1785078905.767643) can0 18F01D21#A73A0E80FFFFFFFF
(1785078905.776494) can0 0CF00400#FF7D7D000000FFFF
(1785078905.793167) can0 19F10D13#AA9C01A101000153
(1785078905.796520) can0 0CF00400#FF7D7D000000FFFF
(1785078905.805267) can0 09F11219#38FEFFFF7FFF7FFC
(1785078905.816493) can0 0CF00400#FF7D7D000000FFFF
(1785078905.837673) can0 0CF00400#FF7D7D000000FFFF
(1785078905.856494) can0 0CF00400#FF7D7D000000FFFF
(1785078905.867994) can0 18F01D21#A73A0E80FFFFFFFF
(1785078905.870787) can0 09F112F8#FFB6770000FF7FFD
(1785078905.876494) can0 0CF00400#FF7D7D000000FFFF
(1785078905.893171) can0 19F10D13#AB9D01A101000153
(1785078905.896520) can0 0CF00400#FF7D7D000000FFFF
(1785078905.897032) can0 18EEFF1C#0204450E00000042
(1785078905.904855) can0 09F11219#39FEFFFF7FFF7FFC
(1785078905.916494) can0 0CF00400#FF7D7D000000FFFF
(1785078905.937271) can0 0CF00400#FF7D7D000000FFFF
(1785078905.957498) can0 0CF00400#FF7D7D000000FFFF
(1785078905.967572) can0 18F01D21#A73A0E80FFFFFFFF
(1785078905.976483) can0 0CF00400#FF7D7D000000FFFF
(1785078905.993170) can0 19F10D13#AC9D01A101000153
(1785078905.996474) can0 0CF00400#FF7D7D000000FFFF
(1785078906.003798) can0 09F112F8#FFB1770000FF7FFD
(1785078906.005847) can0 09F11219#3AFEFFFF7FFF7FFC
(1785078906.016508) can0 0CF00400#FF7D7D000000FFFF
(1785078906.038188) can0 0CF00400#FF7D7D000000FFFF
(1785078906.056919) can0 0CF00400#FF7D7D000000FFFF
(1785078906.068314) can0 18F01D21#A73A0E80FFFFFFFF
(1785078906.077467) can0 0CF00400#FF7D7D000000FFFF
(1785078906.093370) can0 19F10D13#AD9C01A101000153
(1785078906.096613) can0 0CF00400#FF7D7D000000FFFF
(1785078906.104784) can0 09F11219#3BFEFFFF7FFF7FFC
(1785078906.116996) can0 0CF00400#FF7D7D000000FFFF
(1785078906.137594) can0 0CF00400#FF7D7D000000FFFF
(1785078906.147125) can0 09F112F8#FFA7770000FF7FFD
(1785078906.156467) can0 0CF00400#FF7D7D000000FFFF
(1785078906.168060) can0 18F01D21#A73A0E80FFFFFFFF
(1785078906.176485) can0 0CF00400#FF7D7D000000FFFF
(1785078906.193221) can0 19F10D13#AE9D01A101000153
(1785078906.196442) can0 0CF00400#FF7D7D000000FFFF
(1785078906.204801) can0 09F11219#3CFEFFFF7FFF7FFC
(1785078906.216457) can0 0CF00400#FF7D7D000000FFFF
(1785078906.227353) can0 09F8021C#0DFCD6EF0300FFFF
(1785078906.228304) can0 09F8011C#A86D2618306C5BC1
(1785078906.232500) can0 18FEE81C#E8AF00002164587E
(1785078906.237598) can0 0CF00400#FF7D7D000000FFFF
(1785078906.256449) can0 0CF00400#FF7D7D000000FFFF
(1785078906.267369) can0 18F01D21#A73A0E80FFFFFFFF
(1785078906.276490) can0 0CF00400#FF7D7D000000FFFF
(1785078906.283954) can0 09F112F8#FFA6770000FF7FFD
(1785078906.293179) can0 19F10D13#AF9D01A101000153
(1785078906.296486) can0 0CF00400#FF7D7D000000FFFF
(1785078906.304790) can0 09F11219#3DFEFFFF7FFF7FFC
(1785078906.316514) can0 0CF00400#FF7D7D000000FFFF
(1785078906.337628) can0 0CF00400#FF7D7D000000FFFF
(1785078906.356493) can0 0CF00400#FF7D7D000000FFFF
(1785078906.367724) can0 18F01D21#A73A0E80FFFFFFFF
(1785078906.376490) can0 0CF00400#FF7D7D000000FFFF
(1785078906.393453) can0 19F10D13#B09C01A101000153
(1785078906.396453) can0 0CF00400#FF7D7D000000FFFF
(1785078906.404824) can0 09F11219#3EFEFFFF7FFF7FFC
(1785078906.416467) can0 0CF00400#FF7D7D000000FFFF
(1785078906.423940) can0 09F112F8#FFA5770000FF7FFD
(1785078906.437597) can0 0CF00400#FF7D7D000000FFFF
(1785078906.456487) can0 0CF00400#FF7D7D000000FFFF
(1785078906.468099) can0 18F01D21#A73A0E80FFFFFFFF
(1785078906.476484) can0 0CF00400#FF7D7D000000FFFF
(1785078906.493154) can0 19F10D13#B19C01A101000153
(1785078906.496504) can0 0CF00400#FF7D7D000000FFFF
(1785078906.505438) can0 09F11219#3FFEFFFF7FFF7FFC
(1785078906.516459) can0 0CF00400#FF7D7D000000FFFF
(1785078906.537614) can0 0CF00400#FF7D7D000000FFFF
(1785078906.556444) can0 0CF00400#FF7D7D000000FFFF
(1785078906.563586) can0 09F112F8#FFA2770000FF7FFD
(1785078906.567460) can0 18F01D21#A73A0E80FFFFFFFF
(1785078906.576471) can0 0CF00400#FF7D7D000000FFFF
(1785078906.593161) can0 19F10D13#B29C01A101000153
(1785078906.596497) can0 0CF00400#FF7D7D000000FFFF
(1785078906.604828) can0 09F11219#40FEFFFF7FFF7FFC
(1785078906.616470) can0 0CF00400#FF7D7D000000FFFF
(1785078906.637437) can0 0CF00400#FF7D7D000000FFFF
(1785078906.656463) can0 0CF00400#FF7D7D000000FFFF
(1785078906.667914) can0 18F01D21#A73A0E80FFFFFFFF
(1785078906.676468) can0 0CF00400#FF7D7D000000FFFF
(1785078906.693136) can0 19F10D13#B39B01A101000154
(1785078906.696482) can0 0CF00400#FF7D7D000000FFFF
(1785078906.702023) can0 09F112F8#FFA0770000FF7FFD
(1785078906.705098) can0 09F11219#41FEFFFF7FFF7FFC
(1785078906.716464) can0 0CF00400#FF7D7D000000FFFF
(1785078906.735911) can0 09F8021C#0EFCD6EF0000FFFF
(1785078906.737033) can0 09F8011C#A86D2618346C5BC1
(1785078906.738184) can0 0CF00400#FF7D7D000000FFFF
(1785078906.740975) can0 18FEE81C#E8AF00002164597E
(1785078906.756772) can0 0CF00400#FF7D7D000000FFFF
(1785078906.767463) can0 18F01D21#A73A0E80FFFFFFFF
(1785078906.776441) can0 0CF00400#FF7D7D000000FFFF
(1785078906.793162) can0 19F10D13#B49D01A101000153
(1785078906.796436) can0 0CF00400#FF7D7D000000FFFF
(1785078906.804824) can0 09F11219#42FEFFFF7FFF7FFC
(1785078906.816479) can0 0CF00400#FF7D7D000000FFFF
(1785078906.837110) can0 0CF00400#FF7D7D000000FFFF
(1785078906.839198) can0 09F112F8#FF9A770000FF7FFD
(1785078906.856787) can0 0CF00400#FF7D7D000000FFFF
(1785078906.867653) can0 18F01D21#A73A0E80FFFFFFFF
(1785078906.876450) can0 0CF00400#FF7D7D000000FFFF
(1785078906.893163) can0 19F10D13#B59C01A101000153
(1785078906.896467) can0 0CF00400#FF7D7D000000FFFF
(1785078906.904816) can0 09F11219#43FEFFFF7FFF7FFC
(1785078906.916466) can0 0CF00400#FF7D7D000000FFFF
(1785078906.938143) can0 0CF00400#FF7D7D000000FFFF
(1785078906.955387) can0 18EEFF1C#0204450E00000042
(1785078906.956439) can0 0CF00400#FF7D7D000000FFFF
(1785078906.968032) can0 18F01D21#A73A0E80FFFFFFFF
(1785078906.976439) can0 0CF00400#FF7D7D000000FFFF
(1785078906.982006) can0 09F112F8#FF92770000FF7FFD
(1785078906.993163) can0 19F10D13#B69C01A101000153
(1785078906.996442) can0 0CF00400#FF7D7D000000FFFF
(1785078907.005492) can0 09F11219#44FEFFFF7FFF7FFC
(1785078907.016466) can0 0CF00400#FF7D7D000000FFFF
(1785078907.037591) can0 0CF00400#FF7D7D000000FFFF
(1785078907.056813) can0 0CF00400#FF7D7D000000FFFF
(1785078907.067731) can0 18F01D21#A73A0E80FFFFFFFF
(1785078907.077368) can0 0CF00400#FF7D7D000000FFFF
(1785078907.093109) can0 19F10D13#B79C01A101000153
(1785078907.096452) can0 0CF00400#FF7D7D000000FFFF
(1785078907.104847) can0 09F11219#45FEFFFF7FFF7FFC
(1785078907.116416) can0 0CF00400#FF7D7D000000FFFF
(1785078907.117175) can0 09F112F8#FF8B770000FF7FFD
(1785078907.137569) can0 0CF00400#FF7D7D000000FFFF
(1785078907.156448) can0 0CF00400#FF7D7D000000FFFF
(1785078907.167745) can0 18F01D21#A73A0E80FFFFFFFF
(1785078907.176422) can0 0CF00400#FF7D7D000000FFFF
(1785078907.193182) can0 19F10D13#B89D01A101000153
(1785078907.196420) can0 0CF00400#FF7D7D000000FFFF
(1785078907.204820) can0 09F11219#46FEFFFF7FFF7FFC
(1785078907.216488) can0 0CF00400#FF7D7D000000FFFF
(1785078907.237632) can0 0CF00400#FF7D7D000000FFFF
(1785078907.242646) can0 09F8021C#0FFCD6EF0000FFFF
(1785078907.243749) can0 09F8011C#A86D2618346C5BC1
(1785078907.246567) can0 18FEE81C#E8AF00002164597E
(1785078907.254258) can0 09F112F8#FF88770000FF7FFD
(1785078907.257103) can0 0CF00400#FF7D7D000000FFFF
(1785078907.268395) can0 18F01D21#A73A0E80FFFFFFFF
(1785078907.277084) can0 0CF00400#FF7D7D000000FFFF
(1785078907.293168) can0 19F10D13#B99C01A101000153
(1785078907.296480) can0 0CF00400#FF7D7D000000FFFF
(1785078907.305068) can0 09F11219#47FEFFFF7FFF7FFC
(1785078907.316439) can0 0CF00400#FF7D7D000000FFFF
(1785078907.337646) can0 0CF00400#FF7D7D000000FFFF
(1785078907.356659) can0 0CF00400#FF7D7D000000FFFF
(1785078907.367611) can0 18F01D21#A73A0E80FFFFFFFF
(1785078907.376420) can0 0CF00400#FF7D7D000000FFFF
(1785078907.393204) can0 19F10D13#BA9C01A101000153
(1785078907.396349) can0 09F112F8#FF85770000FF7FFD
(1785078907.396907) can0 0CF00400#FF7D7D000000FFFF
(1785078907.404919) can0 09F11219#48FEFFFF7FFF7FFC
(1785078907.416470) can0 0CF00400#FF7D7D000000FFFF
(1785078907.437561) can0 0CF00400#FF7D7D000000FFFF
(1785078907.456439) can0 0CF00400#FF7D7D000000FFFF
(1785078907.467857) can0 18F01D21#A73A0E80FFFFFFFF
(1785078907.476476) can0 0CF00400#FF7D7D000000FFFF
(1785078907.493140) can0 19F10D13#BB9C01A101000153
(1785078907.496597) can0 0CF00400#FF7D7D000000FFFF
(1785078907.505989) can0 09F11219#49FEFFFF7FFF7FFC
(1785078907.516660) can0 0CF00400#FF7D7D000000FFFF
(1785078907.537022) can0 09F112F8#FF84770000FF7FFD
(1785078907.538213) can0 0CF00400#FF7D7D000000FFFF
(1785078907.556483) can0 0CF00400#FF7D7D000000FFFF
(1785078907.568122) can0 18F01D21#A73A0E80FFFFFFFF
(1785078907.576477) can0 0CF00400#FF7D7D000000FFFF
(1785078907.593357) can0 19F10D13#BC9C01A101000153
(1785078907.596610) can0 0CF00400#FF7D7D000000FFFF
(1785078907.605029) can0 09F11219#4AFEFFFF7FFF7FFC
(1785078907.616494) can0 0CF00400#FF7D7D000000FFFF
(1785078907.637604) can0 0CF00400#FF7D7D000000FFFF
(1785078907.656945) can0 0CF00400#FF7D7D000000FFFF
(1785078907.667327) can0 18F01D21#A73A0E80FFFFFFFF
(1785078907.669864) can0 09F112F8#FF82770000FF7FFD
(1785078907.676481) can0 0CF00400#FF7D7D000000FFFF
(1785078907.693249) can0 19F10D13#BD9C01A101000153
(1785078907.696658) can0 0CF00400#FF7D7D000000FFFF
(1785078907.705057) can0 09F11219#4BFEFFFF7FFF7FFC
(1785078907.716428) can0 0CF00400#FF7D7D000000FFFF
(1785078907.737654) can0 0CF00400#FF7D7D000000FFFF
(1785078907.748104) can0 09F8021C#10FCD6EF0000FFFF
(1785078907.749094) can0 09F8011C#A86D26183A6C5BC1
(1785078907.752152) can0 18FEE81C#E8AF000021645A7E
(1785078907.757092) can0 0CF00400#FF7D7D000000FFFF
(1785078907.767918) can0 18F01D21#A73A0E80FFFFFFFF
(1785078907.777516) can0 0CF00400#FF7D7D000000FFFF
(1785078907.793309) can0 19F10D13#BE9B01A101000154
(1785078907.796504) can0 0CF00400#FF7D7D000000FFFF
(1785078907.804884) can0 09F11219#4CFEFFFF7FFF7FFC
(1785078907.808828) can0 09F112F8#FF80770000FF7FFD
(1785078907.816527) can0 0CF00400#FF7D7D000000FFFF
(1785078907.837831) can0 0CF00400#FF7D7D000000FFFF
(1785078907.856405) can0 0CF00400#FF7D7D000000FFFF
(1785078907.868118) can0 18F01D21#A73A0E80FFFFFFFF
(1785078907.876421) can0 0CF00400#FF7D7D000000FFFF
(1785078907.893151) can0 19F10D13#BF9C01A101000153
(1785078907.895701) can0 18EEFF1C#0204450E00000042
(1785078907.896402) can0 0CF00400#FF7D7D000000FFFF
(1785078907.904860) can0 09F11219#4DFEFFFF7FFF7FFC
(1785078907.916529) can0 0CF00400#FF7D7D000000FFFF
(1785078907.937539) can0 0CF00400#FF7D7D000000FFFF
(1785078907.946996) can0 09F112F8#FF7D770000FF7FFD
(1785078907.956413) can0 0CF00400#FF7D7D000000FFFF
(1785078907.967447) can0 18F01D21#A73A0E80FFFFFFFF
(1785078907.976414) can0 0CF00400#FF7D7D000000FFFF
(1785078907.993183) can0 19F10D13#C09C01A101000153
(1785078907.996414) can0 0CF00400#FF7D7D000000FFFF
(1785078908.005650) can0 09F11219#4EFEFFFF7FFF7FFC
(1785078908.016475) can0 0CF00400#FF7D7D000000FFFF
(1785078908.037522) can0 0CF00400#FF7D7D000000FFFF
(1785078908.056433) can0 0CF00400#FF7D7D000000FFFF
(1785078908.067863) can0 18F01D21#A73A0E80FFFFFFFF
(1785078908.077831) can0 0CF00400#FF7D7D000000FFFF
(1785078908.086327) can0 09F112F8#FF78770000FF7FFD
(1785078908.093748) can0 19F10D13#C19B01A101000154
(1785078908.096400) can0 0CF00400#FF7D7D000000FFFF
(1785078908.104918) can0 09F11219#4FFEFFFF7FFF7FFC
(1785078908.116505) can0 0CF00400#FF7D7D000000FFFF
(1785078908.137530) can0 0CF00400#FF7D7D000000FFFF
(1785078908.156399) can0 0CF00400#FF7D7D000000FFFF
(1785078908.168198) can0 18F01D21#A73A0E80FFFFFFFF
(1785078908.176414) can0 0CF00400#FF7D7D000000FFFF
(1785078908.193168) can0 19F10D13#C29D01A101000153
(1785078908.196438) can0 0CF00400#FF7D7D000000FFFF
(1785078908.204946) can0 09F11219#50FEFFFF7FFF7FFC
(1785078908.216502) can0 0CF00400#FF7D7D000000FFFF
(1785078908.223840) can0 09F112F8#FF74770000FF7FFD
(1785078908.237531) can0 0CF00400#FF7D7D000000FFFF
(1785078908.253582) can0 09F8021C#11FCD6EF0000FFFF
(1785078908.254578) can0 09F8011C#A86D26183C6C5BC1
(1785078908.256362) can0 0CF00400#FF7D7D000000FFFF
(1785078908.257637) can0 18FEE81C#E8AF000021645A7E
(1785078908.267563) can0 18F01D21#A73A0E80FFFFFFFF
(1785078908.277308) can0 0CF00400#FF7D7D000000FFFF
(1785078908.293135) can0 19F10D13#C39B01A101000154
(1785078908.296380) can0 0CF00400#FF7D7D000000FFFF
(1785078908.304880) can0 09F11219#51FEFFFF7FFF7FFC
(1785078908.316407) can0 0CF00400#FF7D7D000000FFFF
(1785078908.337583) can0 0CF00400#FF7D7D000000FFFF
(1785078908.356398) can0 0CF00400#FF7D7D000000FFFF
(1785078908.361911) can0 09F112F8#FF6E770000FF7FFD
(1785078908.368101) can0 18F01D21#A73A0E80FFFFFFFF
(1785078908.376388) can0 0CF00400#FF7D7D000000FFFF
(1785078908.393619) can0 19F10D13#C49C01A101000153
(1785078908.396440) can0 0CF00400#FF7D7D000000FFFF
(1785078908.404855) can0 09F11219#52FEFFFF7FFF7FFC
(1785078908.416386) can0 0CF00400#FF7D7D000000FFFF
(1785078908.437562) can0 0CF00400#FF7D7D000000FFFF
(1785078908.456597) can0 0CF00400#FF7D7D000000FFFF
(1785078908.468327) can0 18F01D21#A73A0E80FFFFFFFF
(1785078908.476391) can0 0CF00400#FF7D7D000000FFFF
(1785078908.493162) can0 19F10D13#C59C01A101000153
(1785078908.496401) can0 0CF00400#FF7D7D000000FFFF
(1785078908.496954) can0 09F112F8#FF65770000FF7FFD
(1785078908.505731) can0 09F11219#53FEFFFF7FFF7FFC
(1785078908.516396) can0 0CF00400#FF7D7D000000FFFF
(1785078908.537536) can0 0CF00400#FF7D7D000000FFFF
(1785078908.556386) can0 0CF00400#FF7D7D000000FFFF
(1785078908.567611) can0 18F01D21#A73A0E80FFFFFFFF
(1785078908.576380) can0 0CF00400#FF7D7D000000FFFF
(1785078908.593168) can0 19F10D13#C69C01A101000153
(1785078908.596390) can0 0CF00400#FF7D7D000000FFFF
(1785078908.604900) can0 09F11219#54FEFFFF7FFF7FFC
(1785078908.616363) can0 0CF00400#FF7D7D000000FFFF
(1785078908.636384) can0 09F112F8#FF5D770000FF7FFD
(1785078908.637548) can0 0CF00400#FF7D7D000000FFFF
(1785078908.657069) can0 0CF00400#FF7D7D000000FFFF
(1785078908.668074) can0 18F01D21#A73A0E80FFFFFFFF
(1785078908.677338) can0 0CF00400#FF7D7D000000FFFF
(1785078908.693207) can0 19F10D13#C79C01A101000153
(1785078908.696368) can0 0CF00400#FF7D7D000000FFFF
(1785078908.705008) can0 09F11219#55FEFFFF7FFF7FFC
(1785078908.716532) can0 0CF00400#FF7D7D000000FFFF
(1785078908.738111) can0 0CF00400#FF7D7D000000FFFF
(1785078908.756402) can0 0CF00400#FF7D7D000000FFFF
(1785078908.758121) can0 09F8021C#12FCD6EF0300FFFF
(1785078908.759136) can0 09F8011C#A86D26183E6C5BC1
(1785078908.762352) can0 18FEE81C#E8AF000021645A7E
(1785078908.768897) can0 18F01D21#A73A0E80FFFFFFFF
(1785078908.770862) can0 09F112F8#FF53770000FF7FFD
(1785078908.776425) can0 0CF00400#FF7D7D000000FFFF
(1785078908.793166) can0 19F10D13#C89C01A101000153
(1785078908.796464) can0 0CF00400#FF7D7D000000FFFF
(1785078908.805125) can0 09F11219#56FEFFFF7FFF7FFC
(1785078908.816452) can0 0CF00400#FF7D7D000000FFFF
(1785078908.837559) can0 0CF00400#FF7D7D000000FFFF
(1785078908.856426) can0 0CF00400#FF7D7D000000FFFF
(1785078908.867723) can0 18F01D21#A73A0E80FFFFFFFF
(1785078908.876413) can0 0CF00400#FF7D7D000000FFFF
(1785078908.893241) can0 19F10D13#C99C01A101000153
(1785078908.895890) can0 18EEFF1C#0204450E00000042
(1785078908.896409) can0 0CF00400#FF7D7D000000FFFF
(1785078908.905106) can0 09F11219#57FEFFFF7FFF7FFC
(1785078908.909913) can0 09F112F8#FF47770000FF7FFD
(1785078908.916594) can0 0CF00400#FF7D7D000000FFFF
(1785078908.937493) can0 0CF00400#FF7D7D000000FFFF
(1785078908.956412) can0 0CF00400#FF7D7D000000FFFF
(1785078908.968262) can0 18F01D21#A73A0E80FFFFFFFF
(1785078908.976450) can0 0CF00400#FF7D7D000000FFFF
(1785078908.993239) can0 19F10D13#CA9C01A101000153
(1785078908.996604) can0 0CF00400#FF7D7D000000FFFF
(1785078909.005843) can0 09F11219#58FEFFFF7FFF7FFC
(1785078909.016371) can0 0CF00400#FF7D7D000000FFFF
(1785078909.037502) can0 0CF00400#FF7D7D000000FFFF
(1785078909.041970) can0 09F112F8#FF3E770000FF7FFD
(1785078909.056696) can0 0CF00400#FF7D7D000000FFFF
(1785078909.068527) can0 18F01D21#A73A0E80FFFFFFFF
(1785078909.078031) can0 0CF00400#FF7D7D000000FFFF
(1785078909.093610) can0 19F10D13#CB9C01A101000153
(1785078909.096905) can0 0CF00400#FF7D7D000000FFFF
(1785078909.104981) can0 09F11219#59FEFFFF7FFF7FFC
(1785078909.116354) can0 0CF00400#FF7D7D000000FFFF
(1785078909.137548) can0 0CF00400#FF7D7D000000FFFF
(1785078909.156487) can0 0CF00400#FF7D7D000000FFFF
(1785078909.168334) can0 18F01D21#A73A0E80FFFFFFFF
(1785078909.176426) can0 0CF00400#FF7D7D000000FFFF
(1785078909.184072) can0 09F112F8#FF39770000FF7FFD
(1785078909.193217) can0 19F10D13#CC9C01A101000153
(1785078909.196346) can0 0CF00400#FF7D7D000000FFFF
(1785078909.205059) can0 09F11219#5AFEFFFF7FFF7FFC
(1785078909.216358) can0 0CF00400#FF7D7D000000FFFF
(1785078909.237522) can0 0CF00400#FF7D7D000000FFFF
(1785078909.256353) can0 0CF00400#FF7D7D000000FFFF
(1785078909.263668) can0 09F8021C#13FCD6EF0000FFFF
(1785078909.264641) can0 09F8011C#A66D2618426C5BC1
(1785078909.267755) can0 18FEE81C#E8AF000021645A7E
(1785078909.268328) can0 18F01D21#A73A0E80FFFFFFFF
(1785078909.276365) can0 0CF00400#FF7D7D000000FFFF
(1785078909.293553) can0 19F10D13#CD9C01A101000153
(1785078909.296333) can0 0CF00400#FF7D7D000000FFFF
(1785078909.305010) can0 09F11219#5BFEFFFF7FFF7FFC
(1785078909.316332) can0 0CF00400#FF7D7D000000FFFF
(1785078909.323277) can0 09F112F8#FF31770000FF7FFD
(1785078909.337477) can0 0CF00400#FF7D7D000000FFFF
(1785078909.356365) can0 0CF00400#FF7D7D000000FFFF
(1785078909.368517) can0 18F01D21#A73A0E80FFFFFFFF
(1785078909.376366) can0 0CF00400#FF7D7D000000FFFF
(1785078909.393159) can0 19F10D13#CE9C01A101000153
(1785078909.396361) can0 0CF00400#FF7D7D000000FFFF
(1785078909.405117) can0 09F11219#5CFEFFFF7FFF7FFC
(1785078909.416365) can0 0CF00400#FF7D7D000000FFFF
(1785078909.437515) can0 0CF00400#FF7D7D000000FFFF
(1785078909.456353) can0 0CF00400#FF7D7D000000FFFF
(1785078909.460880) can0 09F112F8#FF2B770000FF7FFD
(1785078909.467860) can0 18F01D21#A73A0E80FFFFFFFF
(1785078909.476331) can0 0CF00400#FF7D7D000000FFFF
(1785078909.493160) can0 19F10D13#CF9C01A101000153
(1785078909.496367) can0 0CF00400#FF7D7D000000FFFF
(1785078909.506060) can0 09F11219#5DFEFFFF7FFF7FFC
(1785078909.516315) can0 0CF00400#FF7D7D000000FFFF
(1785078909.537498) can0 0CF00400#FF7D7D000000FFFF
(1785078909.556449) can0 0CF00400#FF7D7D000000FFFF
(1785078909.568278) can0 18F01D21#A73A0E80FFFFFFFF
(1785078909.577180) can0 0CF00400#FF7D7D000000FFFF
(1785078909.593142) can0 19F10D13#D09C01A101000153
(1785078909.596358) can0 0CF00400#FF7D7D000000FFFF
(1785078909.601924) can0 09F112F8#FF25770000FF7FFD
(1785078909.604957) can0 09F11219#5EFEFFFF7FFF7FFC
(1785078909.616326) can0 0CF00400#FF7D7D000000FFFF
(1785078909.638092) can0 0CF00400#FF7D7D000000FFFF
(1785078909.656494) can0 0CF00400#FF7D7D000000FFFF
(1785078909.668640) can0 18F01D21#A73A0E80FFFFFFFF
(1785078909.676355) can0 0CF00400#FF7D7D000000FFFF
(1785078909.693168) can0 19F10D13#D19C01A101000153
(1785078909.696375) can0 0CF00400#FF7D7D000000FFFF
(1785078909.704998) can0 09F11219#5FFEFFFF7FFF7FFC
(1785078909.716376) can0 0CF00400#FF7D7D000000FFFF
(1785078909.737485) can0 0CF00400#FF7D7D000000FFFF
(1785078909.743896) can0 09F112F8#FF1C770000FF7FFD
(1785078909.756339) can0 0CF00400#FF7D7D000000FFFF
(1785078909.767958) can0 18F01D21#A73A0E80FFFFFFFF
(1785078909.776388) can0 0CF00400#FF7D7D000000FFFF
(1785078909.779362) can0 09F8021C#14FCD6EF0200FFFF
(1785078909.780369) can0 09F8011C#A26D2618466C5BC1
(1785078909.785409) can0 18FEE81C#E8AF000021645B7E
(1785078909.793161) can0 19F10D13#D29B01A101000154
(1785078909.796338) can0 0CF00400#FF7D7D000000FFFF
(1785078909.805277) can0 09F11219#60FEFFFF7FFF7FFC
(1785078909.816340) can0 0CF00400#FF7D7D000000FFFF
(1785078909.837462) can0 0CF00400#FF7D7D000000FFFF
(1785078909.856559) can0 0CF00400#FF7D7D000000FFFF
(1785078909.868414) can0 18F01D21#A73A0E80FFFFFFFF
(1785078909.876346) can0 0CF00400#FF7D7D000000FFFF
(1785078909.880165) can0 09F112F8#FF12770000FF7FFD
(1785078909.893188) can0 19F10D13#D39C01A201000153
(1785078909.895697) can0 18EEFF1C#0204450E00000042
(1785078909.896330) can0 0CF00400#FF7D7D000000FFFF
(1785078909.905080) can0 09F11219#61FEFFFF7FFF7FFC
(1785078909.916549) can0 0CF00400#FF7D7D000000FFFF
(1785078909.937538) can0 0CF00400#FF7D7D000000FFFF
(1785078909.956350) can0 0CF00400#FF7D7D000000FFFF
(1785078909.967683) can0 18F01D21#A73A0E80FFFFFFFF
(1785078909.976354) can0 0CF00400#FF7D7D000000FFFF
(1785078909.993160) can0 19F10D13#D49C01A201000153
(1785078909.996552) can0 0CF00400#FF7D7D000000FFFF
(1785078910.005734) can0 09F11219#62FEFFFF7FFF7FFC
(1785078910.014103) can0 09F112F8#FF0B770000FF7FFD
(1785078910.016411) can0 0CF00400#FF7D7D000000FFFF
(1785078910.037509) can0 0CF00400#FF7D7D000000FFFF
(1785078910.056808) can0 0CF00400#FF7D7D000000FFFF
(1785078910.068557) can0 18F01D21#A73A0E80FFFFFFFF
(1785078910.076412) can0 0CF00400#FF7D7D000000FFFF
(1785078910.093183) can0 19F10D13#D59D01A201000153
(1785078910.096481) can0 0CF00400#FF7D7D000000FFFF
(1785078910.105094) can0 09F11219#63FEFFFF7FFF7FFC
(1785078910.116431) can0 0CF00400#FF7D7D000000FFFF
(1785078910.137442) can0 0CF00400#FF7D7D000000FFFF
(1785078910.156466) can0 0CF00400#FF7D7D000000FFFF
(1785078910.168463) can0 18F01D21#A73A0E80FFFFFFFF
(1785078910.169991) can0 09F112F8#FFFF760000FF7FFD
(1785078910.176376) can0 0CF00400#FF7D7D000000FFFF
(1785078910.193449) can0 19F10D13#D69B01A201000154
(1785078910.196536) can0 0CF00400#FF7D7D000000FFFF
(1785078910.205000) can0 09F11219#64FEFFFF7FFF7FFC
(1785078910.216346) can0 0CF00400#FF7D7D000000FFFF
(1785078910.237561) can0 0CF00400#FF7D7D000000FFFF
(1785078910.256410) can0 0CF00400#FF7D7D000000FFFF
(1785078910.267896) can0 18F01D21#A73A0E80FFFFFFFF
(1785078910.276355) can0 0CF00400#FF7D7D000000FFFF
(1785078910.285954) can0 09F8021C#15FCD6EF0000FFFF
(1785078910.287084) can0 09F8011C#A06D2618486C5BC1
(1785078910.290056) can0 18FEE81C#E8AF000021645B7E
(1785078910.293661) can0 19F10D13#D79D01A201000153
(1785078910.296746) can0 0CF00400#FF7D7D000000FFFF
(1785078910.297881) can0 09F112F8#FFF7760000FF7FFD
(1785078910.304953) can0 09F11219#65FEFFFF7FFF7FFC
(1785078910.316364) can0 0CF00400#FF7D7D000000FFFF
(1785078910.337452) can0 0CF00400#FF7D7D000000FFFF
(1785078910.356429) can0 0CF00400#FF7D7D000000FFFF
(1785078910.368313) can0 18F01D21#A73A0E80FFFFFFFF
(1785078910.376518) can0 0CF00400#FF7D7D000000FFFF
(1785078910.393161) can0 19F10D13#D89C01A201000153
(1785078910.396379) can0 0CF00400#FF7D7D000000FFFF
(1785078910.405013) can0 09F11219#66FEFFFF7FFF7FFC
(1785078910.416601) can0 0CF00400#FF7D7D000000FFFF
(1785078910.434144) can0 09F112F8#FFEB760000FF7FFD
(1785078910.437522) can0 0CF00400#FF7D7D000000FFFF
(1785078910.456387) can0 0CF00400#FF7D7D000000FFFF
(1785078910.468433) can0 18F01D21#A73A0E80FFFFFFFF
(1785078910.477117) can0 0CF00400#FF7D7D000000FFFF
(1785078910.493183) can0 19F10D13#D99C01A201000153
(1785078910.496775) can0 0CF00400#FF7D7D000000FFFF
(1785078910.505810) can0 09F11219#67FEFFFF7FFF7FFC
(1785078910.516281) can0 0CF00400#FF7D7D000000FFFF
(1785078910.537976) can0 0CF00400#FF7D7D000000FFFF
(1785078910.556367) can0 0CF00400#FF7D7D000000FFFF
(1785078910.568162) can0 18F01D21#A73A0E80FFFFFFFF
(1785078910.573367) can0 09F112F8#FFE0760000FF7FFD
(1785078910.576365) can0 0CF00400#FF7D7D000000FFFF
(1785078910.593202) can0 19F10D13#DA9D01A201000153
(1785078910.596368) can0 0CF00400#FF7D7D000000FFFF
(1785078910.604964) can0 09F11219#68FEFFFF7FFF7FFC
(1785078910.616297) can0 0CF00400#FF7D7D000000FFFF
(1785078910.637451) can0 0CF00400#FF7D7D000000FFFF
(1785078910.656511) can0 0CF00400#FF7D7D000000FFFF
(1785078910.668913) can0 18F01D21#A73A0E80FFFFFFFF
(1785078910.676372) can0 0CF00400#FF7D7D000000FFFF
(1785078910.693161) can0 19F10D13#DB9C01A201000153
(1785078910.696305) can0 0CF00400#FF7D7D000000FFFF
(1785078910.704968) can0 09F11219#69FEFFFF7FFF7FFC
(1785078910.709131) can0 09F112F8#FFDB760000FF7FFD
(1785078910.716305) can0 0CF00400#FF7D7D000000FFFF
(1785078910.737435) can0 0CF00400#FF7D7D000000FFFF
(1785078910.756299) can0 0CF00400#FF7D7D000000FFFF
(1785078910.768410) can0 18F01D21#A73A0E80FFFFFFFF
(1785078910.776303) can0 0CF00400#FF7D7D000000FFFF
(1785078910.788473) can0 09F8021C#16FCD6EF0000FFFF
(1785078910.790504) can0 09F8011C#9E6D26184E6C5BC1
(1785078910.793155) can0 19F10D13#DC9D01A201000153
(1785078910.793706) can0 18FEE81C#E8AF000021645B7E
(1785078910.796355) can0 0CF00400#FF7D7D000000FFFF
(1785078910.805229) can0 09F11219#6AFEFFFF7FFF7FFC
(1785078910.816356) can0 0CF00400#FF7D7D000000FFFF
(1785078910.837436) can0 0CF00400#FF7D7D000000FFFF
(1785078910.846423) can0 09F112F8#FFD4760000FF7FFD
(1785078910.856303) can0 0CF00400#FF7D7D000000FFFF
(1785078910.867760) can0 18F01D21#A73A0E80FFFFFFFF
(1785078910.876339) can0 0CF00400#FF7D7D000000FFFF
(1785078910.893196) can0 19F10D13#DD9D01A201000153
(1785078910.896327) can0 0CF00400#FF7D7D000000FFFF
(1785078910.905114) can0 09F11219#6BFEFFFF7FFF7FFC
(1785078910.915864) can0 18EEFF1C#0204450E00000042
(1785078910.916459) can0 0CF00400#FF7D7D000000FFFF
(1785078910.937512) can0 0CF00400#FF7D7D000000FFFF
(1785078910.956372) can0 0CF00400#FF7D7D000000FFFF
(1785078910.968298) can0 18F01D21#A73A0E80FFFFFFFF
(1785078910.976329) can0 0CF00400#FF7D7D000000FFFF
(1785078910.981215) can0 09F112F8#FFD1760000FF7FFD
(1785078910.993150) can0 19F10D13#DE9C01A201000153
(1785078910.996304) can0 0CF00400#FF7D7D000000FFFF
(1785078911.005928) can0 09F11219#6CFEFFFF7FFF7FFC
(1785078911.016269) can0 0CF00400#FF7D7D000000FFFF
(1785078911.037485) can0 0CF00400#FF7D7D000000FFFF
(1785078911.056719) can0 0CF00400#FF7D7D000000FFFF
(1785078911.068963) can0 18F01D21#A73A0E80FFFFFFFF
(1785078911.077219) can0 0CF00400#FF7D7D000000FFFF
(1785078911.093768) can0 19F10D13#DF9C01A201000153
(1785078911.096278) can0 0CF00400#FF7D7D000000FFFF
(1785078911.105220) can0 09F11219#6DFEFFFF7FFF7FFC
(1785078911.116287) can0 0CF00400#FF7D7D000000FFFF
(1785078911.120017) can0 09F112F8#FFCC760000FF7FFD
(1785078911.137497) can0 0CF00400#FF7D7D000000FFFF
(1785078911.156533) can0 0CF00400#FF7D7D000000FFFF
(1785078911.168348) can0 18F01D21#A73A0E80FFFFFFFF
(1785078911.176333) can0 0CF00400#FF7D7D000000FFFF
(1785078911.193175) can0 19F10D13#E09C01A201000153
(1785078911.196265) can0 0CF00400#FF7D7D000000FFFF
(1785078911.205153) can0 09F11219#6EFEFFFF7FFF7FFC
(1785078911.216339) can0 0CF00400#FF7D7D000000FFFF
(1785078911.237492) can0 0CF00400#FF7D7D000000FFFF
(1785078911.253939) can0 09F112F8#FFC6760000FF7FFD
(1785078911.256247) can0 0CF00400#FF7D7D000000FFFF
(1785078911.268260) can0 18F01D21#A73A0E80FFFFFFFF
(1785078911.276252) can0 0CF00400#FF7D7D000000FFFF
(1785078911.291002) can0 09F8021C#17FCD6EF0300FFFF
(1785078911.292089) can0 09F8011C#9C6D2618566C5BC1
(1785078911.293554) can0 19F10D13#E19D01A201000153
(1785078911.296074) can0 18FEE81C#E8AF000020645B7E
(1785078911.296627) can0 0CF00400#FF7D7D000000FFFF
(1785078911.305163) can0 09F11219#6FFEFFFF7FFF7FFC
(1785078911.316299) can0 0CF00400#FF7D7D000000FFFF
(1785078911.337392) can0 0CF00400#FF7D7D000000FFFF
(1785078911.356336) can0 0CF00400#FF7D7D000000FFFF
(1785078911.368666) can0 18F01D21#A73A0E80FFFFFFFF
(1785078911.377057) can0 0CF00400#FF7D7D000000FFFF
(1785078911.391852) can0 09F112F8#FFC1760000FF7FFD
(1785078911.393510) can0 19F10D13#E29C01A201000153
(1785078911.396693) can0 0CF00400#FF7D7D000000FFFF
(1785078911.405174) can0 09F11219#70FEFFFF7FFF7FFC
(1785078911.416370) can0 0CF00400#FF7D7D000000FFFF
(1785078911.437964) can0 0CF00400#FF7D7D000000FFFF
(1785078911.456289) can0 0CF00400#FF7D7D000000FFFF
(1785078911.467952) can0 18F01D21#A73A0E80FFFFFFFF
(1785078911.476511) can0 0CF00400#FF7D7D000000FFFF
(1785078911.493180) can0 19F10D13#E39C01A201000153
(1785078911.496319) can0 0CF00400#FF7D7D000000FFFF
(1785078911.505678) can0 09F11219#71FEFFFF7FFF7FFC
(1785078911.516255) can0 0CF00400#FF7D7D000000FFFF
(1785078911.528139) can0 09F112F8#FFB9760000FF7FFD
(1785078911.537460) can0 0CF00400#FF7D7D000000FFFF
(1785078911.556420) can0 0CF00400#FF7D7D000000FFFF
(1785078911.568549) can0 18F01D21#A73A0E80FFFFFFFF
(1785078911.576265) can0 0CF00400#FF7D7D000000FFFF
(1785078911.593154) can0 19F10D13#E49C01A201000153
(1785078911.596261) can0 0CF00400#FF7D7D000000FFFF
(1785078911.605134) can0 09F11219#72FEFFFF7FFF7FFC
(1785078911.616257) can0 0CF00400#FF7D7D000000FFFF
(1785078911.637468) can0 0CF00400#FF7D7D000000FFFF
(1785078911.656524) can0 0CF00400#FF7D7D000000FFFF
(1785078911.668956) can0 18F01D21#A73A0E80FFFFFFFF
(1785078911.672014) can0 09F112F8#FFB0760000FF7FFD
(1785078911.676311) can0 0CF00400#FF7D7D000000FFFF
(1785078911.693250) can0 19F10D13#E59D01A201000153
(1785078911.696311) can0 0CF00400#FF7D7D000000FFFF
(1785078911.705069) can0 09F11219#73FEFFFF7FFF7FFC
(1785078911.716227) can0 0CF00400#FF7D7D000000FFFF
(1785078911.737480) can0 0CF00400#FF7D7D000000FFFF
(1785078911.756285) can0 0CF00400#FF7D7D000000FFFF
(1785078911.768061) can0 18F01D21#A73A0E80FFFFFFFF
(1785078911.776297) can0 0CF00400#FF7D7D000000FFFF
(1785078911.793188) can0 19F10D13#E69C01A201000153
(1785078911.796286) can0 0CF00400#FF7D7D000000FFFF
(1785078911.801972) can0 09F112F8#FFA7760000FF7FFD
(1785078911.802604) can0 09F8021C#18FCD6EF0000FFFF
(1785078911.803558) can0 09F8011C#9C6D2618606C5BC1
(1785078911.805194) can0 09F11219#74FEFFFF7FFF7FFC
(1785078911.806843) can0 18FEE81C#E8AF000020645B7E
(1785078911.816460) can0 0CF00400#FF7D7D000000FFFF
(1785078911.837381) can0 0CF00400#FF7D7D000000FFFF
(1785078911.856579) can0 0CF00400#FF7D7D000000FFFF
(1785078911.868465) can0 18F01D21#A73A0E80FFFFFFFF
(1785078911.876253) can0 0CF00400#FF7D7D000000FFFF
(1785078911.893207) can0 19F10D13#E79D01A201000153
(1785078911.895830) can0 18EEFF1C#0204450E00000042
(1785078911.896272) can0 0CF00400#FF7D7D000000FFFF
(1785078911.905080) can0 09F11219#75FEFFFF7FFF7FFC
(1785078911.916245) can0 0CF00400#FF7D7D000000FFFF
(1785078911.937410) can0 0CF00400#FF7D7D000000FFFF
(1785078911.940965) can0 09F112F8#FFA0760000FF7FFD
(1785078911.956241) can0 0CF00400#FF7D7D000000FFFF
(1785078911.968767) can0 18F01D21#A73A0E80FFFFFFFF
(1785078911.976336) can0 0CF00400#FF7D7D000000FFFF
(1785078911.993238) can0 19F10D13#E89C01A201000153
(1785078911.996252) can0 0CF00400#FF7D7D000000FFFF
(1785078912.005779) can0 09F11219#76FEFFFF7FFF7FFC
(1785078912.016309) can0 0CF00400#FF7D7D000000FFFF
(1785078912.036976) can0 0CF00400#FF7D7D000000FFFF
(1785078912.056598) can0 0CF00400#FF7D7D000000FFFF
(1785078912.068452) can0 18F01D21#A73A0E80FFFFFFFF
(1785078912.076246) can0 0CF00400#FF7D7D000000FFFF
(1785078912.080043) can0 09F112F8#FF9A760000FF7FFD
(1785078912.093231) can0 19F10D13#E99C01A201000153
(1785078912.096303) can0 0CF00400#FF7D7D000000FFFF
(1785078912.105158) can0 09F11219#77FEFFFF7FFF7FFC
(1785078912.116299) can0 0CF00400#FF7D7D000000FFFF
(1785078912.136952) can0 0CF00400#FF7D7D000000FFFF
(1785078912.156310) can0 0CF00400#FF7D7D000000FFFF
(1785078912.168391) can0 18F01D21#A73A0E80FFFFFFFF
(1785078912.176307) can0 0CF00400#FF7D7D000000FFFF
(1785078912.193189) can0 19F10D13#EA9D01A201000153
(1785078912.196259) can0 0CF00400#FF7D7D000000FFFF
(1785078912.205546) can0 09F11219#78FEFFFF7FFF7FFC
(1785078912.216225) can0 0CF00400#FF7D7D000000FFFF
(1785078912.217880) can0 09F112F8#FF94760000FF7FFD
(1785078912.237121) can0 0CF00400#FF7D7D000000FFFF
(1785078912.256222) can0 0CF00400#FF7D7D000000FFFF
(1785078912.268967) can0 18F01D21#A73A0E80FFFFFFFF
(1785078912.276919) can0 0CF00400#FF7D7D000000FFFF
(1785078912.293241) can0 19F10D13#EB9C01A201000153
(1785078912.296639) can0 0CF00400#FF7D7D000000FFFF
(1785078912.305142) can0 09F11219#79FEFFFF7FFF7FFC
(1785078912.305653) can0 09F8021C#19FCD6EF0000FFFF
(1785078912.308168) can0 09F8021C#1AFCD6EF0000FFFF
(1785078912.309144) can0 09F8011C#9C6D2618666C5BC1
(1785078912.312201) can0 18FEE81C#E8AF000020645B7E
(1785078912.316218) can0 0CF00400#FF7D7D000000FFFF
(1785078912.337793) can0 0CF00400#FF7D7D000000FFFF
(1785078912.356234) can0 0CF00400#FF7D7D000000FFFF
(1785078912.360181) can0 09F112F8#FF8F760000FF7FFD
(1785078912.368096) can0 18F01D21#A73A0E80FFFFFFFF
(1785078912.376292) can0 0CF00400#FF7D7D000000FFFF
(1785078912.393176) can0 19F10D13#EC9D01A201000153
(1785078912.396241) can0 0CF00400#FF7D7D000000FFFF
(1785078912.405118) can0 09F11219#7AFEFFFF7FFF7FFC
(1785078912.416403) can0 0CF00400#FF7D7D000000FFFF
(1785078912.436944) can0 0CF00400#FF7D7D000000FFFF
(1785078912.456213) can0 0CF00400#FF7D7D000000FFFF
(1785078912.468471) can0 18F01D21#A73A0E80FFFFFFFF
(1785078912.476231) can0 0CF00400#FF7D7D000000FFFF
(1785078912.493218) can0 19F10D13#ED9C01A201000153
(1785078912.496265) can0 0CF00400#FF7D7D000000FFFF
(1785078912.498018) can0 09F112F8#FF8D760000FF7FFD
(1785078912.506110) can0 09F11219#7BFEFFFF7FFF7FFC
(1785078912.516375) can0 0CF00400#FF7D7D000000FFFF
(1785078912.537395) can0 0CF00400#FF7D7D000000FFFF
(1785078912.556283) can0 0CF00400#FF7D7D000000FFFF
(1785078912.568838) can0 18F01D21#A73A0E80FFFFFFFF
(1785078912.576242) can0 0CF00400#FF7D7D000000FFFF
(1785078912.593181) can0 19F10D13#EE9C01A201000153
(1785078912.596205) can0 0CF00400#FF7D7D000000FFFF
(1785078912.605055) can0 09F11219#7CFEFFFF7FFF7FFC
(1785078912.616233) can0 0CF00400#FF7D7D000000FFFF
(1785078912.633985) can0 09F112F8#FF8D760000FF7FFD
(1785078912.637383) can0 0CF00400#FF7D7D000000FFFF
(1785078912.656237) can0 0CF00400#FF7D7D000000FFFF
(1785078912.668511) can0 18F01D21#A73A0E80FFFFFFFF
(1785078912.676195) can0 0CF00400#FF7D7D000000FFFF
(1785078912.693161) can0 19F10D13#EF9D01A201000153
(1785078912.696230) can0 0CF00400#FF7D7D000000FFFF
(1785078912.705207) can0 09F11219#7DFEFFFF7FFF7FFC
(1785078912.716278) can0 0CF00400#FF7D7D000000FFFF
(1785078912.737549) can0 0CF00400#FF7D7D000000FFFF
(1785078912.756279) can0 0CF00400#FF7D7D000000FFFF
(1785078912.768744) can0 18F01D21#A73A0E80FFFFFFFF
(1785078912.772565) can0 09F112F8#FF8C760000FF7FFD
(1785078912.776275) can0 0CF00400#FF7D7D000000FFFF
(1785078912.793157) can0 19F10D13#F09D01A201000153
(1785078912.796208) can0 0CF00400#FF7D7D000000FFFF
(1785078912.805154) can0 09F11219#7EFEFFFF7FFF7FFC
(1785078912.815706) can0 09F8021C#1BFCD6EF0000FFFF
(1785078912.816297) can0 0CF00400#FF7D7D000000FFFF
(1785078912.816835) can0 09F8011C#986D26186E6C5BC1
(1785078912.819817) can0 18FEE81C#E8AF000020645B7E
(1785078912.837182) can0 0CF00400#FF7D7D000000FFFF
(1785078912.856298) can0 0CF00400#FF7D7D000000FFFF
(1785078912.869158) can0 18F01D21#A73A0E80FFFFFFFF
(1785078912.876261) can0 0CF00400#FF7D7D000000FFFF
(1785078912.893155) can0 19F10D13#F19C01A201000153
(1785078912.895716) can0 18EEFF1C#0204450E00000042
(1785078912.896260) can0 0CF00400#FF7D7D000000FFFF
(1785078912.905312) can0 09F11219#7FFEFFFF7FFF7FFC
(1785078912.911094) can0 09F112F8#FF8C760000FF7FFD
(1785078912.916273) can0 0CF00400#FF7D7D000000FFFF
(1785078912.937472) can0 0CF00400#FF7D7D000000FFFF
(1785078912.956421) can0 0CF00400#FF7D7D000000FFFF
(1785078912.968273) can0 18F01D21#A73A0E80FFFFFFFF
(1785078912.976191) can0 0CF00400#FF7D7D000000FFFF
(1785078912.993159) can0 19F10D13#F29C01A201000153
(1785078912.996194) can0 0CF00400#FF7D7D000000FFFF
(1785078913.005966) can0 09F11219#80FEFFFF7FFF7FFC
(1785078913.016280) can0 0CF00400#FF7D7D000000FFFF
(1785078913.037403) can0 0CF00400#FF7D7D000000FFFF
(1785078913.050066) can0 09F112F8#FF89760000FF7FFD
(1785078913.056244) can0 0CF00400#FF7D7D000000FFFF
(1785078913.068632) can0 18F01D21#A73A0E80FFFFFFFF
(1785078913.076207) can0 0CF00400#FF7D7D000000FFFF
(1785078913.093688) can0 19F10D13#F39B01A201000154
(1785078913.096737) can0 0CF00400#FF7D7D000000FFFF
(1785078913.105072) can0 09F11219#81FEFFFF7FFF7FFC
(1785078913.116189) can0 0CF00400#FF7D7D000000FFFF
(1785078913.137411) can0 0CF00400#FF7D7D000000FFFF
(1785078913.156219) can0 0CF00400#FF7D7D000000FFFF
(1785078913.167970) can0 18F01D21#A73A0E80FFFFFFFF
(1785078913.176187) can0 0CF00400#FF7D7D000000FFFF
(1785078913.183996) can0 09F112F8#FF85760000FF7FFD
(1785078913.193202) can0 19F10D13#F49C01A201000153
(1785078913.196213) can0 0CF00400#FF7D7D000000FFFF
(1785078913.205529) can0 09F11219#82FEFFFF7FFF7FFC
(1785078913.216186) can0 0CF00400#FF7D7D000000FFFF
(1785078913.237404) can0 0CF00400#FF7D7D000000FFFF
(1785078913.256252) can0 0CF00400#FF7D7D000000FFFF
(1785078913.268353) can0 18F01D21#A73A0E80FFFFFFFF
(1785078913.276896) can0 0CF00400#FF7D7D000000FFFF
(1785078913.293194) can0 19F10D13#F59B01A201000154
(1785078913.296540) can0 0CF00400#FF7D7D000000FFFF
(1785078913.305093) can0 09F11219#83FEFFFF7FFF7FFC
(1785078913.316186) can0 0CF00400#FF7D7D000000FFFF
(1785078913.321752) can0 09F8021C#1CFCD6EF0000FFFF
(1785078913.323281) can0 09F8011C#986D2618746C5BC1
(1785078913.326129) can0 09F112F8#FF87760000FF7FFD
(1785078913.327748) can0 18FEE81C#E8AF000020645B7E
(1785078913.337858) can0 0CF00400#FF7D7D000000FFFF
(1785078913.357456) can0 0CF00400#FF7D7D000000FFFF
(1785078913.368675) can0 18F01D21#A73A0E80FFFFFFFF
(1785078913.376188) can0 0CF00400#FF7D7D000000FFFF
(1785078913.393156) can0 19F10D13#F69C01A201000153
(1785078913.396183) can0 0CF00400#FF7D7D000000FFFF
(1785078913.405081) can0 09F11219#84FEFFFF7FFF7FFC
(1785078913.416180) can0 0CF00400#FF7D7D000000FFFF
(1785078913.437313) can0 0CF00400#FF7D7D000000FFFF
(1785078913.456177) can0 0CF00400#FF7D7D000000FFFF
(1785078913.459989) can0 09F112F8#FF89760000FF7FFD
(1785078913.468423) can0 18F01D21#A73A0E80FFFFFFFF
(1785078913.476166) can0 0CF00400#FF7D7D000000FFFF
(1785078913.493157) can0 19F10D13#F79C01A201000153
(1785078913.496192) can0 0CF00400#FF7D7D000000FFFF
(1785078913.505728) can0 09F11219#85FEFFFF7FFF7FFC
(1785078913.516156) can0 0CF00400#FF7D7D000000FFFF
(1785078913.537315) can0 0CF00400#FF7D7D000000FFFF
(1785078913.556156) can0 0CF00400#FF7D7D000000FFFF
(1785078913.568441) can0 18F01D21#A73A0E80FFFFFFFF
(1785078913.576184) can0 0CF00400#FF7D7D000000FFFF
(1785078913.593183) can0 19F10D13#F89C01A201000153
(1785078913.596160) can0 0CF00400#FF7D7D000000FFFF
(1785078913.600409) can0 09F112F8#FF87760000FF7FFD
(1785078913.605118) can0 09F11219#86FEFFFF7FFF7FFC
(1785078913.616162) can0 0CF00400#FF7D7D000000FFFF
(1785078913.637290) can0 0CF00400#FF7D7D000000FFFF
(1785078913.656158) can0 0CF00400#FF7D7D000000FFFF
(1785078913.668700) can0 18F01D21#A73A0E80FFFFFFFF
(1785078913.676166) can0 0CF00400#FF7D7D000000FFFF
(1785078913.693167) can0 19F10D13#F99D01A201000153
(1785078913.696164) can0 0CF00400#FF7D7D000000FFFF
(1785078913.705119) can0 09F11219#87FEFFFF7FFF7FFC
(1785078913.716170) can0 0CF00400#FF7D7D000000FFFF
(1785078913.737298) can0 0CF00400#FF7D7D000000FFFF
(1785078913.738983) can0 09F112F8#FF88760000FF7FFD
(1785078913.756165) can0 0CF00400#FF7D7D000000FFFF
(1785078913.768048) can0 18F01D21#A73A0E80FFFFFFFF
(1785078913.776170) can0 0CF00400#FF7D7D000000FFFF
(1785078913.793154) can0 19F10D13#FA9C01A201000153
