(1785080690.920518) can0 18F01D21#B4241C8000D11580
(1785080690.921154) can0 09F112F8#FFFF1D0000FF7FFD
(1785080690.921276) can0 0CF00400#FF7D7F001200FFFF
(1785080690.921307) can0 19F10D13#0D70015B0284006C
(1785080690.921328) can0 0CF00400#FF7D7FC81100FFFF
(1785080690.921908) can0 0CF00400#FF7D7F901100FFFF
(1785080690.921968) can0 0CF00400#FF7D7F881100FFFF
(1785080690.923313) can0 0CF00400#FF7D7FA01100FFFF
(1785080690.923362) can0 18F01D21#4BF41B8000D11580
(1785080690.923389) can0 0CF00400#FF7D80C81100FFFF
(1785080690.923416) can0 19F10D13#0E73015B0284006A
(1785080690.923434) can0 0CF00400#FF7D80F81100FFFF
(1785080690.923936) can0 09F112F8#FFFF1D0000FF7FFD
(1785080690.923989) can0 0CF00400#FF7D80181200FFFF
(1785080690.924026) can0 0CF00400#FF7D80001200FFFF
(1785080690.924476) can0 0CF00400#FF7D80E01100FFFF
(1785080690.924522) can0 18F01D21#FAC61B8000D11580
(1785080690.924859) can0 0CF00400#FF7D80D01100FFFF
(1785080690.925088) can0 19F10D13#0F74015B02840069
(1785080690.925300) can0 0CF00400#FF7D80E81100FFFF
(1785080690.926591) can0 0CF00400#FF7D80F81100FFFF
(1785080690.926628) can0 0CF00400#FF7D80081200FFFF
(1785080690.926649) can0 09F8021C#2FFC520FAB00FFFF
(1785080690.926669) can0 09F8011C#A27C2718589D53C1
(1785080690.926687) can0 18FEE81C#3D0B30061E644581
(1785080690.926703) can0 09F112F8#FF041E0000FF7FFD
(1785080690.926719) can0 0CF00400#FF7D80301200FFFF
(1785080690.926735) can0 18F01D21#6B911B8000D11580
(1785080690.926756) can0 0CF00400#FF7D80601200FFFF
(1785080690.927498) can0 19F10D13#1076015B02840068
(1785080690.927542) can0 0CF00400#FF7D80901200FFFF
(1785080690.927646) can0 0CF00400#FF7D80C01200FFFF
(1785080690.928103) can0 0CF00400#FF7D80D01200FFFF
(1785080690.929463) can0 0CF00400#FF7D80C01200FFFF
(1785080690.929514) can0 18F01D21#56551B8000D11580
(1785080690.929542) can0 0CF00400#FF7D80B01200FFFF
(1785080690.929569) can0 09F112F8#FF0F1E0000FF7FFD
(1785080690.929588) can0 19F10D13#1179015B02840067
(1785080690.929605) can0 0CF00400#FF7D80A81200FFFF
(1785080690.929621) can0 0CF00400#FF7D80E81200FFFF
(1785080690.930197) can0 0CF00400#FF7D80101300FFFF
(1785080690.930419) can0 0CF00400#FF7D80301300FFFF
(1785080690.930616) can0 18F01D21#7A151B8000AC1480
(1785080690.930900) can0 0CF00400#FF7D80581300FFFF
(1785080690.931123) can0 19F10D13#127B015B02840066
(1785080690.931168) can0 0CF00400#FF7D80781300FFFF
(1785080690.932472) can0 0CF00400#FF7D80781300FFFF
(1785080690.932513) can0 09F112F8#FF131E0000FF7FFD
(1785080690.932537) can0 0CF00400#FF7D7F601300FFFF
(1785080690.932556) can0 0CF00400#FF7D7F681300FFFF
(1785080690.932573) can0 18F01D21#DFBB1A8000AC1480
(1785080690.933029) can0 0CF00400#FF7D7F501300FFFF
(1785080690.933085) can0 19F10D13#137F015B02840063
(1785080690.933314) can0 0CF00400#FF7D7F281300FFFF
(1785080690.934536) can0 0CF00400#FF7D7F181300FFFF
(1785080690.934572) can0 0CF00400#FF7D7F101300FFFF
(1785080690.934594) can0 0CF00400#FF7D7F081300FFFF
(1785080690.934614) can0 18F01D21#3F561A8000AC1480
(1785080690.934631) can0 09F112F8#FF121E0000FF7FFD
(1785080690.935092) can0 0CF00400#FF7D7F201300FFFF
(1785080690.935152) can0 19F10D13#1482015B02840062
(1785080690.935186) can0 0CF00400#FF7D7F381300FFFF
(1785080690.936641) can0 0CF00400#FF7D7F481300FFFF
(1785080690.936772) can0 0CF00400#FF7D7F581300FFFF
(1785080690.936800) can0 09F8021C#30FC510DA900FFFF
(1785080690.936823) can0 09F8011C#C87C2718769D53C1
(1785080690.936843) can0 18FEE81C#C50918061E644381
(1785080690.936861) can0 0CF00400#FF7D7F381300FFFF
(1785080690.936877) can0 18F01D21#ABFD198000AC1480
(1785080690.936893) can0 0CF00400#FF7D7F201300FFFF
(1785080690.937963) can0 19F10D13#1585015B02840060
(1785080690.938032) can0 0CF00400#FF7D7F301300FFFF
(1785080690.938085) can0 09F112F8#FF091E0000FF7FFD
(1785080690.938115) can0 0CF00400#FF7D7F401300FFFF
(1785080690.938145) can0 0CF00400#FF7D7F201300FFFF
(1785080690.938814) can0 0CF00400#FF7D7F381300FFFF
(1785080690.938895) can0 18F01D21#59B9198000AC1480
(1785080690.938939) can0 0CF00400#FF7D7F601300FFFF
(1785080690.939453) can0 19F10D13#1689015B0284005E
(1785080690.939512) can0 0CF00400#FF7D7F601300FFFF
(1785080690.939846) can0 0CF00400#FF7D7F581300FFFF
(1785080690.940109) can0 0CF00400#FF7D7F281300FFFF
(1785080690.940186) can0 09F112F8#FFFB1D0000FF7FFD
(1785080690.940472) can0 0CF00400#FF7D7F001300FFFF
(1785080690.940519) can0 18F01D21#ED93198000AC1480
(1785080690.940817) can0 0CF00400#FF7D7FF81200FFFF
(1785080690.941076) can0 19F10D13#1789015B0284005E
(1785080690.941314) can0 0CF00400#FF7D7FF01200FFFF
(1785080690.941661) can0 0CF00400#FF7D7FC81200FFFF
(1785080690.942079) can0 0CF00400#FF7D7FA81200FFFF
(1785080690.943459) can0 0CF00400#FF7D7FA81200FFFF
(1785080690.943530) can0 18F01D21#D284198000AC1480
(1785080690.943556) can0 0CF00400#FF7D7FA01200FFFF
(1785080690.943575) can0 09F112F8#FFEB1D0000FF7FFD
(1785080690.943594) can0 19F10D13#188A015B0284005D
(1785080690.943617) can0 0CF00400#FF7D7FB01200FFFF
(1785080690.943633) can0 0CF00400#FF7D7FC81200FFFF
(1785080690.944313) can0 0CF00400#FF7D7FC01200FFFF
(1785080690.944376) can0 0CF00400#FF7D7FA81200FFFF
(1785080690.944679) can0 18F01D21#7283198000AC1480
(1785080690.944945) can0 0CF00400#FF7D7F781200FFFF
(1785080690.945199) can0 19F10D13#1989015B0284005E
(1785080690.945271) can0 0CF00400#FF7D7F901200FFFF
(1785080690.945679) can0 0CF00400#FF7D7FA01200FFFF
(1785080690.945740) can0 09F112F8#FFD31D0000FF7FFD
(1785080690.946095) can0 0CF00400#FF7D7FB01200FFFF
(1785080690.947487) can0 09F8021C#31FC1D0EA800FFFF
(1785080690.947685) can0 09F8011C#F27C27188C9D53C1
(1785080690.947724) can0 0CF00400#FF7D7FC01200FFFF
(1785080690.947756) can0 18FEE81C#5A0A10061E644381
(1785080690.947787) can0 18F01D21#6B82198000AC1480
(1785080690.947818) can0 0CF00400#FF7D7FB81200FFFF
(1785080690.947848) can0 19F10D13#1A89015B0284005E
(1785080690.947880) can0 0CF00400#FF7D7FA81200FFFF
(1785080690.947944) can0 0CF00400#FF7D7F981200FFFF
(1785080690.947972) can0 0CF00400#FF7D7F801200FFFF
(1785080690.949119) can0 0CF00400#FF7D7F401200FFFF
(1785080690.949188) can0 09F112F8#FFBD1D0000FF7FFD
(1785080690.949237) can0 18F01D21#6B82198000AC1480
(1785080690.949277) can0 0CF00400#FF7D7F401200FFFF
(1785080690.949309) can0 19F10D13#1B8A015B0284005D
(1785080690.949346) can0 0CF00400#FF7D7F481200FFFF
(1785080690.950117) can0 0CF00400#FF7D7F501200FFFF
(1785080690.950173) can0 0CF00400#FF7D7F701200FFFF
(1785080690.950536) can0 0CF00400#FF7D7F781200FFFF
(1785080690.950594) can0 18F01D21#1382198000AC1480
(1785080690.950969) can0 0CF00400#FF7D7F981200FFFF
(1785080690.951034) can0 19F10D13#1C8A015B0284005D
(1785080690.951447) can0 0CF00400#FF7D7FC81200FFFF
(1785080690.951512) can0 09F112F8#FFA51D0000FF7FFD
(1785080690.951873) can0 0CF00400#FF7D7FE81200FFFF
(1785080690.951992) can0 0CF00400#FF7D7FC01200FFFF
(1785080690.952478) can0 0CF00400#FF7D7F981200FFFF
(1785080690.952574) can0 18F01D21#1382198000AC1480
(1785080690.953161) can0 0CF00400#FF7D7FB81200FFFF
(1785080690.953265) can0 19F10D13#1D8B015B0284005D
(1785080690.953314) can0 0CF00400#FF7D7FC01200FFFF
(1785080690.953994) can0 0CF00400#FF7D7FC81200FFFF
(1785080690.954115) can0 0CF00400#FF7D7FD01200FFFF
(1785080690.954146) can0 09F112F8#FF921D0000FF7FFD
(1785080690.954588) can0 0CF00400#FF7D7FA81200FFFF
(1785080690.954644) can0 18F01D21#BB81198000AC1480
(1785080690.955508) can0 0CF00400#FF7D7FA01200FFFF
(1785080690.955658) can0 19F10D13#1E8A015B0284005D
(1785080690.955689) can0 0CF00400#FF7D7FC01200FFFF
(1785080690.955714) can0 0CF00400#FF7D7FD01200FFFF
(1785080690.956195) can0 0CF00400#FF7D7FC81200FFFF
(1785080690.956514) can0 0CF00400#FF7D7FE01200FFFF
(1785080690.956628) can0 09F8021C#32FC720EAA00FFFF
(1785080690.956703) can0 09F8011C#427D2718BC9D53C1
(1785080690.956738) can0 18F01D21#6381198000AC1480
(1785080690.956761) can0 18FEE81C#990A200620644281
(1785080690.956776) can0 0CF00400#FF7D7FF01200FFFF
(1785080690.957539) can0 09F112F8#FF831D0000FF7FFD
(1785080690.957612) can0 19F10D13#1F89015B0284005E
(1785080690.957651) can0 0CF00400#FF7D7FF81200FFFF
(1785080690.957699) can0 0CF00400#FF7D7FE81200FFFF
(1785080690.958336) can0 0CF00400#FF7D7FE01200FFFF
(1785080690.958401) can0 0CF00400#FF7D7FD81200FFFF
(1785080690.958711) can0 18F01D21#6381198000AC1480
(1785080690.958768) can0 0CF00400#FF7D7FD01200FFFF
(1785080690.959201) can0 19F10D13#208B015B0284005D
(1785080690.959263) can0 0CF00400#FF7D7FD81200FFFF
(1785080690.959630) can0 0CF00400#FF7D7FF01200FFFF
(1785080690.959680) can0 09F112F8#FF781D0000FF7FFD
(1785080690.960028) can0 0CF00400#FF7D7FF81200FFFF
(1785080690.961381) can0 0CF00400#FF7D7FF81200FFFF
(1785080690.961491) can0 18F01D21#6381198000AC1480
(1785080690.961529) can0 0CF00400#FF7D7FF81200FFFF
(1785080690.961562) can0 19F10D13#218A015B0284005D
(1785080690.961593) can0 0CF00400#FF7D7FF01200FFFF
(1785080690.961649) can0 0CF00400#FF7D7FE81200FFFF
(1785080690.962425) can0 0CF00400#FF7D7FE81200FFFF
(1785080690.962497) can0 09F112F8#FF6C1D0000FF7FFD
(1785080690.962535) can0 0CF00400#FF7D7FF01200FFFF
(1785080690.962567) can0 18F01D21#6381198000AC1480
(1785080690.963287) can0 0CF00400#FF7D7F001300FFFF
(1785080690.963390) can0 19F10D13#2289015B0284005E
(1785080690.963439) can0 0CF00400#FF7D7F101300FFFF
(1785080690.964000) can0 0CF00400#FF7D7F101300FFFF
(1785080690.964108) can0 0CF00400#FF7D7FF01200FFFF
(1785080690.964419) can0 0CF00400#FF7D7FD81200FFFF
(1785080690.964628) can0 18F01D21#6381198000AC1480
(1785080690.964863) can0 0CF00400#FF7D7FD01200FFFF
(1785080690.965084) can0 19F10D13#238A015B0284005D
(1785080690.965133) can0 09F112F8#FF571D0000FF7FFD
(1785080690.965168) can0 0CF00400#FF7D7FD01200FFFF
(1785080690.965668) can0 0CF00400#FF7D7FD81200FFFF
(1785080690.966987) can0 0CF00400#FF7D7FD01200FFFF
(1785080690.967063) can0 0CF00400#FF7D7FD81200FFFF
(1785080690.967089) can0 18F01D21#6381198000AC1480
(1785080690.967109) can0 09F8021C#33FC3F0EAC00FFFF
(1785080690.967125) can0 09F8011C#7C7D2718E29D53C1
(1785080690.967142) can0 18FEE81C#730A380620644181
(1785080690.967158) can0 0CF00400#FF7D7FF81200FFFF
(1785080690.967174) can0 19F10D13#248A015B0284005D
(1785080690.967190) can0 0CF00400#FF7D7F181300FFFF
(1785080690.968221) can0 0CF00400#FF7D7F181300FFFF
(1785080690.968272) can0 09F112F8#FF3C1D0000FF7FFD
(1785080690.968307) can0 0CF00400#FF7D7FF81200FFFF
(1785080690.968679) can0 0CF00400#FF7D7FF01200FFFF
(1785080690.968728) can0 18F01D21#6381198000AC1480
(1785080690.968763) can0 0CF00400#FF7D7FD01200FFFF
(1785080690.971508) can0 19F10D13#258A015B0284005D
(1785080690.971568) can0 0CF00400#FF7D7FE01200FFFF
(1785080690.971604) can0 0CF00400#FF7D7FC81200FFFF
(1785080690.971626) can0 0CF00400#FF7D7F901200FFFF
(1785080690.971644) can0 0CF00400#FF7D7FA01200FFFF
(1785080690.971662) can0 09F112F8#FF231D0000FF7FFD
(1785080690.971678) can0 18F01D21#6381198000AC1480
(1785080690.971694) can0 0CF00400#FF7D7FA81200FFFF
(1785080690.971709) can0 19F10D13#268A015B0284005D
(1785080690.971725) can0 0CF00400#FF7D7FB81200FFFF
(1785080690.971751) can0 0CF00400#FF7D7FB01200FFFF
(1785080690.972432) can0 0CF00400#FF7D7F801200FFFF
(1785080690.972480) can0 0CF00400#FF7D7F681200FFFF
(1785080690.973701) can0 18F01D21#0B81198000AC1480
(1785080690.973764) can0 0CF00400#FF7D7F601200FFFF
(1785080690.973802) can0 19F10D13#2789015B0284005E
(1785080690.973836) can0 0CF00400#FF7D7F701200FFFF
(1785080690.973868) can0 09F112F8#FF071D0000FF7FFD
(1785080690.973901) can0 0CF00400#FF7D7F581200FFFF
(1785080690.974728) can0 0CF00400#FF7D7F201200FFFF
(1785080690.974782) can0 0CF00400#FF7D7F401200FFFF
(1785080690.974821) can0 18F01D21#6381198000AC1480
(1785080690.974855) can0 0CF00400#FF7D7F681200FFFF
