(1785076482.395982) can0 18F01D21#B4241C8000D11580
(1785076482.396313) can0 09F112F8#FFFF1D0000FF7FFD
(1785076482.396399) can0 0CF00400#FF7D7F001200FFFF
(1785076482.396947) can0 19F10D13#0D70015B0284006C
(1785076482.397029) can0 0CF00400#FF7D7FC81100FFFF
(1785076482.397096) can0 0CF00400#FF7D7F901100FFFF
(1785076482.397847) can0 0CF00400#FF7D7F881100FFFF
(1785076482.397930) can0 0CF00400#FF7D7FA01100FFFF
(1785076482.397990) can0 18F01D21#4BF41B8000D11580
(1785076482.398508) can0 0CF00400#FF7D80C81100FFFF
(1785076482.398597) can0 19F10D13#0E73015B0284006A
(1785076482.398637) can0 0CF00400#FF7D80F81100FFFF
(1785076482.399136) can0 09F112F8#FFFF1D0000FF7FFD
(1785076482.399210) can0 0CF00400#FF7D80181200FFFF
(1785076482.399633) can0 0CF00400#FF7D80001200FFFF
(1785076482.399939) can0 0CF00400#FF7D80E01100FFFF
(1785076482.400012) can0 18F01D21#FAC61B8000D11580
(1785076482.400447) can0 0CF00400#FF7D80D01100FFFF
(1785076482.400530) can0 19F10D13#0F74015B02840069
(1785076482.400903) can0 0CF00400#FF7D80E81100FFFF
(1785076482.401328) can0 0CF00400#FF7D80F81100FFFF
(1785076482.401619) can0 0CF00400#FF7D80081200FFFF
(1785076482.401689) can0 09F8021C#2FFC520FAB00FFFF
(1785076482.401727) can0 09F8011C#A27C2718589D53C1
(1785076482.401756) can0 18FEE81C#3D0B30061E644581
(1785076482.401784) can0 09F112F8#FF041E0000FF7FFD
(1785076482.401811) can0 0CF00400#FF7D80301200FFFF
(1785076482.402629) can0 18F01D21#6B911B8000D11580
(1785076482.402710) can0 0CF00400#FF7D80601200FFFF
(1785076482.402764) can0 19F10D13#1076015B02840068
(1785076482.402796) can0 0CF00400#FF7D80901200FFFF
(1785076482.403379) can0 0CF00400#FF7D80C01200FFFF
(1785076482.403454) can0 0CF00400#FF7D80D01200FFFF
(1785076482.404875) can0 0CF00400#FF7D80C01200FFFF
(1785076482.404949) can0 18F01D21#56551B8000D11580
(1785076482.405005) can0 0CF00400#FF7D80B01200FFFF
(1785076482.405100) can0 09F112F8#FF0F1E0000FF7FFD
(1785076482.405136) can0 19F10D13#1179015B02840067
(1785076482.405164) can0 0CF00400#FF7D80A81200FFFF
(1785076482.405191) can0 0CF00400#FF7D80E81200FFFF
(1785076482.406259) can0 0CF00400#FF7D80101300FFFF
(1785076482.406354) can0 0CF00400#FF7D80301300FFFF
(1785076482.406427) can0 18F01D21#7A151B8000AC1480
(1785076482.406485) can0 0CF00400#FF7D80581300FFFF
(1785076482.406559) can0 19F10D13#127B015B02840066
(1785076482.406617) can0 0CF00400#FF7D80781300FFFF
(1785076482.407494) can0 0CF00400#FF7D80781300FFFF
(1785076482.407574) can0 09F112F8#FF131E0000FF7FFD
(1785076482.407632) can0 0CF00400#FF7D7F601300FFFF
(1785076482.408250) can0 0CF00400#FF7D7F681300FFFF
(1785076482.408328) can0 18F01D21#DFBB1A8000AC1480
(1785076482.408371) can0 0CF00400#FF7D7F501300FFFF
(1785076482.409024) can0 19F10D13#137F015B02840063
(1785076482.409123) can0 0CF00400#FF7D7F281300FFFF
(1785076482.409183) can0 0CF00400#FF7D7F181300FFFF
(1785076482.409761) can0 0CF00400#FF7D7F101300FFFF
(1785076482.409845) can0 0CF00400#FF7D7F081300FFFF
(1785076482.410290) can0 18F01D21#3F561A8000AC1480
(1785076482.410372) can0 09F112F8#FF121E0000FF7FFD
(1785076482.410429) can0 0CF00400#FF7D7F201300FFFF
(1785076482.410498) can0 19F10D13#1482015B02840062
(1785076482.411403) can0 0CF00400#FF7D7F381300FFFF
(1785076482.411485) can0 0CF00400#FF7D7F481300FFFF
(1785076482.411527) can0 0CF00400#FF7D7F581300FFFF
(1785076482.411955) can0 09F8021C#30FC510DA900FFFF
(1785076482.412033) can0 09F8011C#C87C2718769D53C1
(1785076482.412098) can0 18FEE81C#C50918061E644381
(1785076482.412128) can0 0CF00400#FF7D7F381300FFFF
(1785076482.412155) can0 18F01D21#ABFD198000AC1480
(1785076482.412972) can0 0CF00400#FF7D7F201300FFFF
(1785076482.413093) can0 19F10D13#1585015B02840060
(1785076482.413152) can0 0CF00400#FF7D7F301300FFFF
(1785076482.413203) can0 09F112F8#FF091E0000FF7FFD
(1785076482.413252) can0 0CF00400#FF7D7F401300FFFF
(1785076482.413983) can0 0CF00400#FF7D7F201300FFFF
(1785076482.414084) can0 0CF00400#FF7D7F381300FFFF
(1785076482.414142) can0 18F01D21#59B9198000AC1480
(1785076482.414641) can0 0CF00400#FF7D7F601300FFFF
(1785076482.414724) can0 19F10D13#1689015B0284005E
(1785076482.414760) can0 0CF00400#FF7D7F601300FFFF
(1785076482.415318) can0 0CF00400#FF7D7F581300FFFF
(1785076482.415679) can0 0CF00400#FF7D7F281300FFFF
(1785076482.415760) can0 09F112F8#FFFB1D0000FF7FFD
(1785076482.415815) can0 0CF00400#FF7D7F001300FFFF
(1785076482.416390) can0 18F01D21#ED93198000AC1480
(1785076482.416475) can0 0CF00400#FF7D7FF81200FFFF
(1785076482.416530) can0 19F10D13#1789015B0284005E
(1785076482.416672) can0 0CF00400#FF7D7FF01200FFFF
(1785076482.417423) can0 0CF00400#FF7D7FC81200FFFF
(1785076482.417501) can0 0CF00400#FF7D7FA81200FFFF
(1785076482.417954) can0 0CF00400#FF7D7FA81200FFFF
(1785076482.418033) can0 18F01D21#D284198000AC1480
(1785076482.418504) can0 0CF00400#FF7D7FA01200FFFF
(1785076482.418576) can0 09F112F8#FFEB1D0000FF7FFD
(1785076482.418615) can0 19F10D13#188A015B0284005D
(1785076482.418655) can0 0CF00400#FF7D7FB01200FFFF
(1785076482.419470) can0 0CF00400#FF7D7FC81200FFFF
(1785076482.419552) can0 0CF00400#FF7D7FC01200FFFF
(1785076482.419995) can0 0CF00400#FF7D7FA81200FFFF
(1785076482.420091) can0 18F01D21#7283198000AC1480
(1785076482.420565) can0 0CF00400#FF7D7F781200FFFF
(1785076482.420641) can0 19F10D13#1989015B0284005E
(1785076482.420691) can0 0CF00400#FF7D7F901200FFFF
(1785076482.421278) can0 0CF00400#FF7D7FA01200FFFF
(1785076482.421355) can0 09F112F8#FFD31D0000FF7FFD
(1785076482.421477) can0 0CF00400#FF7D7FB01200FFFF
(1785076482.422091) can0 09F8021C#31FC1D0EA800FFFF
(1785076482.422170) can0 09F8011C#F27C27188C9D53C1
(1785076482.422227) can0 0CF00400#FF7D7FC01200FFFF
(1785076482.422276) can0 18FEE81C#5A0A10061E644381
(1785076482.422324) can0 18F01D21#6B82198000AC1480
(1785076482.422372) can0 0CF00400#FF7D7FB81200FFFF
(1785076482.423368) can0 19F10D13#1A89015B0284005E
(1785076482.423499) can0 0CF00400#FF7D7FA81200FFFF
(1785076482.423576) can0 0CF00400#FF7D7F981200FFFF
(1785076482.423626) can0 0CF00400#FF7D7F801200FFFF
(1785076482.424302) can0 0CF00400#FF7D7F401200FFFF
(1785076482.424384) can0 09F112F8#FFBD1D0000FF7FFD
(1785076482.424424) can0 18F01D21#6B82198000AC1480
(1785076482.424456) can0 0CF00400#FF7D7F401200FFFF
(1785076482.424557) can0 19F10D13#1B8A015B0284005D
(1785076482.425464) can0 0CF00400#FF7D7F481200FFFF
(1785076482.425557) can0 0CF00400#FF7D7F501200FFFF
(1785076482.425628) can0 0CF00400#FF7D7F701200FFFF
(1785076482.426169) can0 0CF00400#FF7D7F781200FFFF
(1785076482.426270) can0 18F01D21#1382198000AC1480
(1785076482.426327) can0 0CF00400#FF7D7F981200FFFF
(1785076482.426921) can0 19F10D13#1C8A015B0284005D
(1785076482.427004) can0 0CF00400#FF7D7FC81200FFFF
(1785076482.427079) can0 09F112F8#FFA51D0000FF7FFD
(1785076482.427113) can0 0CF00400#FF7D7FE81200FFFF
(1785076482.427847) can0 0CF00400#FF7D7FC01200FFFF
(1785076482.427927) can0 0CF00400#FF7D7F981200FFFF
(1785076482.427983) can0 18F01D21#1382198000AC1480
(1785076482.428613) can0 0CF00400#FF7D7FB81200FFFF
(1785076482.428694) can0 19F10D13#1D8B015B0284005D
(1785076482.428735) can0 0CF00400#FF7D7FC01200FFFF
(1785076482.429356) can0 0CF00400#FF7D7FC81200FFFF
(1785076482.429435) can0 0CF00400#FF7D7FD01200FFFF
(1785076482.429476) can0 09F112F8#FF921D0000FF7FFD
(1785076482.430029) can0 0CF00400#FF7D7FA81200FFFF
(1785076482.430121) can0 18F01D21#BB81198000AC1480
(1785076482.430598) can0 0CF00400#FF7D7FA01200FFFF
(1785076482.430769) can0 19F10D13#1E8A015B0284005D
(1785076482.430840) can0 0CF00400#FF7D7FC01200FFFF
(1785076482.431472) can0 0CF00400#FF7D7FD01200FFFF
(1785076482.431551) can0 0CF00400#FF7D7FC81200FFFF
(1785076482.431971) can0 0CF00400#FF7D7FE01200FFFF
(1785076482.432059) can0 09F8021C#32FC720EAA00FFFF
(1785076482.432115) can0 09F8011C#427D2718BC9D53C1
(1785076482.432164) can0 18F01D21#6381198000AC1480
(1785076482.432214) can0 18FEE81C#990A200620644281
(1785076482.432262) can0 0CF00400#FF7D7FF01200FFFF
(1785076482.433407) can0 09F112F8#FF831D0000FF7FFD
(1785076482.433497) can0 19F10D13#1F89015B0284005E
(1785076482.433557) can0 0CF00400#FF7D7FF81200FFFF
(1785076482.433628) can0 0CF00400#FF7D7FE81200FFFF
(1785076482.433678) can0 0CF00400#FF7D7FE01200FFFF
(1785076482.434555) can0 0CF00400#FF7D7FD81200FFFF
(1785076482.434639) can0 18F01D21#6381198000AC1480
(1785076482.434695) can0 0CF00400#FF7D7FD01200FFFF
(1785076482.434745) can0 19F10D13#208B015B0284005D
(1785076482.434793) can0 0CF00400#FF7D7FD81200FFFF
(1785076482.435714) can0 0CF00400#FF7D7FF01200FFFF
(1785076482.435797) can0 09F112F8#FF781D0000FF7FFD
(1785076482.435840) can0 0CF00400#FF7D7FF81200FFFF
(1785076482.435872) can0 0CF00400#FF7D7FF81200FFFF
(1785076482.436523) can0 18F01D21#6381198000AC1480
(1785076482.436604) can0 0CF00400#FF7D7FF81200FFFF
(1785076482.436660) can0 19F10D13#218A015B0284005D
(1785076482.436709) can0 0CF00400#FF7D7FF01200FFFF
(1785076482.437451) can0 0CF00400#FF7D7FE81200FFFF
(1785076482.437525) can0 0CF00400#FF7D7FE81200FFFF
(1785076482.437949) can0 09F112F8#FF6C1D0000FF7FFD
(1785076482.438026) can0 0CF00400#FF7D7FF01200FFFF
(1785076482.438095) can0 18F01D21#6381198000AC1480
(1785076482.438686) can0 0CF00400#FF7D7F001300FFFF
(1785076482.438759) can0 19F10D13#2289015B0284005E
(1785076482.438798) can0 0CF00400#FF7D7F101300FFFF
(1785076482.439372) can0 0CF00400#FF7D7F101300FFFF
(1785076482.439445) can0 0CF00400#FF7D7FF01200FFFF
(1785076482.439887) can0 0CF00400#FF7D7FD81200FFFF
(1785076482.440031) can0 18F01D21#6381198000AC1480
(1785076482.440505) can0 0CF00400#FF7D7FD01200FFFF
(1785076482.440579) can0 19F10D13#238A015B0284005D
(1785076482.440634) can0 09F112F8#FF571D0000FF7FFD
(1785076482.440683) can0 0CF00400#FF7D7FD01200FFFF
(1785076482.441456) can0 0CF00400#FF7D7FD81200FFFF
(1785076482.441533) can0 0CF00400#FF7D7FD01200FFFF
(1785076482.441946) can0 0CF00400#FF7D7FD81200FFFF
(1785076482.442024) can0 18F01D21#6381198000AC1480
(1785076482.442095) can0 09F8021C#33FC3F0EAC00FFFF
(1785076482.442146) can0 09F8011C#7C7D2718E29D53C1
(1785076482.442194) can0 18FEE81C#730A380620644181
(1785076482.442243) can0 0CF00400#FF7D7FF81200FFFF
(1785076482.443291) can0 19F10D13#248A015B0284005D
(1785076482.443375) can0 0CF00400#FF7D7F181300FFFF
(1785076482.443428) can0 0CF00400#FF7D7F181300FFFF
(1785076482.443459) can0 09F112F8#FF3C1D0000FF7FFD
(1785076482.443487) can0 0CF00400#FF7D7FF81200FFFF
(1785076482.444352) can0 0CF00400#FF7D7FF01200FFFF
(1785076482.444434) can0 18F01D21#6381198000AC1480
(1785076482.444490) can0 0CF00400#FF7D7FD01200FFFF
(1785076482.444541) can0 19F10D13#258A015B0284005D
(1785076482.445299) can0 0CF00400#FF7D7FE01200FFFF
(1785076482.445399) can0 0CF00400#FF7D7FC81200FFFF
(1785076482.445455) can0 0CF00400#FF7D7F901200FFFF
(1785076482.445986) can0 0CF00400#FF7D7FA01200FFFF
(1785076482.446075) can0 09F112F8#FF231D0000FF7FFD
(1785076482.446116) can0 18F01D21#6381198000AC1480
(1785076482.446715) can0 0CF00400#FF7D7FA81200FFFF
(1785076482.446795) can0 19F10D13#268A015B0284005D
(1785076482.446851) can0 0CF00400#FF7D7FB81200FFFF
(1785076482.447423) can0 0CF00400#FF7D7FB01200FFFF
(1785076482.447516) can0 0CF00400#FF7D7F801200FFFF
(1785076482.447932) can0 0CF00400#FF7D7F681200FFFF
(1785076482.448009) can0 18F01D21#0B81198000AC1480
(1785076482.448506) can0 0CF00400#FF7D7F601200FFFF
(1785076482.448581) can0 19F10D13#2789015B0284005E
(1785076482.448620) can0 0CF00400#FF7D7F701200FFFF
(1785076482.449149) can0 09F112F8#FF071D0000FF7FFD
(1785076482.449230) can0 0CF00400#FF7D7F581200FFFF
(1785076482.449692) can0 0CF00400#FF7D7F201200FFFF
(1785076482.450023) can0 0CF00400#FF7D7F401200FFFF
(1785076482.450140) can0 18F01D21#6381198000AC1480
(1785076482.450269) can0 0CF00400#FF7D7F681200FFFF
(1785076482.450818) can0 19F10D13#288A015B0284005D
(1785076482.450896) can0 0CF00400#FF7D7F901200FFFF
(1785076482.451386) can0 0CF00400#FF7D7F981200FFFF
(1785076482.451486) can0 0CF00400#FF7D7F901200FFFF
(1785076482.451539) can0 09F112F8#FFE61C0000FF7FFD
(1785076482.452129) can0 0CF00400#FF7D7F301200FFFF
(1785076482.452205) can0 18F01D21#6381198000AC1480
(1785076482.452247) can0 0CF00400#FF7D7FF01100FFFF
(1785076482.452279) can0 09F8021C#34FC0F0DA900FFFF
(1785076482.452307) can0 09F8011C#AE7D2718FE9D53C1
(1785076482.452405) can0 18FEE81C#9409180620644081
(1785076482.453368) can0 19F10D13#298A015B0284005D
(1785076482.453452) can0 0CF00400#FF7D7FF81100FFFF
(1785076482.453511) can0 0CF00400#FF7D80181200FFFF
(1785076482.453581) can0 0CF00400#FF7D80201200FFFF
(1785076482.454282) can0 0CF00400#FF7D80481200FFFF
(1785076482.454366) can0 18F01D21#0B81198000AC1480
(1785076482.454422) can0 09F112F8#FFCA1C0000FF7FFD
(1785076482.454471) can0 0CF00400#FF7D80881200FFFF
(1785076482.454520) can0 19F10D13#2A8B015B0284005D
(1785076482.455423) can0 0CF00400#FF7D80981200FFFF
(1785076482.455503) can0 0CF00400#FF7D80A81200FFFF
(1785076482.455553) can0 0CF00400#FF7D80C01200FFFF
(1785076482.456107) can0 0CF00400#FF7D80A81200FFFF
(1785076482.456188) can0 18F01D21#6381198000AC1480
(1785076482.456256) can0 0CF00400#FF7D7F881200FFFF
(1785076482.456838) can0 19F10D13#2B8A015B0284005D
(1785076482.456919) can0 0CF00400#FF7D80901200FFFF
(1785076482.456975) can0 09F112F8#FFAA1C0000FF7FFD
(1785076482.457110) can0 0CF00400#FF7D80B81200FFFF
(1785076482.457969) can0 0CF00400#FF7D7FB01200FFFF
(1785076482.458063) can0 0CF00400#FF7D7FC01200FFFF
(1785076482.458138) can0 18F01D21#0B81198000AC1480
(1785076482.458850) can0 0CF00400#FF7D7FE81200FFFF
(1785076482.458921) can0 19F10D13#2C89015B0284005E
(1785076482.458959) can0 0CF00400#FF7D7FF01200FFFF
(1785076482.459499) can0 0CF00400#FF7D7FE81200FFFF
(1785076482.459582) can0 0CF00400#FF7D7FF81200FFFF
(1785076482.459667) can0 09F112F8#FF831C0000FF7FFD
(1785076482.460263) can0 0CF00400#FF7D7FC01200FFFF
(1785076482.460326) can0 18F01D21#0B81198000AC1480
(1785076482.460363) can0 0CF00400#FF7D7F981200FFFF
(1785076482.460893) can0 19F10D13#2D89015B0284005E
(1785076482.460971) can0 0CF00400#FF7D7F781200FFFF
(1785076482.461091) can0 0CF00400#FF7D7F681200FFFF
(1785076482.461647) can0 0CF00400#FF7D7F181200FFFF
(1785076482.461943) can0 0CF00400#FF7D7F201200FFFF
(1785076482.462014) can0 18F01D21#6381198000AC1480
(1785076482.462477) can0 0CF00400#FF7D80501200FFFF
(1785076482.462534) can0 09F112F8#FF631C0000FF7FFD
(1785076482.462569) can0 09F8021C#35FCFB0DAA00FFFF
(1785076482.462596) can0 09F8021C#36FCFB0DAA00FFFF
(1785076482.462622) can0 09F8011C#D87D2718169E53C1
(1785076482.462647) can0 19F10D13#2E89015B0284005E
(1785076482.462672) can0 18FEE81C#410A200641643F81
(1785076482.462696) can0 0CF00400#FF7D80701200FFFF
(1785076482.463865) can0 0CF00400#FF7D80881200FFFF
(1785076482.463964) can0 0CF00400#FF7D80B01200FFFF
(1785076482.464020) can0 0CF00400#FF7D80981200FFFF
(1785076482.464087) can0 18F01D21#6381198000AC1480
(1785076482.464746) can0 0CF00400#FF7D80701200FFFF
(1785076482.464838) can0 19F10D13#2F89015B0284005E
(1785076482.464893) can0 0CF00400#FF7D80581200FFFF
(1785076482.465480) can0 0CF00400#FF7D80701200FFFF
(1785076482.465555) can0 09F112F8#FF451C0000FF7FFD
(1785076482.465625) can0 0CF00400#FF7D80601200FFFF
(1785076482.466215) can0 0CF00400#FF7D80581200FFFF
(1785076482.466290) can0 18F01D21#0B81198000AC1480
(1785076482.466341) can0 0CF00400#FF7D80701200FFFF
(1785076482.466865) can0 19F10D13#3089015B0284005E
(1785076482.466928) can0 0CF00400#FF7D80A01200FFFF
(1785076482.467455) can0 0CF00400#FF7D80C81200FFFF
(1785076482.467524) can0 0CF00400#FF7D80D01200FFFF
(1785076482.467981) can0 09F112F8#FF2B1C0000FF7FFD
(1785076482.468061) can0 0CF00400#FF7D80C01200FFFF
(1785076482.468101) can0 18F01D21#6381198000AC1480
(1785076482.468724) can0 0CF00400#FF7D80B81200FFFF
(1785076482.468774) can0 19F10D13#318A015B0284005D
(1785076482.468807) can0 0CF00400#FF7D80C81200FFFF
(1785076482.469350) can0 0CF00400#FF7D80C81200FFFF
(1785076482.469414) can0 0CF00400#FF7D7FB81200FFFF
(1785076482.470962) can0 0CF00400#FF7D7FD01200FFFF
(1785076482.471020) can0 18F01D21#6381198000AC1480
(1785076482.471065) can0 0CF00400#FF7D80F81200FFFF
(1785076482.471095) can0 19F10D13#328A015B0284005D
(1785076482.471122) can0 09F112F8#FF0C1C0000FF7FFD
(1785076482.471147) can0 0CF00400#FF7D80181300FFFF
(1785076482.471171) can0 0CF00400#FF7D7F081300FFFF
(1785076482.472173) can0 0CF00400#FF7D7F001300FFFF
(1785076482.472251) can0 0CF00400#FF7D7FE81200FFFF
(1785076482.472287) can0 18F01D21#6381198000AC1480
(1785076482.472317) can0 0CF00400#FF7D7FE01200FFFF
(1785076482.472960) can0 19F10D13#338A015B0284005D
(1785076482.473037) can0 0CF00400#FF7D7FD81200FFFF
(1785076482.473093) can0 09F8021C#37FC7E0DAC00FFFF
(1785076482.473123) can0 09F8011C#387E27184A9E53C1
(1785076482.473151) can0 18FEE81C#E609380645643E81
(1785076482.473177) can0 0CF00400#FF7D7F901200FFFF
(1785076482.473840) can0 09F112F8#FFEB1B0000FF7FFD
(1785076482.473899) can0 0CF00400#FF7D7F801200FFFF
(1785076482.473943) can0 0CF00400#FF7D7F801200FFFF
(1785076482.474527) can0 18F01D21#6381198000AC1480
(1785076482.474587) can0 0CF00400#FF7D7F881200FFFF
(1785076482.474621) can0 19F10D13#348A015B0284005D
(1785076482.474650) can0 0CF00400#FF7D80A01200FFFF
(1785076482.475544) can0 0CF00400#FF7D80D81200FFFF
(1785076482.475625) can0 0CF00400#FF7D7FF01200FFFF
(1785076482.476119) can0 0CF00400#FF7D7FE81200FFFF
(1785076482.476202) can0 09F112F8#FFD31B0000FF7FFD
(1785076482.476259) can0 18F01D21#6381198000AC1480
(1785076482.476309) can0 0CF00400#FF7D7FE81200FFFF
(1785076482.477063) can0 19F10D13#358A015B0284005D
(1785076482.477138) can0 0CF00400#FF7D7FE01200FFFF
(1785076482.477190) can0 0CF00400#FF7D7FF01200FFFF
(1785076482.477782) can0 0CF00400#FF7D7F101300FFFF
(1785076482.477871) can0 0CF00400#FF7D7F101300FFFF
(1785076482.478274) can0 18F01D21#6381198000AC1480
(1785076482.478342) can0 0CF00400#FF7D7F101300FFFF
(1785076482.478784) can0 19F10D13#368A015B0284005D
(1785076482.478836) can0 0CF00400#FF7D7F281300FFFF
(1785076482.478869) can0 09F112F8#FFBF1B0000FF7FFD
(1785076482.479438) can0 0CF00400#FF7D7F301300FFFF
(1785076482.479497) can0 0CF00400#FF7D7FF01200FFFF
(1785076482.479873) can0 0CF00400#FF7D7FC01200FFFF
(1785076482.480170) can0 18F01D21#0B81198000AC1480
(1785076482.480247) can0 0CF00400#FF7D7FC81200FFFF
(1785076482.480691) can0 19F10D13#378B015B0284005D
(1785076482.480760) can0 0CF00400#FF7D7FD01200FFFF
(1785076482.481234) can0 0CF00400#FF7D7FA01200FFFF
(1785076482.481627) can0 09F112F8#FFA61B0000FF7FFD
(1785076482.481711) can0 0CF00400#FF7D7FB81200FFFF
(1785076482.481881) can0 0CF00400#FF7D7FB01200FFFF
(1785076482.482711) can0 18F01D21#6381198000AC1480
(1785076482.482836) can0 0CF00400#FF7D7FA81200FFFF
(1785076482.482913) can0 19F10D13#388A015B0284005D
(1785076482.482968) can0 0CF00400#FF7D7FC01200FFFF
(1785076482.483018) can0 09F8021C#38FC540DAF00FFFF
(1785076482.483072) can0 09F8011C#6E7E2718689E53C1
(1785076482.483103) can0 18FEE81C#C709500643643D81
(1785076482.483129) can0 0CF00400#FF7D7FF01200FFFF
(1785076482.484638) can0 0CF00400#FF7D7FF01200FFFF
(1785076482.484791) can0 0CF00400#FF7D7F181300FFFF
(1785076482.484856) can0 18F01D21#6381198000AC1480
(1785076482.484913) can0 09F112F8#FF861B0000FF7FFD
(1785076482.484974) can0 0CF00400#FF7D7F301300FFFF
(1785076482.485032) can0 19F10D13#3989015B0284005E
(1785076482.485103) can0 0CF00400#FF7D7F401300FFFF
(1785076482.485153) can0 0CF00400#FF7D7F401300FFFF
(1785076482.486259) can0 0CF00400#FF7D7F381300FFFF
(1785076482.486366) can0 0CF00400#FF7D7F381300FFFF
(1785076482.486409) can0 18F01D21#6381198000AC1480
(1785076482.486440) can0 0CF00400#FF7D7F481300FFFF
(1785076482.487018) can0 19F10D13#3A8B015B0284005D
(1785076482.487117) can0 0CF00400#FF7D7F481300FFFF
(1785076482.487158) can0 09F112F8#FF661B0000FF7FFD
(1785076482.487188) can0 0CF00400#FF7D7F381300FFFF
(1785076482.487842) can0 0CF00400#FF7D7F381300FFFF
(1785076482.487936) can0 0CF00400#FF7D7F101300FFFF
(1785076482.488017) can0 18F01D21#0B81198000AC1480
(1785076482.488406) can0 0CF00400#FF7D7F081300FFFF
(1785076482.488994) can0 19F10D13#3B8A015B0284005D
(1785076482.489160) can0 0CF00400#FF7D7F001300FFFF
(1785076482.489234) can0 0CF00400#FF7D7F081300FFFF
(1785076482.489966) can0 0CF00400#FF7D7F181300FFFF
(1785076482.490100) can0 09F112F8#FF431B0000FF7FFD
(1785076482.490184) can0 0CF00400#FF7D7F281300FFFF
(1785076482.490275) can0 18F01D21#6381198000AC1480
(1785076482.490332) can0 0CF00400#FF7D7F401300FFFF
(1785076482.491332) can0 19F10D13#3C8A015B0284005D
(1785076482.491454) can0 0CF00400#FF7D7F481300FFFF
(1785076482.491528) can0 0CF00400#FF7D7F481300FFFF
(1785076482.491585) can0 0CF00400#FF7D7F381300FFFF
(1785076482.492312) can0 0CF00400#FF7D7FE81200FFFF
(1785076482.492401) can0 18F01D21#6381198000AC1480
(1785076482.492476) can0 0CF00400#FF7D7FA81200FFFF
(1785076482.492526) can0 09F112F8#FF171B0000FF7FFD
(1785076482.492574) can0 19F10D13#3D8A015B0284005D
(1785076482.492623) can0 0CF00400#FF7D7FA81200FFFF
(1785076482.493667) can0 0CF00400#FF7D7FC01200FFFF
(1785076482.493753) can0 09F8021C#39FCB70CA800FFFF
(1785076482.493798) can0 09F8011C#A07E2718849E53C1
(1785076482.493831) can0 18FEE81C#5409100643643C81
(1785076482.493859) can0 0CF00400#FF7D7FD81200FFFF
(1785076482.493884) can0 0CF00400#FF7D7FE81200FFFF
(1785076482.494844) can0 18F01D21#6381198000AC1480
(1785076482.494976) can0 0CF00400#FF7D7FF81200FFFF
(1785076482.495038) can0 19F10D13#3E89015B0284005E
(1785076482.495112) can0 0CF00400#FF7D7F301300FFFF
(1785076482.495162) can0 09F112F8#FFEB1A0000FF7FFD
(1785076482.495211) can0 0CF00400#FF7D7F181300FFFF
(1785076482.495716) can0 18FF50E0#0000800080008001
(1785076482.496680) can0 0CF00400#FF7D7FE01200FFFF
(1785076482.496773) can0 0CF00400#FF7D7FD81200FFFF
(1785076482.496834) can0 18F01D21#6381198000AC1480
(1785076482.496905) can0 0CF00400#FF7D7FA01200FFFF
(1785076482.496954) can0 19F10D13#3F8A015B0284005D
(1785076482.497003) can0 0CF00400#FF7D7FB01200FFFF
(1785076482.497062) can0 0CF00400#FF7D7FA81200FFFF
(1785076482.498278) can0 0CF00400#FF7D7FA01200FFFF
(1785076482.498385) can0 0CF00400#FF7D7FC01200FFFF
(1785076482.498432) can0 09F112F8#FFC01A0000FF7FFD
(1785076482.498480) can0 18F01D21#6381198000AC1480
(1785076482.498532) can0 0CF00400#FF7D7FE01200FFFF
(1785076482.498597) can0 19F10D13#408A015B0284005D
(1785076482.498644) can0 0CF00400#FF7D7FE01200FFFF
(1785076482.499982) can0 0CF00400#FF7D7FD81200FFFF
(1785076482.500130) can0 0CF00400#FF7D7FD81200FFFF
(1785076482.500180) can0 0CF00400#FF7D7FD81200FFFF
(1785076482.500216) can0 18F01D21#6381198000AC1480
(1785076482.500246) can0 0CF00400#FF7D7FC81200FFFF
(1785076482.501077) can0 19F10D13#418A015B0284005D
(1785076482.501158) can0 0CF00400#FF7D7FC01200FFFF
(1785076482.501200) can0 09F112F8#FF8D1A0000FF7FFD
(1785076482.501231) can0 0CF00400#FF7D7FA81200FFFF
(1785076482.501953) can0 0CF00400#FF7D7FA01200FFFF
(1785076482.502060) can0 0CF00400#FF7D7FD01200FFFF
(1785076482.502122) can0 18F01D21#0B81198000AC1480
(1785076482.502733) can0 0CF00400#FF7D7FE81200FFFF
(1785076482.502824) can0 19F10D13#428A015B0284005D
(1785076482.502862) can0 0CF00400#FF7D7FF01200FFFF
(1785076482.503450) can0 0CF00400#FF7D7FE81200FFFF
(1785076482.503562) can0 09F8021C#3AFCB60CA900FFFF
(1785076482.503618) can0 09F8011C#C67E2718929E53C1
(1785076482.503672) can0 18FEE81C#5309180643643C81
(1785076482.503738) can0 09F112F8#FF611A0000FF7FFD
(1785076482.503796) can0 0CF00400#FF7D7FC81200FFFF
(1785076482.503846) can0 0CF00400#FF7D7F901200FFFF
(1785076482.504989) can0 18F01D21#0B81198000AC1480
(1785076482.505096) can0 0CF00400#FF7D7F801200FFFF
(1785076482.505156) can0 19F10D13#4389015B0284005E
(1785076482.505189) can0 0CF00400#FF7D7F881200FFFF
(1785076482.505217) can0 0CF00400#FF7D7F881200FFFF
(1785076482.506072) can0 0CF00400#FF7D7F881200FFFF
(1785076482.506181) can0 0CF00400#FF7D7FA01200FFFF
(1785076482.506246) can0 18F01D21#6381198000AC1480
(1785076482.506301) can0 09F112F8#FF2C1A0000FF7FFD
(1785076482.506360) can0 0CF00400#FF7D7FD01200FFFF
(1785076482.507268) can0 19F10D13#448A015B0284005D
(1785076482.507390) can0 0CF00400#FF7D7FE81200FFFF
(1785076482.507450) can0 0CF00400#FF7D7FE81200FFFF
(1785076482.507501) can0 0CF00400#FF7D7FC81200FFFF
(1785076482.508245) can0 0CF00400#FF7D7F801200FFFF
(1785076482.508343) can0 18F01D21#6381198000AC1480
(1785076482.508408) can0 0CF00400#FF7D7F481200FFFF
(1785076482.509112) can0 19F10D13#4589015B0284005E
(1785076482.509223) can0 0CF00400#FF7D7F501200FFFF
(1785076482.509316) can0 09F112F8#FF001A0000FF7FFD
(1785076482.509368) can0 0CF00400#FF7D7F581200FFFF
(1785076482.509466) can0 0CF00400#FF7D80601200FFFF
(1785076482.510430) can0 0CF00400#FF7D80781200FFFF
(1785076482.510504) can0 18F01D21#6381198000AC1480
(1785076482.510545) can0 0CF00400#FF7D80B01200FFFF
(1785076482.510576) can0 19F10D13#468A015B0284005D
(1785076482.510661) can0 0CF00400#FF7D7FC81200FFFF
(1785076482.511283) can0 0CF00400#FF7D80D81200FFFF
(1785076482.511868) can0 0CF00400#FF7D7FD01200FFFF
(1785076482.511948) can0 09F112F8#FFD6190000FF7FFD
(1785076482.512002) can0 0CF00400#FF7D7F981200FFFF
(1785076482.512068) can0 18F01D21#6381198000AC1480
(1785076482.512594) can0 0CF00400#FF7D7F881200FFFF
(1785076482.512656) can0 19F10D13#478B015B0284005D
(1785076482.512692) can0 0CF00400#FF7D7F981200FFFF
(1785076482.513487) can0 0CF00400#FF7D7FA81200FFFF
(1785076482.513548) can0 0CF00400#FF7D7FB81200FFFF
(1785076482.513584) can0 09F8021C#3BFCC40DAC00FFFF
(1785076482.513624) can0 09F8011C#F47E2718AC9E53C1
(1785076482.513651) can0 18FEE81C#190A380610643B81
(1785076482.514111) can0 0CF00400#FF7D7FB81200FFFF
(1785076482.514181) can0 18F01D21#6381198000AC1480
(1785076482.515081) can0 0CF00400#FF7D7FD81200FFFF
(1785076482.515151) can0 19F10D13#488A015B0284005D
(1785076482.515190) can0 09F112F8#FFB3190000FF7FFD
(1785076482.515221) can0 0CF00400#FF7D7FC81200FFFF
(1785076482.515259) can0 0CF00400#FF7D7FA81200FFFF
(1785076482.516108) can0 0CF00400#FF7D7FA01200FFFF
(1785076482.516189) can0 0CF00400#FF7D7FA81200FFFF
(1785076482.516245) can0 18F01D21#6381198000AC1480
(1785076482.516299) can0 0CF00400#FF7D7FA01200FFFF
(1785076482.516788) can0 19F10D13#498A015B0284005D
(1785076482.516853) can0 0CF00400#FF7D7F881200FFFF
(1785076482.517230) can0 0CF00400#FF7D7F701200FFFF
(1785076482.517293) can0 09F112F8#FF97190000FF7FFD
(1785076482.518426) can0 0CF00400#FF7D7F901200FFFF
(1785076482.518533) can0 0CF00400#FF7D7FC01200FFFF
(1785076482.518577) can0 18F01D21#6381198000AC1480
(1785076482.518608) can0 0CF00400#FF7D7FC81200FFFF
(1785076482.518635) can0 19F10D13#4A8A015B0284005D
(1785076482.518660) can0 0CF00400#FF7D7FC81200FFFF
(1785076482.519868) can0 0CF00400#FF7D7FC01200FFFF
(1785076482.519953) can0 0CF00400#FF7D7F981200FFFF
(1785076482.520011) can0 0CF00400#FF7D7FA01200FFFF
(1785076482.520076) can0 18F01D21#6381198000AC1480
(1785076482.520110) can0 09F112F8#FF75190000FF7FFD
(1785076482.520933) can0 0CF00400#FF7D7F981200FFFF
(1785076482.521026) can0 19F10D13#4B8A015B0284005D
(1785076482.521119) can0 0CF00400#FF7D7FA01200FFFF
(1785076482.521161) can0 0CF00400#FF7D7F901200FFFF
(1785076482.521832) can0 0CF00400#FF7D7F501200FFFF
(1785076482.521933) can0 0CF00400#FF7D7F701200FFFF
(1785076482.521989) can0 18F01D21#6381198000AC1480
(1785076482.522610) can0 0CF00400#FF7D7F901200FFFF
(1785076482.522691) can0 19F10D13#4C8B015B0284005D
(1785076482.522747) can0 0CF00400#FF7D7FB81200FFFF
(1785076482.523336) can0 09F112F8#FF51190000FF7FFD
(1785076482.523441) can0 0CF00400#FF7D7FE01200FFFF
(1785076482.523495) can0 0CF00400#FF7D7FC81200FFFF
(1785076482.524109) can0 09F8021C#3CFC340BAA00FFFF
(1785076482.524189) can0 09F8011C#327F2718CA9E53C1
(1785076482.524245) can0 18FEE81C#3808200600643C81
(1785076482.524294) can0 0CF00400#FF7D7FF01200FFFF
(1785076482.524343) can0 18F01D21#6381198000AC1480
(1785076482.524392) can0 0CF00400#FF7D7F001300FFFF
(1785076482.525181) can0 19F10D13#4D8A015B0284005D
(1785076482.525245) can0 0CF00400#FF7D7FF81200FFFF
(1785076482.525289) can0 0CF00400#FF7D7FF81200FFFF
(1785076482.526276) can0 0CF00400#FF7D7F081300FFFF
(1785076482.526351) can0 09F112F8#FF2F190000FF7FFD
(1785076482.526392) can0 0CF00400#FF7D7F001300FFFF
(1785076482.526425) can0 18F01D21#6381198000AC1480
(1785076482.526453) can0 0CF00400#FF7D7FF81200FFFF
(1785076482.527470) can0 19F10D13#4E8A015B0284005D
(1785076482.527551) can0 0CF00400#FF7D7F101300FFFF
(1785076482.527593) can0 0CF00400#FF7D7F281300FFFF
(1785076482.527635) can0 0CF00400#FF7D7F301300FFFF
(1785076482.528811) can0 0CF00400#FF7D7F181300FFFF
(1785076482.528900) can0 18F01D21#0B81198000AC1480
(1785076482.528943) can0 0CF00400#FF7D7F281300FFFF
(1785076482.528975) can0 09F112F8#FF04190000FF7FFD
(1785076482.529003) can0 19F10D13#4F8B015B0284005D
(1785076482.529029) can0 0CF00400#FF7D7F181300FFFF
(1785076482.529102) can0 0CF00400#FF7D7F281300FFFF
(1785076482.530351) can0 0CF00400#FF7D7F401300FFFF
(1785076482.530475) can0 0CF00400#FF7D7F481300FFFF
(1785076482.530540) can0 18F01D21#0B81198000AC1480
(1785076482.530577) can0 0CF00400#FF7D7F681300FFFF
(1785076482.530608) can0 19F10D13#508A015B0284005D
(1785076482.530634) can0 0CF00400#FF7D7F801300FFFF
(1785076482.531547) can0 0CF00400#FF7D7F781300FFFF
(1785076482.531646) can0 09F112F8#FFD4180000FF7FFD
(1785076482.531687) can0 0CF00400#FF7D7F681300FFFF
(1785076482.532322) can0 0CF00400#FF7D7F781300FFFF
(1785076482.532426) can0 18F01D21#6381198000AC1480
(1785076482.532486) can0 0CF00400#FF7D7F881300FFFF
(1785076482.532541) can0 19F10D13#518B015B0284005D
(1785076482.533160) can0 0CF00400#FF7D7F781300FFFF
(1785076482.533236) can0 0CF00400#FF7D7F601300FFFF
(1785076482.533973) can0 0CF00400#FF7D7F481300FFFF
(1785076482.534063) can0 09F8021C#3DFC490BAA00FFFF
(1785076482.534105) can0 09F8011C#627F2718E69E53C1
(1785076482.534165) can0 0CF00400#FF7D7F501300FFFF
(1785076482.534197) can0 18FEE81C#4708200600643C81
(1785076482.534225) can0 18F01D21#6381198000AC1480
(1785076482.534250) can0 09F112F8#FFA1180000FF7FFD
(1785076482.534276) can0 0CF00400#FF7D7F781300FFFF
(1785076482.535505) can0 19F10D13#528A015B0284005D
(1785076482.535590) can0 0CF00400#FF7D7F901300FFFF
(1785076482.535632) can0 0CF00400#FF7D7F601300FFFF
(1785076482.535672) can0 0CF00400#FF7D7F401300FFFF
(1785076482.536342) can0 0CF00400#FF7D7F281300FFFF
(1785076482.536452) can0 18F01D21#6381198000AC1480
(1785076482.536501) can0 0CF00400#FF7D7F101300FFFF
(1785076482.536537) can0 19F10D13#538A015B0284005D
(1785076482.537150) can0 0CF00400#FF7D7F001300FFFF
(1785076482.537232) can0 09F112F8#FF61180000FF7FFD
(1785076482.537273) can0 0CF00400#FF7D7F001300FFFF
(1785076482.538023) can0 0CF00400#FF7D7F001300FFFF
(1785076482.538124) can0 0CF00400#FF7D7F001300FFFF
(1785076482.538166) can0 18F01D21#6381198000AC1480
(1785076482.538645) can0 0CF00400#FF7D7F101300FFFF
(1785076482.538727) can0 19F10D13#548A015B0284005D
(1785076482.538785) can0 0CF00400#FF7D7F201300FFFF
(1785076482.539589) can0 0CF00400#FF7D7F201300FFFF
(1785076482.539709) can0 0CF00400#FF7D7F081300FFFF
(1785076482.539768) can0 09F112F8#FF1C180000FF7FFD
(1785076482.539819) can0 0CF00400#FF7D7FF01200FFFF
(1785076482.543038) can0 18F01D21#6381198000AC1480
(1785076482.543190) can0 0CF00400#FF7D7FF01200FFFF
(1785076482.543243) can0 19F10D13#558A015B0284005D
(1785076482.543293) can0 0CF00400#FF7D7FD81200FFFF
(1785076482.543347) can0 0CF00400#FF7D7FD81200FFFF
(1785076482.543416) can0 0CF00400#FF7D7FC81200FFFF
(1785076482.543465) can0 0CF00400#FF7D7FC81200FFFF
(1785076482.543519) can0 18F01D21#6381198000AC1480
(1785076482.543571) can0 0CF00400#FF7D7FE01200FFFF
(1785076482.543628) can0 09F112F8#FFE4170000FF7FFD
(1785076482.543677) can0 19F10D13#568A015B0284005D
(1785076482.543741) can0 0CF00400#FF7D7FE81200FFFF
(1785076482.543786) can0 0CF00400#FF7D7FB81200FFFF
(1785076482.543826) can0 0CF00400#FF7D7FA81200FFFF
(1785076482.543853) can0 0CF00400#FF7D7FA81200FFFF
(1785076482.544206) can0 09F8021C#3EFC500AB000FFFF
(1785076482.544282) can0 09F8011C#B67F27180E9F53C1
(1785076482.544339) can0 18F01D21#6381198000AC1480
(1785076482.544395) can0 18FEE81C#9107580600643C81
(1785076482.544445) can0 0CF00400#FF7D7FB01200FFFF
(1785076482.546345) can0 19F10D13#578A015B0284005D
(1785076482.546446) can0 0CF00400#FF7D7FB81200FFFF
(1785076482.546498) can0 0CF00400#FF7D7FA01200FFFF
(1785076482.546536) can0 09F112F8#FFA4170000FF7FFD
(1785076482.546577) can0 0CF00400#FF7D7FA01200FFFF
(1785076482.546606) can0 0CF00400#FF7D7FB81200FFFF
(1785076482.546633) can0 18F01D21#6381198000AC1480
(1785076482.546659) can0 0CF00400#FF7D7FC01200FFFF
(1785076482.546685) can0 19F10D13#588A015B0284005D
(1785076482.546710) can0 0CF00400#FF7D7FB01200FFFF
(1785076482.551105) can0 0CF00400#FF7D7F901200FFFF
(1785076482.551231) can0 0CF00400#FF7D7F981200FFFF
(1785076482.551316) can0 0CF00400#FF7D7FA01200FFFF
(1785076482.551376) can0 18F01D21#6381198000AC1480
(1785076482.551427) can0 09F112F8#FF6B170000FF7FFD
(1785076482.551472) can0 0CF00400#FF7D7FB81200FFFF
(1785076482.551519) can0 19F10D13#598B015B0284005D
(1785076482.551564) can0 0CF00400#FF7D7FD01200FFFF
(1785076482.551607) can0 0CF00400#FF7D7FD01200FFFF
(1785076482.551649) can0 0CF00400#FF7D7FD01200FFFF
(1785076482.551709) can0 0CF00400#FF7D7FE81200FFFF
(1785076482.551752) can0 18F01D21#6381198000AC1480
(1785076482.551797) can0 0CF00400#FF7D7FF01200FFFF
(1785076482.551838) can0 19F10D13#5A8A015B0284005D
(1785076482.551880) can0 0CF00400#FF7D7FF01200FFFF
(1785076482.551920) can0 09F112F8#FF2B170000FF7FFD
(1785076482.551962) can0 0CF00400#FF7D7F001300FFFF
(1785076482.552003) can0 0CF00400#FF7D7FD81200FFFF
(1785076482.552078) can0 0CF00400#FF7D7FC81200FFFF
(1785076482.552124) can0 18F01D21#6381198000AC1480
(1785076482.552378) can0 0CF00400#FF7D7FE81200FFFF
