(1785078856.203109) can0 09F11219#3EFEFFFF7FFF7FFC
(1785078856.222219) can0 09F112F8#FF15780000FF7FFD
(1785078856.261779) can0 18F01D21#A73A0E80FFFFFFFF
(1785078856.297192) can0 18FF50E0#0000800080008001
(1785078856.303054) can0 09F11219#3FFEFFFF7FFF7FFC
(1785078856.360394) can0 09F112F8#FF11780000FF7FFD
(1785078856.361988) can0 18F01D21#A73A0E80FFFFFFFF
(1785078856.398540) can0 18FF50E0#0000800080008002
(1785078856.402857) can0 09F11219#40FEFFFF7FFF7FFC
(1785078856.461305) can0 18F01D21#A73A0E80FFFFFFFF
(1785078856.495155) can0 09F112F8#FF0D780000FF7FFD
(1785078856.499369) can0 18FF50E0#000080E6C4008003
(1785078856.503506) can0 09F11219#41FEFFFF7FFF7FFC
(1785078856.561636) can0 18F01D21#A73A0E80FFFFFFFF
(1785078856.603103) can0 09F11219#42FEFFFF7FFF7FFC
(1785078856.632432) can0 09F112F8#FF0C780000FF7FFD
(1785078856.662199) can0 18F01D21#A73A0E80FFFFFFFF
(1785078856.702962) can0 09F11219#43FEFFFF7FFF7FFC
(1785078856.761446) can0 18F01D21#A73A0E80FFFFFFFF
(1785078856.770774) can0 09F112F8#FF0F780000FF7FFD
(1785078856.803104) can0 09F11219#44FEFFFF7FFF7FFC
(1785078856.861995) can0 18F01D21#A73A0E80FFFFFFFF
(1785078856.902978) can0 09F11219#45FEFFFF7FFF7FFC
(1785078856.910374) can0 09F112F8#FF14780000FF7FFD
(1785078856.962250) can0 18F01D21#A73A0E80FFFFFFFF
(1785078857.003627) can0 09F11219#46FEFFFF7FFF7FFC
(1785078857.046269) can0 09F112F8#FF18780000FF7FFD
(1785078857.061507) can0 18F01D21#A73A0E80FFFFFFFF
(1785078857.103094) can0 09F11219#47FEFFFF7FFF7FFC
(1785078857.161884) can0 18F01D21#A73A0E80FFFFFFFF
(1785078857.185732) can0 09F112F8#FF18780000FF7FFD
(1785078857.203166) can0 09F11219#48FEFFFF7FFF7FFC
(1785078857.262245) can0 18F01D21#A73A0E80FFFFFFFF
(1785078857.303104) can0 09F11219#49FEFFFF7FFF7FFC
(1785078857.338315) can0 09F112F8#FF18780000FF7FFD
(1785078857.361570) can0 18F01D21#A73A0E80FFFFFFFF
(1785078857.403118) can0 09F11219#4AFEFFFF7FFF7FFC
(1785078857.461655) can0 09F112F8#FF14780000FF7FFD
(1785078857.462030) can0 18F01D21#A73A0E80FFFFFFFF
(1785078857.503705) can0 09F11219#4BFEFFFF7FFF7FFC
(1785078857.562418) can0 18F01D21#A73A0E80FFFFFFFF
(1785078857.603045) can0 09F11219#4CFEFFFF7FFF7FFC
(1785078857.605017) can0 09F112F8#FF14780000FF7FFD
(1785078857.661758) can0 18F01D21#A73A0E80FFFFFFFF
(1785078857.703207) can0 09F11219#4DFEFFFF7FFF7FFC
(1785078857.739631) can0 09F112F8#FF11780000FF7FFD
(1785078857.762140) can0 18F01D21#A73A0E80FFFFFFFF
(1785078857.803206) can0 09F11219#4EFEFFFF7FFF7FFC
(1785078857.862642) can0 18F01D21#A73A0E80FFFFFFFF
(1785078857.876258) can0 09F112F8#FF0D780000FF7FFD
(1785078857.903195) can0 09F11219#4FFEFFFF7FFF7FFC
(1785078857.961919) can0 18F01D21#A73A0E80FFFFFFFF
(1785078858.003776) can0 09F11219#50FEFFFF7FFF7FFC
(1785078858.014763) can0 09F112F8#FF0B780000FF7FFD
(1785078858.062579) can0 18F01D21#A73A0E80FFFFFFFF
(1785078858.103058) can0 09F11219#51FEFFFF7FFF7FFC
(1785078858.155881) can0 09F112F8#FF0A780000FF7FFD
(1785078858.162612) can0 18F01D21#A73A0E80FFFFFFFF
(1785078858.203086) can0 09F11219#52FEFFFF7FFF7FFC
(1785078858.261906) can0 18F01D21#A73A0E80FFFFFFFF
(1785078858.294983) can0 09F112F8#FF09780000FF7FFD
(1785078858.303200) can0 09F11219#53FEFFFF7FFF7FFC
(1785078858.362159) can0 18F01D21#A73A0E80FFFFFFFF
(1785078858.403108) can0 09F11219#54FEFFFF7FFF7FFC
(1785078858.427724) can0 09F112F8#FF06780000FF7FFD
(1785078858.462673) can0 18F01D21#A73A0E80FFFFFFFF
(1785078858.503792) can0 09F11219#55FEFFFF7FFF7FFC
(1785078858.561975) can0 18F01D21#A73A0E80FFFFFFFF
(1785078858.569464) can0 09F112F8#FF03780000FF7FFD
(1785078858.603252) can0 09F11219#56FEFFFF7FFF7FFC
(1785078858.662419) can0 18F01D21#A73A0E80FFFFFFFF
(1785078858.703031) can0 09F11219#57FEFFFF7FFF7FFC
(1785078858.705146) can0 09F112F8#FF03780000FF7FFD
(1785078858.761760) can0 18F01D21#A73A0E80FFFFFFFF
(1785078858.803150) can0 09F11219#58FEFFFF7FFF7FFC
(1785078858.842387) can0 09F112F8#FF03780000FF7FFD
(1785078858.861938) can0 18F01D21#A73A0E80FFFFFFFF
(1785078858.903178) can0 09F11219#59FEFFFF7FFF7FFC
(1785078858.962337) can0 18F01D21#A73A0E80FFFFFFFF
(1785078858.985883) can0 09F112F8#FF02780000FF7FFD
(1785078859.003951) can0 09F11219#5AFEFFFF7FFF7FFC
(1785078859.061920) can0 18F01D21#A73A0E80FFFFFFFF
(1785078859.103191) can0 09F11219#5BFEFFFF7FFF7FFC
(1785078859.128322) can0 09F112F8#FF04780000FF7FFD
(1785078859.162207) can0 18F01D21#A73A0E80FFFFFFFF
(1785078859.203205) can0 09F11219#5CFEFFFF7FFF7FFC
(1785078859.262342) can0 18F01D21#A73A0E80FFFFFFFF
(1785078859.265755) can0 09F112F8#FF02780000FF7FFD
(1785078859.303002) can0 09F11219#5DFEFFFF7FFF7FFC
(1785078859.361686) can0 18F01D21#A73A0E80FFFFFFFF
(1785078859.401733) can0 09F112F8#FFFD770000FF7FFD
(1785078859.402998) can0 09F11219#5EFEFFFF7FFF7FFC
(1785078859.462026) can0 18F01D21#A73A0E80FFFFFFFF
(1785078859.503702) can0 09F11219#5FFEFFFF7FFF7FFC
(1785078859.542472) can0 09F112F8#FFFB770000FF7FFD
(1785078859.562452) can0 18F01D21#A73A0E80FFFFFFFF
(1785078859.603096) can0 09F11219#60FEFFFF7FFF7FFC
(1785078859.661832) can0 18F01D21#A73A0E80FFFFFFFF
(1785078859.680419) can0 09F112F8#FFFA770000FF7FFD
(1785078859.703032) can0 09F11219#61FEFFFF7FFF7FFC
(1785078859.762158) can0 18F01D21#A73A0E80FFFFFFFF
(1785078859.803276) can0 09F11219#62FEFFFF7FFF7FFC
(1785078859.819366) can0 09F112F8#FFF8770000FF7FFD
(1785078859.862644) can0 18F01D21#A73A0E80FFFFFFFF
(1785078859.903186) can0 09F11219#63FEFFFF7FFF7FFC
(1785078859.958356) can0 09F112F8#FFF5770000FF7FFD
(1785078859.961840) can0 18F01D21#A73A0E80FFFFFFFF
(1785078860.003775) can0 09F11219#64FEFFFF7FFF7FFC
(1785078860.062207) can0 18F01D21#A73A0E80FFFFFFFF
(1785078860.094897) can0 09F112F8#FFF5770000FF7FFD
(1785078860.103243) can0 09F11219#65FEFFFF7FFF7FFC
(1785078860.162583) can0 18F01D21#A73A0E80FFFFFFFF
(1785078860.203338) can0 09F11219#66FEFFFF7FFF7FFC
(1785078860.238375) can0 09F112F8#FFF6770000FF7FFD
(1785078860.261889) can0 18F01D21#A73A0E80FFFFFFFF
(1785078860.303145) can0 09F11219#67FEFFFF7FFF7FFC
(1785078860.362248) can0 18F01D21#A73A0E80FFFFFFFF
(1785078860.372434) can0 09F112F8#FFF9770000FF7FFD
(1785078860.403346) can0 09F11219#68FEFFFF7FFF7FFC
(1785078860.462724) can0 18F01D21#A73A0E80FFFFFFFF
(1785078860.503877) can0 09F11219#69FEFFFF7FFF7FFC
(1785078860.510399) can0 09F112F8#FFFA770000FF7FFD
(1785078860.561909) can0 18F01D21#A73A0E80FFFFFFFF
(1785078860.603098) can0 09F11219#6AFEFFFF7FFF7FFC
(1785078860.648532) can0 09F112F8#FFF6770000FF7FFD
(1785078860.662385) can0 18F01D21#A73A0E80FFFFFFFF
(1785078860.703259) can0 09F11219#6BFEFFFF7FFF7FFC
(1785078860.762657) can0 18F01D21#A73A0E80FFFFFFFF
(1785078860.785321) can0 09F112F8#FFF3770000FF7FFD
(1785078860.803282) can0 09F11219#6CFEFFFF7FFF7FFC
(1785078860.862192) can0 18F01D21#A73A0E80FFFFFFFF
(1785078860.903327) can0 09F11219#6DFEFFFF7FFF7FFC
(1785078860.919399) can0 09F112F8#FFF0770000FF7FFD
(1785078860.962511) can0 18F01D21#A73A0E80FFFFFFFF
(1785078861.003700) can0 09F11219#6EFEFFFF7FFF7FFC
(1785078861.057593) can0 09F112F8#FFEE770000FF7FFD
(1785078861.063232) can0 18F01D21#A73A0E80FFFFFFFF
(1785078861.103130) can0 09F11219#6FFEFFFF7FFF7FFC
(1785078861.162289) can0 18F01D21#A73A0E80FFFFFFFF
(1785078861.194928) can0 09F112F8#FFEC770000FF7FFD
(1785078861.203179) can0 09F11219#70FEFFFF7FFF7FFC
(1785078861.262599) can0 18F01D21#A73A0E80FFFFFFFF
(1785078861.303304) can0 09F11219#71FEFFFF7FFF7FFC
(1785078861.339478) can0 09F112F8#FFE7770000FF7FFD
(1785078861.362778) can0 18F01D21#A73A0E80FFFFFFFF
(1785078861.403317) can0 09F11219#72FEFFFF7FFF7FFC
(1785078861.462234) can0 18F01D21#A73A0E80FFFFFFFF
(1785078861.470453) can0 09F112F8#FFE6770000FF7FFD
(1785078861.503775) can0 09F11219#73FEFFFF7FFF7FFC
(1785078861.562517) can0 18F01D21#A73A0E80FFFFFFFF
(1785078861.603268) can0 09F11219#74FEFFFF7FFF7FFC
(1785078861.611549) can0 09F112F8#FFE6770000FF7FFD
(1785078861.662896) can0 18F01D21#A73A0E80FFFFFFFF
(1785078861.703331) can0 09F11219#75FEFFFF7FFF7FFC
(1785078861.750438) can0 09F112F8#FFEA770000FF7FFD
(1785078861.762319) can0 18F01D21#A73A0E80FFFFFFFF
(1785078861.803161) can0 09F11219#76FEFFFF7FFF7FFC
(1785078861.862849) can0 18F01D21#A73A0E80FFFFFFFF
(1785078861.885748) can0 09F112F8#FFEE770000FF7FFD
(1785078861.903146) can0 09F11219#77FEFFFF7FFF7FFC
(1785078861.962112) can0 18F01D21#A73A0E80FFFFFFFF
(1785078862.003916) can0 09F11219#78FEFFFF7FFF7FFC
(1785078862.029528) can0 09F112F8#FFF3770000FF7FFD
(1785078862.062659) can0 18F01D21#A73A0E80FFFFFFFF
(1785078862.103258) can0 09F11219#79FEFFFF7FFF7FFC
(1785078862.162736) can0 18F01D21#A73A0E80FFFFFFFF
(1785078862.165847) can0 09F112F8#FFF7770000FF7FFD
(1785078862.203341) can0 09F11219#7AFEFFFF7FFF7FFC
(1785078862.262058) can0 18F01D21#A73A0E80FFFFFFFF
(1785078862.302582) can0 09F112F8#FFFC770000FF7FFD
(1785078862.303210) can0 09F11219#7BFEFFFF7FFF7FFC
(1785078862.362500) can0 18F01D21#A73A0E80FFFFFFFF
(1785078862.403159) can0 09F11219#7CFEFFFF7FFF7FFC
(1785078862.445125) can0 09F112F8#FFFD770000FF7FFD
(1785078862.462944) can0 18F01D21#A73A0E80FFFFFFFF
(1785078862.503998) can0 09F11219#7DFEFFFF7FFF7FFC
(1785078862.562231) can0 18F01D21#A73A0E80FFFFFFFF
(1785078862.582542) can0 09F112F8#FFFE770000FF7FFD
(1785078862.603270) can0 09F11219#7EFEFFFF7FFF7FFC
(1785078862.662468) can0 18F01D21#A73A0E80FFFFFFFF
(1785078862.703352) can0 09F11219#7FFEFFFF7FFF7FFC
(1785078862.720662) can0 09F112F8#FFFD770000FF7FFD
(1785078862.762878) can0 18F01D21#A73A0E80FFFFFFFF
(1785078862.803359) can0 09F11219#80FEFFFF7FFF7FFC
(1785078862.854932) can0 09F112F8#FFFC770000FF7FFD
(1785078862.862270) can0 18F01D21#A73A0E80FFFFFFFF
(1785078862.903177) can0 09F11219#81FEFFFF7FFF7FFC
(1785078862.962548) can0 18F01D21#A73A0E80FFFFFFFF
(1785078862.995692) can0 09F112F8#FFFB770000FF7FFD
(1785078863.003737) can0 09F11219#82FEFFFF7FFF7FFC
(1785078863.063392) can0 18F01D21#A73A0E80FFFFFFFF
(1785078863.103126) can0 09F11219#83FEFFFF7FFF7FFC
(1785078863.130488) can0 09F112F8#FFF9770000FF7FFD
(1785078863.162246) can0 18F01D21#A73A0E80FFFFFFFF
(1785078863.203430) can0 09F11219#84FEFFFF7FFF7FFC
(1785078863.262511) can0 18F01D21#A73A0E80FFFFFFFF
(1785078863.272486) can0 09F112F8#FFF7770000FF7FFD
(1785078863.303264) can0 09F11219#85FEFFFF7FFF7FFC
(1785078863.362938) can0 18F01D21#A73A0E80FFFFFFFF
(1785078863.403453) can0 09F11219#86FEFFFF7FFF7FFC
(1785078863.410626) can0 09F112F8#FFF7770000FF7FFD
(1785078863.462222) can0 18F01D21#A73A0E80FFFFFFFF
(1785078863.504096) can0 09F11219#87FEFFFF7FFF7FFC
(1785078863.552701) can0 09F112F8#FFF8770000FF7FFD
(1785078863.562685) can0 18F01D21#A73A0E80FFFFFFFF
(1785078863.603289) can0 09F11219#88FEFFFF7FFF7FFC
(1785078863.663189) can0 18F01D21#A73A0E80FFFFFFFF
(1785078863.694982) can0 09F112F8#FFF9770000FF7FFD
(1785078863.703256) can0 09F11219#89FEFFFF7FFF7FFC
(1785078863.762433) can0 18F01D21#A73A0E80FFFFFFFF
(1785078863.803289) can0 09F11219#8AFEFFFF7FFF7FFC
(1785078863.830785) can0 09F112F8#FFFB770000FF7FFD
(1785078863.862678) can0 18F01D21#A73A0E80FFFFFFFF
(1785078863.903452) can0 09F11219#8BFEFFFF7FFF7FFC
(1785078863.963065) can0 18F01D21#A73A0E80FFFFFFFF
(1785078863.969812) can0 09F112F8#FFFA770000FF7FFD
(1785078864.003886) can0 09F11219#8CFEFFFF7FFF7FFC
(1785078864.062425) can0 18F01D21#A73A0E80FFFFFFFF
(1785078864.103269) can0 09F11219#8DFEFFFF7FFF7FFC
(1785078864.108631) can0 09F112F8#FFFC770000FF7FFD
(1785078864.162789) can0 18F01D21#A73A0E80FFFFFFFF
(1785078864.203277) can0 09F11219#8EFEFFFF7FFF7FFC
(1785078864.247468) can0 09F112F8#FFFF770000FF7FFD
(1785078864.263058) can0 18F01D21#A73A0E80FFFFFFFF
(1785078864.303227) can0 09F11219#8FFEFFFF7FFF7FFC
(1785078864.362391) can0 18F01D21#A73A0E80FFFFFFFF
(1785078864.385855) can0 09F112F8#FF03780000FF7FFD
(1785078864.403199) can0 09F11219#90FEFFFF7FFF7FFC
(1785078864.462977) can0 18F01D21#A73A0E80FFFFFFFF
(1785078864.504015) can0 09F11219#91FEFFFF7FFF7FFC
(1785078864.525193) can0 09F112F8#FF08780000FF7FFD
(1785078864.563168) can0 18F01D21#A73A0E80FFFFFFFF
(1785078864.603415) can0 09F11219#92FEFFFF7FFF7FFC
(1785078864.662709) can0 18F01D21#A73A0E80FFFFFFFF
(1785078864.665868) can0 09F112F8#FF06780000FF7FFD
(1785078864.703256) can0 09F11219#93FEFFFF7FFF7FFC
(1785078864.763104) can0 18F01D21#A73A0E80FFFFFFFF
(1785078864.800670) can0 09F112F8#FF08780000FF7FFD
(1785078864.803250) can0 09F11219#94FEFFFF7FFF7FFC
(1785078864.863406) can0 18F01D21#A73A0E80FFFFFFFF
(1785078864.903210) can0 09F11219#95FEFFFF7FFF7FFC
(1785078864.940097) can0 09F112F8#FF0B780000FF7FFD
(1785078864.962853) can0 18F01D21#A73A0E80FFFFFFFF
(1785078865.004139) can0 09F11219#96FEFFFF7FFF7FFC
(1785078865.063423) can0 18F01D21#A73A0E80FFFFFFFF
(1785078865.080541) can0 09F112F8#FF0D780000FF7FFD
(1785078865.103379) can0 09F11219#97FEFFFF7FFF7FFC
(1785078865.162434) can0 18F01D21#A73A0E80FFFFFFFF
(1785078865.203342) can0 09F11219#98FEFFFF7FFF7FFC
(1785078865.219698) can0 09F112F8#FF0D780000FF7FFD
(1785078865.262857) can0 18F01D21#A73A0E80FFFFFFFF
(1785078865.303471) can0 09F11219#99FEFFFF7FFF7FFC
(1785078865.356374) can0 09F112F8#FF12780000FF7FFD
(1785078865.363266) can0 18F01D21#A73A0E80FFFFFFFF
(1785078865.403459) can0 09F11219#9AFEFFFF7FFF7FFC
(1785078865.462573) can0 18F01D21#A73A0E80FFFFFFFF
(1785078865.497508) can0 09F112F8#FF13780000FF7FFD
(1785078865.503881) can0 09F11219#9BFEFFFF7FFF7FFC
(1785078865.562975) can0 18F01D21#A73A0E80FFFFFFFF
(1785078865.603263) can0 09F11219#9CFEFFFF7FFF7FFC
(1785078865.632507) can0 09F112F8#FF16780000FF7FFD
(1785078865.663206) can0 18F01D21#A73A0E80FFFFFFFF
(1785078865.703459) can0 09F11219#9DFEFFFF7FFF7FFC
(1785078865.762335) can0 18F01D21#A73A0E80FFFFFFFF
(1785078865.774981) can0 09F112F8#FF15780000FF7FFD
(1785078865.803450) can0 09F11219#9EFEFFFF7FFF7FFC
(1785078865.862916) can0 18F01D21#A73A0E80FFFFFFFF
(1785078865.903472) can0 09F11219#9FFEFFFF7FFF7FFC
(1785078865.910690) can0 09F112F8#FF16780000FF7FFD
(1785078865.963315) can0 18F01D21#A73A0E80FFFFFFFF
(1785078866.003985) can0 09F11219#A0FEFFFF7FFF7FFC
(1785078866.050689) can0 09F112F8#FF17780000FF7FFD
(1785078866.062822) can0 18F01D21#A73A0E80FFFFFFFF
(1785078866.103332) can0 09F11219#A1FEFFFF7FFF7FFC
(1785078866.162811) can0 18F01D21#A73A0E80FFFFFFFF
(1785078866.189889) can0 09F112F8#FF14780000FF7FFD
(1785078866.203398) can0 09F11219#A2FEFFFF7FFF7FFC
(1785078866.263238) can0 18F01D21#A73A0E80FFFFFFFF
(1785078866.303523) can0 09F11219#A3FEFFFF7FFF7FFC
(1785078866.328700) can0 09F112F8#FF17780000FF7FFD
(1785078866.362463) can0 18F01D21#A73A0E80FFFFFFFF
(1785078866.403587) can0 09F11219#A4FEFFFF7FFF7FFC
(1785078866.462922) can0 18F01D21#A73A0E80FFFFFFFF
(1785078866.466580) can0 09F112F8#FF1A780000FF7FFD
(1785078866.504052) can0 09F11219#A5FEFFFF7FFF7FFC
(1785078866.563200) can0 18F01D21#A73A0E80FFFFFFFF
(1785078866.603432) can0 09F11219#A6FEFFFF7FFF7FFC
(1785078866.606361) can0 09F112F8#FF16780000FF7FFD
(1785078866.662685) can0 18F01D21#A73A0E80FFFFFFFF
(1785078866.703462) can0 09F11219#A7FEFFFF7FFF7FFC
(1785078866.746204) can0 09F112F8#FF13780000FF7FFD
(1785078866.762990) can0 18F01D21#A73A0E80FFFFFFFF
(1785078866.803432) can0 09F11219#A8FEFFFF7FFF7FFC
(1785078866.863378) can0 18F01D21#A73A0E80FFFFFFFF
(1785078866.882594) can0 09F112F8#FF14780000FF7FFD
(1785078866.903390) can0 09F11219#A9FEFFFF7FFF7FFC
(1785078866.962674) can0 18F01D21#A73A0E80FFFFFFFF
(1785078867.004114) can0 09F11219#AAFEFFFF7FFF7FFC
(1785078867.020633) can0 09F112F8#FF14780000FF7FFD
(1785078867.062983) can0 18F01D21#A73A0E80FFFFFFFF
(1785078867.103443) can0 09F11219#ABFEFFFF7FFF7FFC
(1785078867.160563) can0 09F112F8#FF16780000FF7FFD
(1785078867.163459) can0 18F01D21#A73A0E80FFFFFFFF
(1785078867.203661) can0 09F11219#ACFEFFFF7FFF7FFC
(1785078867.262934) can0 18F01D21#A73A0E80FFFFFFFF
(1785078867.294512) can0 09F112F8#FF18780000FF7FFD
(1785078867.303404) can0 09F11219#ADFEFFFF7FFF7FFC
(1785078867.363098) can0 18F01D21#A73A0E80FFFFFFFF
(1785078867.403362) can0 09F11219#AEFEFFFF7FFF7FFC
(1785078867.432624) can0 09F112F8#FF1C780000FF7FFD
(1785078867.463543) can0 18F01D21#A73A0E80FFFFFFFF
(1785078867.504176) can0 09F11219#AFFEFFFF7FFF7FFC
(1785078867.562799) can0 18F01D21#A73A0E80FFFFFFFF
(1785078867.568761) can0 09F112F8#FF20780000FF7FFD
(1785078867.603455) can0 09F11219#B0FEFFFF7FFF7FFC
(1785078867.663262) can0 18F01D21#A73A0E80FFFFFFFF
(1785078867.703551) can0 09F11219#B1FEFFFF7FFF7FFC
(1785078867.709637) can0 09F112F8#FF26780000FF7FFD
(1785078867.763657) can0 18F01D21#A73A0E80FFFFFFFF
(1785078867.803386) can0 09F11219#B2FEFFFF7FFF7FFC
(1785078867.850606) can0 09F112F8#FF2B780000FF7FFD
(1785078867.863127) can0 18F01D21#A73A0E80FFFFFFFF
(1785078867.903411) can0 09F11219#B3FEFFFF7FFF7FFC
(1785078867.963198) can0 18F01D21#A73A0E80FFFFFFFF
(1785078867.991988) can0 09F112F8#FF2F780000FF7FFD
(1785078868.004002) can0 09F11219#B4FEFFFF7FFF7FFC
(1785078868.063603) can0 18F01D21#A73A0E80FFFFFFFF
(1785078868.103431) can0 09F11219#B5FEFFFF7FFF7FFC
(1785078868.129653) can0 09F112F8#FF32780000FF7FFD
(1785078868.162943) can0 18F01D21#A73A0E80FFFFFFFF
(1785078868.203418) can0 09F11219#B6FEFFFF7FFF7FFC
(1785078868.263262) can0 18F01D21#A73A0E80FFFFFFFF
(1785078868.265446) can0 09F112F8#FF33780000FF7FFD
(1785078868.303555) can0 09F11219#B7FEFFFF7FFF7FFC
(1785078868.362641) can0 18F01D21#A73A0E80FFFFFFFF
(1785078868.403455) can0 09F11219#B8FEFFFF7FFF7FFC
(1785078868.406278) can0 09F112F8#FF32780000FF7FFD
(1785078868.463031) can0 18F01D21#A73A0E80FFFFFFFF
(1785078868.504148) can0 09F11219#B9FEFFFF7FFF7FFC
(1785078868.546072) can0 09F112F8#FF32780000FF7FFD
(1785078868.563295) can0 18F01D21#A73A0E80FFFFFFFF
(1785078868.603379) can0 09F11219#BAFEFFFF7FFF7FFC
(1785078868.662762) can0 18F01D21#A73A0E80FFFFFFFF
(1785078868.685336) can0 09F112F8#FF32780000FF7FFD
(1785078868.703449) can0 09F11219#BBFEFFFF7FFF7FFC
(1785078868.763156) can0 18F01D21#A73A0E80FFFFFFFF
(1785078868.803668) can0 09F11219#BCFEFFFF7FFF7FFC
(1785078868.826202) can0 09F112F8#FF32780000FF7FFD
(1785078868.863475) can0 18F01D21#A73A0E80FFFFFFFF
(1785078868.903509) can0 09F11219#BDFEFFFF7FFF7FFC
(1785078868.962629) can0 09F112F8#FF33780000FF7FFD
(1785078868.963165) can0 18F01D21#A73A0E80FFFFFFFF
(1785078869.004207) can0 09F11219#BEFEFFFF7FFF7FFC
(1785078869.063179) can0 18F01D21#A73A0E80FFFFFFFF
(1785078869.101626) can0 09F112F8#FF33780000FF7FFD
(1785078869.103530) can0 09F11219#BFFEFFFF7FFF7FFC
(1785078869.163611) can0 18F01D21#A73A0E80FFFFFFFF
(1785078869.203649) can0 09F11219#C0FEFFFF7FFF7FFC
(1785078869.237638) can0 09F112F8#FF32780000FF7FFD
(1785078869.262970) can0 18F01D21#A73A0E80FFFFFFFF
(1785078869.303659) can0 09F11219#C1FEFFFF7FFF7FFC
(1785078869.363237) can0 18F01D21#A73A0E80FFFFFFFF
(1785078869.387844) can0 09F112F8#FF34780000FF7FFD
(1785078869.403492) can0 09F11219#C2FEFFFF7FFF7FFC
(1785078869.463662) can0 18F01D21#A73A0E80FFFFFFFF
(1785078869.504215) can0 09F11219#C3FEFFFF7FFF7FFC
(1785078869.508633) can0 09F112F8#FF34780000FF7FFD
(1785078869.562912) can0 18F01D21#A73A0E80FFFFFFFF
(1785078869.603495) can0 09F11219#C4FEFFFF7FFF7FFC
(1785078869.648011) can0 09F112F8#FF37780000FF7FFD
(1785078869.663427) can0 18F01D21#A73A0E80FFFFFFFF
(1785078869.703550) can0 09F11219#C5FEFFFF7FFF7FFC
(1785078869.763745) can0 18F01D21#A73A0E80FFFFFFFF
(1785078869.788670) can0 09F112F8#FF35780000FF7FFD
(1785078869.803550) can0 09F11219#C6FEFFFF7FFF7FFC
(1785078869.863051) can0 18F01D21#A73A0E80FFFFFFFF
(1785078869.903556) can0 09F11219#C7FEFFFF7FFF7FFC
(1785078869.926275) can0 09F112F8#FF35780000FF7FFD
(1785078869.963386) can0 18F01D21#A73A0E80FFFFFFFF
(1785078870.004393) can0 09F11219#C8FEFFFF7FFF7FFC
(1785078870.064109) can0 18F01D21#A73A0E80FFFFFFFF
(1785078870.065895) can0 09F112F8#FF35780000FF7FFD
(1785078870.103466) can0 09F11219#C9FEFFFF7FFF7FFC
(1785078870.163141) can0 18F01D21#A73A0E80FFFFFFFF
(1785078870.203669) can0 09F11219#CAFEFFFF7FFF7FFC
(1785078870.208848) can0 09F112F8#FF33780000FF7FFD
(1785078870.263683) can0 18F01D21#A73A0E80FFFFFFFF
(1785078870.303680) can0 09F11219#CBFEFFFF7FFF7FFC
(1785078870.341982) can0 09F112F8#FF36780000FF7FFD
(1785078870.364024) can0 18F01D21#A73A0E80FFFFFFFF
(1785078870.403445) can0 09F11219#CCFEFFFF7FFF7FFC
(1785078870.463259) can0 18F01D21#A73A0E80FFFFFFFF
(1785078870.481902) can0 09F112F8#FF38780000FF7FFD
(1785078870.504136) can0 09F11219#CDFEFFFF7FFF7FFC
(1785078870.563686) can0 18F01D21#A73A0E80FFFFFFFF
(1785078870.603505) can0 09F11219#CEFEFFFF7FFF7FFC
(1785078870.621155) can0 09F112F8#FF39780000FF7FFD
(1785078870.664158) can0 18F01D21#A73A0E80FFFFFFFF
(1785078870.703532) can0 09F11219#CFFEFFFF7FFF7FFC
(1785078870.760675) can0 09F112F8#FF3C780000FF7FFD
(1785078870.763241) can0 18F01D21#A73A0E80FFFFFFFF
(1785078870.803632) can0 09F11219#D0FEFFFF7FFF7FFC
(1785078870.863622) can0 18F01D21#A73A0E80FFFFFFFF
(1785078870.896209) can0 09F112F8#FF3B780000FF7FFD
(1785078870.903730) can0 09F11219#D1FEFFFF7FFF7FFC
(1785078870.963984) can0 18F01D21#A73A0E80FFFFFFFF
(1785078871.004220) can0 09F11219#D2FEFFFF7FFF7FFC
(1785078871.036095) can0 09F112F8#FF3D780000FF7FFD
(1785078871.063290) can0 18F01D21#A73A0E80FFFFFFFF
(1785078871.103609) can0 09F11219#D3FEFFFF7FFF7FFC
(1785078871.163799) can0 18F01D21#A73A0E80FFFFFFFF
(1785078871.174768) can0 09F112F8#FF40780000FF7FFD
(1785078871.203515) can0 09F11219#D4FEFFFF7FFF7FFC
(1785078871.264225) can0 18F01D21#A73A0E80FFFFFFFF
(1785078871.303690) can0 09F11219#D5FEFFFF7FFF7FFC
(1785078871.311877) can0 09F112F8#FF44780000FF7FFD
(1785078871.363331) can0 18F01D21#A73A0E80FFFFFFFF
(1785078871.403636) can0 09F11219#D6FEFFFF7FFF7FFC
(1785078871.448763) can0 09F112F8#FF44780000FF7FFD
(1785078871.463757) can0 18F01D21#A73A0E80FFFFFFFF
(1785078871.504404) can0 09F11219#D7FEFFFF7FFF7FFC
(1785078871.563072) can0 18F01D21#A73A0E80FFFFFFFF
(1785078871.588875) can0 09F112F8#FF43780000FF7FFD
(1785078871.603723) can0 09F11219#D8FEFFFF7FFF7FFC
(1785078871.663601) can0 18F01D21#A73A0E80FFFFFFFF
(1785078871.703724) can0 09F11219#D9FEFFFF7FFF7FFC
(1785078871.720762) can0 09F112F8#FF48780000FF7FFD
(1785078871.763998) can0 18F01D21#A73A0E80FFFFFFFF
(1785078871.803475) can0 09F11219#DAFEFFFF7FFF7FFC
(1785078871.863181) can0 18F01D21#A73A0E80FFFFFFFF
(1785078871.865416) can0 09F112F8#FF4A780000FF7FFD
(1785078871.903599) can0 09F11219#DBFEFFFF7FFF7FFC
(1785078871.963722) can0 18F01D21#A73A0E80FFFFFFFF
(1785078872.000212) can0 09F112F8#FF4C780000FF7FFD
(1785078872.004155) can0 09F11219#DCFEFFFF7FFF7FFC
(1785078872.064160) can0 18F01D21#A73A0E80FFFFFFFF
(1785078872.103644) can0 09F11219#DDFEFFFF7FFF7FFC
(1785078872.139998) can0 09F112F8#FF4B780000FF7FFD
(1785078872.163243) can0 18F01D21#A73A0E80FFFFFFFF
(1785078872.203723) can0 09F11219#DEFEFFFF7FFF7FFC
(1785078872.263728) can0 18F01D21#A73A0E80FFFFFFFF
(1785078872.278270) can0 09F112F8#FF4E780000FF7FFD
(1785078872.303725) can0 09F11219#DFFEFFFF7FFF7FFC
(1785078872.364130) can0 18F01D21#A73A0E80FFFFFFFF
(1785078872.403558) can0 09F11219#E0FEFFFF7FFF7FFC
(1785078872.421937) can0 09F112F8#FF50780000FF7FFD
(1785078872.463253) can0 18F01D21#A73A0E80FFFFFFFF
(1785078872.504511) can0 09F11219#E1FEFFFF7FFF7FFC
(1785078872.559100) can0 09F112F8#FF50780000FF7FFD
(1785078872.563754) can0 18F01D21#A73A0E80FFFFFFFF
(1785078872.603773) can0 09F11219#E2FEFFFF7FFF7FFC
(1785078872.664034) can0 18F01D21#A73A0E80FFFFFFFF
(1785078872.698962) can0 09F112F8#FF52780000FF7FFD
(1785078872.703775) can0 09F11219#E3FEFFFF7FFF7FFC
(1785078872.763512) can0 18F01D21#A73A0E80FFFFFFFF
(1785078872.803833) can0 09F11219#E4FEFFFF7FFF7FFC
(1785078872.839784) can0 09F112F8#FF53780000FF7FFD
(1785078872.863788) can0 18F01D21#A73A0E80FFFFFFFF
(1785078872.903838) can0 09F11219#E5FEFFFF7FFF7FFC
(1785078872.964201) can0 18F01D21#A73A0E80FFFFFFFF
(1785078872.978343) can0 09F112F8#FF54780000FF7FFD
(1785078873.004264) can0 09F11219#E6FEFFFF7FFF7FFC
(1785078873.063659) can0 18F01D21#A73A0E80FFFFFFFF
(1785078873.103647) can0 09F11219#E7FEFFFF7FFF7FFC
(1785078873.119941) can0 09F112F8#FF55780000FF7FFD
(1785078873.163868) can0 18F01D21#A73A0E80FFFFFFFF
(1785078873.203776) can0 09F11219#E8FEFFFF7FFF7FFC
(1785078873.259763) can0 09F112F8#FF55780000FF7FFD
(1785078873.264144) can0 18F01D21#A73A0E80FFFFFFFF
(1785078873.303837) can0 09F11219#E9FEFFFF7FFF7FFC
(1785078873.363514) can0 18F01D21#A73A0E80FFFFFFFF
(1785078873.398651) can0 09F112F8#FF55780000FF7FFD
(1785078873.403755) can0 09F11219#EAFEFFFF7FFF7FFC
(1785078873.463895) can0 18F01D21#A73A0E80FFFFFFFF
(1785078873.504455) can0 09F11219#EBFEFFFF7FFF7FFC
(1785078873.535482) can0 09F112F8#FF50780000FF7FFD
(1785078873.564395) can0 18F01D21#A73A0E80FFFFFFFF
(1785078873.603649) can0 09F11219#ECFEFFFF7FFF7FFC
(1785078873.663645) can0 18F01D21#A73A0E80FFFFFFFF
(1785078873.670796) can0 09F112F8#FF4F780000FF7FFD
(1785078873.703623) can0 09F11219#EDFEFFFF7FFF7FFC
(1785078873.764004) can0 18F01D21#A73A0E80FFFFFFFF
(1785078873.803637) can0 09F11219#EEFEFFFF7FFF7FFC
(1785078873.808814) can0 09F112F8#FF4C780000FF7FFD
(1785078873.864280) can0 18F01D21#A73A0E80FFFFFFFF
(1785078873.903757) can0 09F11219#EFFEFFFF7FFF7FFC
(1785078873.942956) can0 09F112F8#FF4D780000FF7FFD
(1785078873.963668) can0 18F01D21#A73A0E80FFFFFFFF
(1785078874.004169) can0 09F11219#F0FEFFFF7FFF7FFC
(1785078874.064474) can0 18F01D21#A73A0E80FFFFFFFF
(1785078874.085972) can0 09F112F8#FF4F780000FF7FFD
(1785078874.103774) can0 09F11219#F1FEFFFF7FFF7FFC
(1785078874.164570) can0 18F01D21#A73A0E80FFFFFFFF
(1785078874.203785) can0 09F11219#F2FEFFFF7FFF7FFC
(1785078874.222856) can0 09F112F8#FF50780000FF7FFD
(1785078874.263861) can0 18F01D21#A73A0E80FFFFFFFF
(1785078874.303592) can0 09F11219#F3FEFFFF7FFF7FFC
(1785078874.361847) can0 09F112F8#FF54780000FF7FFD
(1785078874.364250) can0 18F01D21#A73A0E80FFFFFFFF
(1785078874.403623) can0 09F11219#F4FEFFFF7FFF7FFC
(1785078874.464481) can0 18F01D21#A73A0E80FFFFFFFF
(1785078874.500859) can0 09F112F8#FF56780000FF7FFD
(1785078874.504318) can0 09F11219#F5FEFFFF7FFF7FFC
(1785078874.563710) can0 18F01D21#A73A0E80FFFFFFFF
(1785078874.603784) can0 09F11219#F6FEFFFF7FFF7FFC
(1785078874.639801) can0 09F112F8#FF58780000FF7FFD
(1785078874.664203) can0 18F01D21#A73A0E80FFFFFFFF
(1785078874.703798) can0 09F11219#F7FEFFFF7FFF7FFC
(1785078874.763543) can0 18F01D21#A73A0E80FFFFFFFF
(1785078874.776650) can0 09F112F8#FF5A780000FF7FFD
(1785078874.803993) can0 09F11219#F8FEFFFF7FFF7FFC
(1785078874.864045) can0 18F01D21#A73A0E80FFFFFFFF
(1785078874.903668) can0 09F11219#F9FEFFFF7FFF7FFC
(1785078874.917833) can0 09F112F8#FF59780000FF7FFD
(1785078874.964219) can0 18F01D21#A73A0E80FFFFFFFF
(1785078875.004407) can0 09F11219#FAFEFFFF7FFF7FFC
(1785078875.050829) can0 09F112F8#FF59780000FF7FFD
(1785078875.063987) can0 18F01D21#A73A0E80FFFFFFFF
(1785078875.103727) can0 09F11219#00FEFFFF7FFF7FFC
(1785078875.163818) can0 18F01D21#A73A0E80FFFFFFFF
(1785078875.192290) can0 09F112F8#FF59780000FF7FFD
(1785078875.203868) can0 09F11219#01FEFFFF7FFF7FFC
(1785078875.264243) can0 18F01D21#A73A0E80FFFFFFFF
(1785078875.303877) can0 09F11219#02FEFFFF7FFF7FFC
(1785078875.327855) can0 09F112F8#FF5A780000FF7FFD
(1785078875.363820) can0 18F01D21#A73A0E80FFFFFFFF
(1785078875.403843) can0 09F11219#03FEFFFF7FFF7FFC
(1785078875.464207) can0 18F01D21#A73A0E80FFFFFFFF
(1785078875.466863) can0 09F112F8#FF5B780000FF7FFD
(1785078875.504434) can0 09F11219#04FEFFFF7FFF7FFC
(1785078875.564311) can0 18F01D21#A73A0E80FFFFFFFF
(1785078875.601848) can0 09F112F8#FF5B780000FF7FFD
(1785078875.603656) can0 09F11219#05FEFFFF7FFF7FFC
(1785078875.663611) can0 18F01D21#A73A0E80FFFFFFFF
(1785078875.703700) can0 09F11219#06FEFFFF7FFF7FFC
(1785078875.745323) can0 09F112F8#FF5A780000FF7FFD
(1785078875.763898) can0 18F01D21#A73A0E80FFFFFFFF
(1785078875.803758) can0 09F11219#07FEFFFF7FFF7FFC
(1785078875.864293) can0 18F01D21#A73A0E80FFFFFFFF
(1785078875.881011) can0 09F112F8#FF59780000FF7FFD
(1785078875.903808) can0 09F11219#08FEFFFF7FFF7FFC
(1785078875.963668) can0 18F01D21#A73A0E80FFFFFFFF
(1785078876.004527) can0 09F11219#09FEFFFF7FFF7FFC
(1785078876.019072) can0 09F112F8#FF59780000FF7FFD
(1785078876.064090) can0 18F01D21#A73A0E80FFFFFFFF
(1785078876.103818) can0 09F11219#0AFEFFFF7FFF7FFC
(1785078876.153042) can0 09F112F8#FF59780000FF7FFD
(1785078876.164604) can0 18F01D21#A73A0E80FFFFFFFF
(1785078876.203670) can0 09F11219#0BFEFFFF7FFF7FFC
(1785078876.263847) can0 18F01D21#A73A0E80FFFFFFFF
(1785078876.291294) can0 09F112F8#FF56780000FF7FFD
(1785078876.303716) can0 09F11219#0CFEFFFF7FFF7FFC
(1785078876.364309) can0 18F01D21#A73A0E80FFFFFFFF
(1785078876.403734) can0 09F11219#0DFEFFFF7FFF7FFC
(1785078876.429070) can0 09F112F8#FF53780000FF7FFD
(1785078876.464493) can0 18F01D21#A73A0E80FFFFFFFF
(1785078876.504701) can0 09F11219#0EFEFFFF7FFF7FFC
(1785078876.563961) can0 18F01D21#A73A0E80FFFFFFFF
(1785078876.566435) can0 09F112F8#FF54780000FF7FFD
(1785078876.603763) can0 09F11219#0FFEFFFF7FFF7FFC
(1785078876.664201) can0 18F01D21#A73A0E80FFFFFFFF
(1785078876.703848) can0 09F11219#10FEFFFF7FFF7FFC
(1785078876.707884) can0 09F112F8#FF53780000FF7FFD
(1785078876.764740) can0 18F01D21#A73A0E80FFFFFFFF
(1785078876.803743) can0 09F11219#11FEFFFF7FFF7FFC
(1785078876.845727) can0 09F112F8#FF54780000FF7FFD
(1785078876.863920) can0 18F01D21#A73A0E80FFFFFFFF
(1785078876.903675) can0 09F11219#12FEFFFF7FFF7FFC
(1785078876.964269) can0 18F01D21#A73A0E80FFFFFFFF
(1785078876.982853) can0 09F112F8#FF53780000FF7FFD
(1785078877.004418) can0 09F11219#13FEFFFF7FFF7FFC
(1785078877.064725) can0 18F01D21#A73A0E80FFFFFFFF
(1785078877.103753) can0 09F11219#14FEFFFF7FFF7FFC
(1785078877.125453) can0 09F112F8#FF58780000FF7FFD
(1785078877.164100) can0 18F01D21#A73A0E80FFFFFFFF
(1785078877.203873) can0 09F11219#15FEFFFF7FFF7FFC
(1785078877.259874) can0 09F112F8#FF5F780000FF7FFD
(1785078877.264394) can0 18F01D21#A73A0E80FFFFFFFF
(1785078877.303786) can0 09F11219#16FEFFFF7FFF7FFC
(1785078877.364830) can0 18F01D21#A73A0E80FFFFFFFF
(1785078877.399870) can0 09F112F8#FF62780000FF7FFD
(1785078877.403674) can0 09F11219#17FEFFFF7FFF7FFC
(1785078877.464143) can0 18F01D21#A73A0E80FFFFFFFF
(1785078877.504469) can0 09F11219#18FEFFFF7FFF7FFC
(1785078877.538918) can0 09F112F8#FF63780000FF7FFD
(1785078877.564458) can0 18F01D21#A73A0E80FFFFFFFF
(1785078877.603744) can0 09F11219#19FEFFFF7FFF7FFC
(1785078877.664809) can0 18F01D21#A73A0E80FFFFFFFF
(1785078877.680884) can0 09F112F8#FF62780000FF7FFD
(1785078877.703770) can0 09F11219#1AFEFFFF7FFF7FFC
(1785078877.764284) can0 18F01D21#A73A0E80FFFFFFFF
(1785078877.803882) can0 09F11219#1BFEFFFF7FFF7FFC
(1785078877.812887) can0 09F112F8#FF62780000FF7FFD
(1785078877.864538) can0 18F01D21#A73A0E80FFFFFFFF
(1785078877.903830) can0 09F11219#1CFEFFFF7FFF7FFC
(1785078877.958110) can0 09F112F8#FF62780000FF7FFD
(1785078877.964009) can0 18F01D21#A73A0E80FFFFFFFF
(1785078878.004600) can0 09F11219#1DFEFFFF7FFF7FFC
(1785078878.064630) can0 18F01D21#A73A0E80FFFFFFFF
(1785078878.092164) can0 09F112F8#FF63780000FF7FFD
(1785078878.103708) can0 09F11219#1EFEFFFF7FFF7FFC
(1785078878.164566) can0 18F01D21#A73A0E80FFFFFFFF
(1785078878.203807) can0 09F11219#1FFEFFFF7FFF7FFC
(1785078878.230000) can0 09F112F8#FF65780000FF7FFD
(1785078878.263829) can0 18F01D21#A73A0E80FFFFFFFF
(1785078878.303880) can0 09F11219#20FEFFFF7FFF7FFC
(1785078878.364274) can0 18F01D21#A73A0E80FFFFFFFF
(1785078878.367982) can0 09F112F8#FF63780000FF7FFD
(1785078878.403917) can0 09F11219#21FEFFFF7FFF7FFC
(1785078878.464743) can0 18F01D21#A73A0E80FFFFFFFF
(1785078878.504405) can0 09F11219#22FEFFFF7FFF7FFC
(1785078878.510271) can0 09F112F8#FF60780000FF7FFD
(1785078878.563915) can0 18F01D21#A73A0E80FFFFFFFF
(1785078878.603788) can0 09F11219#23FEFFFF7FFF7FFC
(1785078878.651124) can0 09F112F8#FF60780000FF7FFD
(1785078878.664474) can0 18F01D21#A73A0E80FFFFFFFF
(1785078878.703829) can0 09F11219#24FEFFFF7FFF7FFC
(1785078878.764741) can0 18F01D21#A73A0E80FFFFFFFF
(1785078878.787941) can0 09F112F8#FF62780000FF7FFD
(1785078878.803931) can0 09F11219#25FEFFFF7FFF7FFC
(1785078878.864020) can0 18F01D21#A73A0E80FFFFFFFF
(1785078878.903840) can0 09F11219#26FEFFFF7FFF7FFC
(1785078878.928989) can0 09F112F8#FF61780000FF7FFD
(1785078878.964384) can0 18F01D21#A73A0E80FFFFFFFF
(1785078879.004755) can0 09F11219#27FEFFFF7FFF7FFC
(1785078879.063069) can0 09F112F8#FF63780000FF7FFD
(1785078879.065022) can0 18F01D21#A73A0E80FFFFFFFF
(1785078879.104030) can0 09F11219#28FEFFFF7FFF7FFC
(1785078879.164059) can0 18F01D21#A73A0E80FFFFFFFF
(1785078879.200373) can0 09F112F8#FF61780000FF7FFD
(1785078879.203888) can0 09F11219#29FEFFFF7FFF7FFC
(1785078879.264576) can0 18F01D21#A73A0E80FFFFFFFF
(1785078879.303851) can0 09F11219#2AFEFFFF7FFF7FFC
(1785078879.339976) can0 09F112F8#FF61780000FF7FFD
(1785078879.364817) can0 18F01D21#A73A0E80FFFFFFFF
(1785078879.403968) can0 09F11219#2BFEFFFF7FFF7FFC
(1785078879.464118) can0 18F01D21#A73A0E80FFFFFFFF
(1785078879.476322) can0 09F112F8#FF5D780000FF7FFD
(1785078879.504559) can0 09F11219#2CFEFFFF7FFF7FFC
(1785078879.564487) can0 18F01D21#A73A0E80FFFFFFFF
(1785078879.604015) can0 09F11219#2DFEFFFF7FFF7FFC
(1785078879.619533) can0 09F112F8#FF5C780000FF7FFD
(1785078879.665004) can0 18F01D21#A73A0E80FFFFFFFF
(1785078879.703884) can0 09F11219#2EFEFFFF7FFF7FFC
(1785078879.757991) can0 09F112F8#FF5A780000FF7FFD
(1785078879.764190) can0 18F01D21#A73A0E80FFFFFFFF
(1785078879.804106) can0 09F11219#2FFEFFFF7FFF7FFC
(1785078879.864613) can0 18F01D21#A73A0E80FFFFFFFF
(1785078879.895465) can0 09F112F8#FF59780000FF7FFD
(1785078879.903896) can0 09F11219#30FEFFFF7FFF7FFC
(1785078879.965108) can0 18F01D21#A73A0E80FFFFFFFF
(1785078880.004662) can0 09F11219#31FEFFFF7FFF7FFC
(1785078880.029904) can0 09F112F8#FF59780000FF7FFD
(1785078880.064434) can0 18F01D21#A73A0E80FFFFFFFF
(1785078880.104095) can0 09F11219#32FEFFFF7FFF7FFC
(1785078880.164642) can0 18F01D21#A73A0E80FFFFFFFF
(1785078880.171369) can0 09F112F8#FF59780000FF7FFD
(1785078880.203995) can0 09F11219#33FEFFFF7FFF7FFC
(1785078880.265198) can0 18F01D21#A73A0E80FFFFFFFF
(1785078880.303975) can0 09F11219#34FEFFFF7FFF7FFC
(1785078880.308440) can0 09F112F8#FF55780000FF7FFD
(1785078880.364372) can0 18F01D21#A73A0E80FFFFFFFF
(1785078880.404009) can0 09F11219#35FEFFFF7FFF7FFC
(1785078880.446325) can0 09F112F8#FF53780000FF7FFD
(1785078880.464692) can0 18F01D21#A73A0E80FFFFFFFF
(1785078880.504785) can0 09F11219#36FEFFFF7FFF7FFC
(1785078880.565246) can0 18F01D21#A73A0E80FFFFFFFF
(1785078880.586377) can0 09F112F8#FF50780000FF7FFD
(1785078880.604110) can0 09F11219#37FEFFFF7FFF7FFC
(1785078880.664490) can0 18F01D21#A73A0E80FFFFFFFF
(1785078880.704184) can0 09F11219#38FEFFFF7FFF7FFC
(1785078880.725672) can0 09F112F8#FF51780000FF7FFD
(1785078880.764808) can0 18F01D21#A73A0E80FFFFFFFF
(1785078880.803967) can0 09F11219#39FEFFFF7FFF7FFC
(1785078880.862064) can0 09F112F8#FF4F780000FF7FFD
(1785078880.865206) can0 18F01D21#A73A0E80FFFFFFFF
(1785078880.904172) can0 09F11219#3AFEFFFF7FFF7FFC
(1785078880.964616) can0 18F01D21#A73A0E80FFFFFFFF
(1785078881.000597) can0 09F112F8#FF4F780000FF7FFD
(1785078881.004837) can0 09F11219#3BFEFFFF7FFF7FFC
(1785078881.065132) can0 18F01D21#A73A0E80FFFFFFFF
(1785078881.103915) can0 09F11219#3CFEFFFF7FFF7FFC
(1785078881.142017) can0 09F112F8#FF52780000FF7FFD
(1785078881.164320) can0 18F01D21#A73A0E80FFFFFFFF
(1785078881.203970) can0 09F11219#3DFEFFFF7FFF7FFC
(1785078881.264658) can0 18F01D21#A73A0E80FFFFFFFF
(1785078881.281097) can0 09F112F8#FF50780000FF7FFD
(1785078881.304086) can0 09F11219#3EFEFFFF7FFF7FFC
(1785078881.364981) can0 18F01D21#A73A0E80FFFFFFFF
(1785078881.404139) can0 09F11219#3FFEFFFF7FFF7FFC
(1785078881.420203) can0 09F112F8#FF50780000FF7FFD
(1785078881.464356) can0 18F01D21#A73A0E80FFFFFFFF
(1785078881.504626) can0 09F11219#40FEFFFF7FFF7FFC
(1785078881.558021) can0 09F112F8#FF4C780000FF7FFD
(1785078881.564683) can0 18F01D21#A73A0E80FFFFFFFF
(1785078881.604019) can0 09F11219#41FEFFFF7FFF7FFC
(1785078881.665135) can0 18F01D21#A73A0E80FFFFFFFF
(1785078881.695537) can0 09F112F8#FF49780000FF7FFD
(1785078881.703968) can0 09F11219#42FEFFFF7FFF7FFC
(1785078881.764591) can0 18F01D21#A73A0E80FFFFFFFF
(1785078881.803884) can0 09F11219#43FEFFFF7FFF7FFC
(1785078881.838222) can0 09F112F8#FF46780000FF7FFD
(1785078881.864794) can0 18F01D21#A73A0E80FFFFFFFF
(1785078881.904127) can0 09F11219#44FEFFFF7FFF7FFC
(1785078881.965116) can0 18F01D21#A73A0E80FFFFFFFF
(1785078881.975789) can0 09F112F8#FF47780000FF7FFD
(1785078882.004721) can0 09F11219#45FEFFFF7FFF7FFC
(1785078882.064465) can0 18F01D21#A73A0E80FFFFFFFF
(1785078882.104103) can0 09F11219#46FEFFFF7FFF7FFC
(1785078882.113214) can0 09F112F8#FF47780000FF7FFD
(1785078882.164720) can0 18F01D21#A73A0E80FFFFFFFF
(1785078882.203943) can0 09F11219#47FEFFFF7FFF7FFC
(1785078882.249068) can0 09F112F8#FF48780000FF7FFD
(1785078882.265079) can0 18F01D21#A73A0E80FFFFFFFF
(1785078882.303891) can0 09F11219#48FEFFFF7FFF7FFC
(1785078882.364768) can0 18F01D21#A73A0E80FFFFFFFF
(1785078882.389062) can0 09F112F8#FF4A780000FF7FFD
(1785078882.403892) can0 09F11219#49FEFFFF7FFF7FFC
(1785078882.465076) can0 18F01D21#A73A0E80FFFFFFFF
(1785078882.504799) can0 09F11219#4AFEFFFF7FFF7FFC
(1785078882.521292) can0 09F112F8#FF49780000FF7FFD
(1785078882.565234) can0 18F01D21#A73A0E80FFFFFFFF
(1785078882.603898) can0 09F11219#4BFEFFFF7FFF7FFC
(1785078882.662115) can0 09F112F8#FF46780000FF7FFD
(1785078882.664518) can0 18F01D21#A73A0E80FFFFFFFF
(1785078882.704092) can0 09F11219#4CFEFFFF7FFF7FFC
(1785078882.765005) can0 18F01D21#A73A0E80FFFFFFFF
(1785078882.798291) can0 09F112F8#FF44780000FF7FFD
(1785078882.804132) can0 09F11219#4DFEFFFF7FFF7FFC
(1785078882.865269) can0 18F01D21#A73A0E80FFFFFFFF
(1785078882.903923) can0 09F11219#4EFEFFFF7FFF7FFC
(1785078882.938076) can0 09F112F8#FF48780000FF7FFD
(1785078882.964720) can0 18F01D21#A73A0E80FFFFFFFF
(1785078883.004547) can0 09F11219#4FFEFFFF7FFF7FFC
(1785078883.065112) can0 18F01D21#A73A0E80FFFFFFFF
(1785078883.073130) can0 09F112F8#FF4B780000FF7FFD
(1785078883.103903) can0 09F11219#50FEFFFF7FFF7FFC
(1785078883.165332) can0 18F01D21#A73A0E80FFFFFFFF
(1785078883.203917) can0 09F11219#51FEFFFF7FFF7FFC
(1785078883.209297) can0 09F112F8#FF4E780000FF7FFD
(1785078883.264665) can0 18F01D21#A73A0E80FFFFFFFF
(1785078883.303945) can0 09F11219#52FEFFFF7FFF7FFC
(1785078883.349240) can0 09F112F8#FF4E780000FF7FFD
(1785078883.365067) can0 18F01D21#A73A0E80FFFFFFFF
(1785078883.403927) can0 09F11219#53FEFFFF7FFF7FFC
(1785078883.465404) can0 18F01D21#A73A0E80FFFFFFFF
(1785078883.486486) can0 09F112F8#FF4D780000FF7FFD
(1785078883.504617) can0 09F11219#54FEFFFF7FFF7FFC
(1785078883.564846) can0 18F01D21#A73A0E80FFFFFFFF
(1785078883.603969) can0 09F11219#55FEFFFF7FFF7FFC
(1785078883.627005) can0 09F112F8#FF49780000FF7FFD
(1785078883.665241) can0 18F01D21#A73A0E80FFFFFFFF
(1785078883.703972) can0 09F11219#56FEFFFF7FFF7FFC
(1785078883.765017) can0 09F112F8#FF48780000FF7FFD
(1785078883.765539) can0 18F01D21#A73A0E80FFFFFFFF
(1785078883.804125) can0 09F11219#57FEFFFF7FFF7FFC
(1785078883.864993) can0 18F01D21#A73A0E80FFFFFFFF
(1785078883.897198) can0 09F112F8#FF48780000FF7FFD
(1785078883.904131) can0 09F11219#58FEFFFF7FFF7FFC
(1785078883.965456) can0 18F01D21#A73A0E80FFFFFFFF
(1785078884.004749) can0 09F11219#59FEFFFF7FFF7FFC
(1785078884.039474) can0 09F112F8#FF46780000FF7FFD
(1785078884.065788) can0 18F01D21#A73A0E80FFFFFFFF
(1785078884.103926) can0 09F11219#5AFEFFFF7FFF7FFC
(1785078884.164997) can0 18F01D21#A73A0E80FFFFFFFF
(1785078884.178110) can0 09F112F8#FF47780000FF7FFD
(1785078884.204155) can0 09F11219#5BFEFFFF7FFF7FFC
(1785078884.265389) can0 18F01D21#A73A0E80FFFFFFFF
(1785078884.304198) can0 09F11219#5CFEFFFF7FFF7FFC
(1785078884.315752) can0 09F112F8#FF4B780000FF7FFD
(1785078884.364691) can0 18F01D21#A73A0E80FFFFFFFF
(1785078884.404181) can0 09F11219#5DFEFFFF7FFF7FFC
(1785078884.459103) can0 09F112F8#FF4F780000FF7FFD
(1785078884.464978) can0 18F01D21#A73A0E80FFFFFFFF
(1785078884.504865) can0 09F11219#5EFEFFFF7FFF7FFC
(1785078884.565398) can0 18F01D21#A73A0E80FFFFFFFF
(1785078884.595048) can0 09F112F8#FF4F780000FF7FFD
(1785078884.603992) can0 09F11219#5FFEFFFF7FFF7FFC
(1785078884.664748) can0 18F01D21#A73A0E80FFFFFFFF
(1785078884.703969) can0 09F11219#60FEFFFF7FFF7FFC
(1785078884.730352) can0 09F112F8#FF50780000FF7FFD
(1785078884.764978) can0 18F01D21#A73A0E80FFFFFFFF
(1785078884.804074) can0 09F11219#61FEFFFF7FFF7FFC
(1785078884.865303) can0 18F01D21#A73A0E80FFFFFFFF
(1785078884.867746) can0 09F112F8#FF51780000FF7FFD
(1785078884.904022) can0 09F11219#62FEFFFF7FFF7FFC
(1785078884.964677) can0 18F01D21#A73A0E80FFFFFFFF
(1785078885.001534) can0 09F112F8#FF4C780000FF7FFD
(1785078885.004645) can0 09F11219#63FEFFFF7FFF7FFC
(1785078885.065467) can0 18F01D21#A73A0E80FFFFFFFF
(1785078885.104201) can0 09F11219#64FEFFFF7FFF7FFC
(1785078885.140120) can0 09F112F8#FF4C780000FF7FFD
(1785078885.165663) can0 18F01D21#A73A0E80FFFFFFFF
(1785078885.204054) can0 09F11219#65FEFFFF7FFF7FFC
(1785078885.265004) can0 18F01D21#A73A0E80FFFFFFFF
(1785078885.276565) can0 09F112F8#FF4B780000FF7FFD
(1785078885.304126) can0 09F11219#66FEFFFF7FFF7FFC
(1785078885.365150) can0 18F01D21#A73A0E80FFFFFFFF
(1785078885.404480) can0 09F11219#67FEFFFF7FFF7FFC
(1785078885.416493) can0 09F112F8#FF4A780000FF7FFD
(1785078885.465548) can0 18F01D21#A73A0E80FFFFFFFF
(1785078885.504931) can0 09F11219#68FEFFFF7FFF7FFC
(1785078885.556617) can0 09F112F8#FF4A780000FF7FFD
(1785078885.565033) can0 18F01D21#A73A0E80FFFFFFFF
(1785078885.604161) can0 09F11219#69FEFFFF7FFF7FFC
(1785078885.665258) can0 18F01D21#A73A0E80FFFFFFFF
(1785078885.696572) can0 09F112F8#FF4B780000FF7FFD
(1785078885.704127) can0 09F11219#6AFEFFFF7FFF7FFC
(1785078885.765683) can0 18F01D21#A73A0E80FFFFFFFF
(1785078885.804266) can0 09F11219#6BFEFFFF7FFF7FFC
(1785078885.838170) can0 09F112F8#FF4C780000FF7FFD
(1785078885.865187) can0 18F01D21#A73A0E80FFFFFFFF
(1785078885.904241) can0 09F11219#6CFEFFFF7FFF7FFC
(1785078885.965383) can0 18F01D21#A73A0E80FFFFFFFF
(1785078885.978354) can0 09F112F8#FF4B780000FF7FFD
(1785078886.004803) can0 09F11219#6DFEFFFF7FFF7FFC
(1785078886.066204) can0 18F01D21#A73A0E80FFFFFFFF
(1785078886.104152) can0 09F11219#6EFEFFFF7FFF7FFC
(1785078886.110134) can0 09F112F8#FF4B780000FF7FFD
(1785078886.164998) can0 18F01D21#A73A0E80FFFFFFFF
(1785078886.204217) can0 09F11219#6FFEFFFF7FFF7FFC
(1785078886.249732) can0 09F112F8#FF4C780000FF7FFD
(1785078886.265363) can0 18F01D21#A73A0E80FFFFFFFF
(1785078886.304264) can0 09F11219#70FEFFFF7FFF7FFC
(1785078886.365782) can0 18F01D21#A73A0E80FFFFFFFF
(1785078886.391403) can0 09F112F8#FF48780000FF7FFD
(1785078886.404365) can0 09F11219#71FEFFFF7FFF7FFC
(1785078886.465108) can0 18F01D21#A73A0E80FFFFFFFF
(1785078886.504916) can0 09F11219#72FEFFFF7FFF7FFC
(1785078886.530150) can0 09F112F8#FF49780000FF7FFD
(1785078886.565557) can0 18F01D21#A73A0E80FFFFFFFF
(1785078886.604383) can0 09F11219#73FEFFFF7FFF7FFC
(1785078886.665845) can0 18F01D21#A73A0E80FFFFFFFF
(1785078886.666841) can0 09F112F8#FF45780000FF7FFD
(1785078886.704238) can0 09F11219#74FEFFFF7FFF7FFC
(1785078886.765133) can0 18F01D21#A73A0E80FFFFFFFF
(1785078886.804164) can0 09F11219#75FEFFFF7FFF7FFC
(1785078886.808183) can0 09F112F8#FF41780000FF7FFD
(1785078886.865489) can0 18F01D21#A73A0E80FFFFFFFF
(1785078886.904137) can0 09F11219#76FEFFFF7FFF7FFC
(1785078886.941195) can0 09F112F8#FF41780000FF7FFD
(1785078886.965860) can0 18F01D21#A73A0E80FFFFFFFF
(1785078887.004932) can0 09F11219#77FEFFFF7FFF7FFC
(1785078887.065236) can0 18F01D21#A73A0E80FFFFFFFF
(1785078887.083510) can0 09F112F8#FF3B780000FF7FFD
(1785078887.104348) can0 09F11219#78FEFFFF7FFF7FFC
(1785078887.165614) can0 18F01D21#A73A0E80FFFFFFFF
(1785078887.204285) can0 09F11219#79FEFFFF7FFF7FFC
(1785078887.221422) can0 09F112F8#FF37780000FF7FFD
(1785078887.266068) can0 18F01D21#A73A0E80FFFFFFFF
(1785078887.304197) can0 09F11219#7AFEFFFF7FFF7FFC
(1785078887.359209) can0 09F112F8#FF34780000FF7FFD
(1785078887.365303) can0 18F01D21#A73A0E80FFFFFFFF
(1785078887.404131) can0 09F11219#7BFEFFFF7FFF7FFC
(1785078887.465825) can0 18F01D21#A73A0E80FFFFFFFF
(1785078887.504993) can0 09F11219#7CFEFFFF7FFF7FFC
(1785078887.509166) can0 09F112F8#FF2D780000FF7FFD
(1785078887.565154) can0 18F01D21#A73A0E80FFFFFFFF
(1785078887.604123) can0 09F11219#7DFEFFFF7FFF7FFC
(1785078887.636658) can0 09F112F8#FF27780000FF7FFD
(1785078887.665423) can0 18F01D21#A73A0E80FFFFFFFF
(1785078887.704187) can0 09F11219#7EFEFFFF7FFF7FFC
(1785078887.765757) can0 18F01D21#A73A0E80FFFFFFFF
(1785078887.775855) can0 09F112F8#FF25780000FF7FFD
(1785078887.804241) can0 09F11219#7FFEFFFF7FFF7FFC
(1785078887.865226) can0 18F01D21#A73A0E80FFFFFFFF
(1785078887.904355) can0 09F11219#80FEFFFF7FFF7FFC
(1785078887.913215) can0 09F112F8#FF24780000FF7FFD
(1785078887.965451) can0 18F01D21#A73A0E80FFFFFFFF
(1785078888.004873) can0 09F11219#81FEFFFF7FFF7FFC
(1785078888.051436) can0 09F112F8#FF20780000FF7FFD
(1785078888.066185) can0 18F01D21#A73A0E80FFFFFFFF
(1785078888.104176) can0 09F11219#82FEFFFF7FFF7FFC
(1785078888.165177) can0 18F01D21#A73A0E80FFFFFFFF
(1785078888.189240) can0 09F112F8#FF1D780000FF7FFD
(1785078888.204118) can0 09F11219#83FEFFFF7FFF7FFC
(1785078888.265511) can0 18F01D21#A73A0E80FFFFFFFF
(1785078888.304123) can0 09F11219#84FEFFFF7FFF7FFC
(1785078888.325913) can0 09F112F8#FF1A780000FF7FFD
(1785078888.365888) can0 18F01D21#A73A0E80FFFFFFFF
(1785078888.404393) can0 09F11219#85FEFFFF7FFF7FFC
(1785078888.465275) can0 18F01D21#A73A0E80FFFFFFFF
(1785078888.470206) can0 09F112F8#FF16780000FF7FFD
(1785078888.504888) can0 09F11219#86FEFFFF7FFF7FFC
(1785078888.565628) can0 18F01D21#A73A0E80FFFFFFFF
(1785078888.604154) can0 09F11219#87FEFFFF7FFF7FFC
(1785078888.605992) can0 09F112F8#FF10780000FF7FFD
(1785078888.652172) can0 18EEFF00#C82C420E00000051
(1785078888.658122) can0 18EEFF19#E773B81C009178C0
(1785078888.658616) can0 18EEFF1C#0204450E00000042
(1785078888.659182) can0 18EEFFF8#6CDBAF1C008C78C0
(1785078888.662227) can0 18EEFF00#C82C4A0E00000051
(1785078888.666123) can0 18F01D21#A73A0E80FFFFFFFF
(1785078888.704120) can0 09F11219#88FEFFFF7FFF7FFC
(1785078888.745975) can0 09F112F8#FF0B780000FF7FFD
(1785078888.765319) can0 18F01D21#A73A0E80FFFFFFFF
(1785078888.793161) can0 19F10D13#009C019E01000153
(1785078888.804137) can0 09F11219#89FEFFFF7FFF7FFC
(1785078888.865670) can0 18F01D21#A73A0E80FFFFFFFF
(1785078888.886632) can0 09F112F8#FF04780000FF7FFD
(1785078888.893250) can0 19F10D13#019C019E01000153
(1785078888.904272) can0 09F11219#8AFEFFFF7FFF7FFC
(1785078888.937715) can0 0CF00400#FF7D7D000000FFFF
(1785078888.957211) can0 0CF00400#FF7D7D000000FFFF
(1785078888.966063) can0 18F01D21#A73A0E80FFFFFFFF
(1785078888.977404) can0 0CF00400#FF7D7D000000FFFF
(1785078888.978288) can0 09F8021C#E5FCD6EF0100FFFF
(1785078888.979989) can0 09F8011C#3E6D2618FA6B5BC1
(1785078888.984116) can0 18FEE81C#E8AF000021646B7E
(1785078888.993758) can0 19F10D13#029C019E01000153
(1785078888.997626) can0 0CF00400#FF7D7D000000FFFF
(1785078889.005735) can0 09F11219#8BFEFFFF7FFF7FFC
(1785078889.017241) can0 0CF00400#FF7D7D000000FFFF
(1785078889.031279) can0 09F112F8#FFFE770000FF7FFD
(1785078889.038304) can0 0CF00400#FF7D7D000000FFFF
(1785078889.057126) can0 0CF00400#FF7D7D000000FFFF
(1785078889.065290) can0 18F01D21#A73A0E80FFFFFFFF
(1785078889.077219) can0 0CF00400#FF7D7D000000FFFF
(1785078889.093653) can0 19F10D13#039C019F01000153
(1785078889.097157) can0 0CF00400#FF7D7D000000FFFF
(1785078889.104252) can0 09F11219#8CFEFFFF7FFF7FFC
(1785078889.117163) can0 0CF00400#FF7D7D000000FFFF
(1785078889.138273) can0 0CF00400#FF7D7D000000FFFF
(1785078889.157151) can0 0CF00400#FF7D7D000000FFFF
(1785078889.158677) can0 09F112F8#FFFB770000FF7FFD
(1785078889.165905) can0 18F01D21#A73A0E80FFFFFFFF
(1785078889.177289) can0 0CF00400#FF7D7D000000FFFF
(1785078889.193198) can0 19F10D13#049C019F01000153
(1785078889.197240) can0 0CF00400#FF7D7D000000FFFF
(1785078889.204248) can0 09F11219#8DFEFFFF7FFF7FFC
(1785078889.217167) can0 0CF00400#FF7D7D000000FFFF
(1785078889.238378) can0 0CF00400#FF7D7D000000FFFF
(1785078889.257160) can0 0CF00400#FF7D7D000000FFFF
(1785078889.266269) can0 18F01D21#A73A0E80FFFFFFFF
(1785078889.277208) can0 0CF00400#FF7D7D000000FFFF
(1785078889.293126) can0 19F10D13#059D019F01000153
(1785078889.297132) can0 0CF00400#FF7D7D000000FFFF
(1785078889.299229) can0 09F112F8#FFF9770000FF7FFD
(1785078889.304136) can0 09F11219#8EFEFFFF7FFF7FFC
(1785078889.317158) can0 0CF00400#FF7D7D000000FFFF
(1785078889.338329) can0 0CF00400#FF7D7D000000FFFF
(1785078889.357360) can0 0CF00400#FF7D7D000000FFFF
(1785078889.365594) can0 18F01D21#A73A0E80FFFFFFFF
(1785078889.377162) can0 0CF00400#FF7D7D000000FFFF
(1785078889.393131) can0 19F10D13#069D019F01000153
(1785078889.397131) can0 0CF00400#FF7D7D000000FFFF
(1785078889.404155) can0 09F11219#8FFEFFFF7FFF7FFC
(1785078889.417143) can0 0CF00400#FF7D7D000000FFFF
(1785078889.419559) can0 18EEFF9B#6DAAEF10008278C0
(1785078889.436710) can0 09F112F8#FFF6770000FF7FFD
(1785078889.437790) can0 0CF00400#FF7D7D000000FFFF
(1785078889.457181) can0 0CF00400#FF7D7D000000FFFF
(1785078889.465736) can0 18F01D21#A73A0E80FFFFFFFF
(1785078889.477200) can0 0CF00400#FF7D7D000000FFFF
(1785078889.487764) can0 09F8021C#E6FCD6EF0000FFFF
(1785078889.488896) can0 09F8011C#3E6D2618FC6B5BC1
(1785078889.493343) can0 18FEE81C#E8AF000021646B7E
(1785078889.493873) can0 19F10D13#079D019F01000153
(1785078889.497162) can0 0CF00400#FF7D7D000000FFFF
(1785078889.505342) can0 09F11219#90FEFFFF7FFF7FFC
(1785078889.517646) can0 0CF00400#FF7D7D000000FFFF
(1785078889.538230) can0 0CF00400#FF7D7D000000FFFF
(1785078889.557675) can0 0CF00400#FF7D7D000000FFFF
(1785078889.566116) can0 18F01D21#A73A0E80FFFFFFFF
(1785078889.573267) can0 09F112F8#FFEF770000FF7FFD
(1785078889.577141) can0 0CF00400#FF7D7D000000FFFF
(1785078889.593136) can0 19F10D13#089C01A101000153
(1785078889.597155) can0 0CF00400#FF7D7D000000FFFF
(1785078889.604162) can0 09F11219#91FEFFFF7FFF7FFC
(1785078889.617246) can0 0CF00400#FF7D7D000000FFFF
(1785078889.638941) can0 0CF00400#FF7D7D000000FFFF
(1785078889.657099) can0 0CF00400#FF7D7D000000FFFF
(1785078889.665488) can0 18F01D21#A73A0E80FFFFFFFF
(1785078889.677247) can0 0CF00400#FF7D7D000000FFFF
(1785078889.693142) can0 19F10D13#099D01A101000153
(1785078889.697340) can0 0CF00400#FF7D7D000000FFFF
(1785078889.704261) can0 09F11219#92FEFFFF7FFF7FFC
(1785078889.715850) can0 09F112F8#FFE9770000FF7FFD
(1785078889.717137) can0 0CF00400#FF7D7D000000FFFF
(1785078889.738274) can0 0CF00400#FF7D7D000000FFFF
(1785078889.757138) can0 0CF00400#FF7D7D000000FFFF
(1785078889.765837) can0 18F01D21#A73A0E80FFFFFFFF
(1785078889.777117) can0 0CF00400#FF7D7D000000FFFF
(1785078889.793108) can0 19F10D13#0A9B01A101000154
(1785078889.797137) can0 0CF00400#FF7D7D000000FFFF
(1785078889.804182) can0 09F11219#93FEFFFF7FFF7FFC
(1785078889.817115) can0 0CF00400#FF7D7D000000FFFF
(1785078889.838338) can0 0CF00400#FF7D7D000000FFFF
(1785078889.855155) can0 09F112F8#FFEA770000FF7FFD
(1785078889.857363) can0 0CF00400#FF7D7D000000FFFF
(1785078889.866471) can0 18F01D21#A73A0E80FFFFFFFF
(1785078889.877191) can0 0CF00400#FF7D7D000000FFFF
(1785078889.893155) can0 19F10D13#0B9D01A101000153
(1785078889.897114) can0 0CF00400#FF7D7D000000FFFF
(1785078889.904162) can0 09F11219#94FEFFFF7FFF7FFC
(1785078889.917127) can0 0CF00400#FF7D7D000000FFFF
(1785078889.938352) can0 0CF00400#FF7D7D000000FFFF
(1785078889.957245) can0 0CF00400#FF7D7D000000FFFF
(1785078889.965712) can0 18F01D21#A73A0E80FFFFFFFF
(1785078889.977298) can0 0CF00400#FF7D7D000000FFFF
(1785078889.993644) can0 09F112F8#FFE8770000FF7FFD
(1785078889.994171) can0 19F10D13#0C9C01A101000153
(1785078889.997118) can0 0CF00400#FF7D7D000000FFFF
(1785078889.998247) can0 09F8021C#E7FCD6EF0000FFFF
(1785078889.998972) can0 09F8011C#426D2618FC6B5BC1
(1785078890.003100) can0 18FEE81C#E8AF000021646B7E
(1785078890.005359) can0 09F11219#95FEFFFF7FFF7FFC
(1785078890.017143) can0 0CF00400#FF7D7D000000FFFF
(1785078890.037839) can0 0CF00400#FF7D7D000000FFFF
(1785078890.057252) can0 0CF00400#FF7D7D000000FFFF
(1785078890.066173) can0 18F01D21#A73A0E80FFFFFFFF
(1785078890.077176) can0 0CF00400#FF7D7D000000FFFF
(1785078890.093879) can0 19F10D13#0D9D01A101000153
(1785078890.097093) can0 0CF00400#FF7D7D000000FFFF
(1785078890.104179) can0 09F11219#96FEFFFF7FFF7FFC
(1785078890.117301) can0 0CF00400#FF7D7D000000FFFF
(1785078890.135938) can0 09F112F8#FFE8770000FF7FFD
(1785078890.138245) can0 0CF00400#FF7D7D000000FFFF
(1785078890.157121) can0 0CF00400#FF7D7D000000FFFF
(1785078890.166258) can0 18F01D21#A73A0E80FFFFFFFF
(1785078890.177179) can0 0CF00400#FF7D7D000000FFFF
(1785078890.193294) can0 19F10D13#0E9C01A101000153
(1785078890.197254) can0 0CF00400#FF7D7D000000FFFF
(1785078890.204354) can0 09F11219#97FEFFFF7FFF7FFC
(1785078890.217186) can0 0CF00400#FF7D7D000000FFFF
(1785078890.238242) can0 0CF00400#FF7D7D000000FFFF
(1785078890.257123) can0 0CF00400#FF7D7D000000FFFF
(1785078890.265577) can0 18F01D21#A73A0E80FFFFFFFF
(1785078890.270377) can0 09F112F8#FFE3770000FF7FFD
(1785078890.277246) can0 0CF00400#FF7D7D000000FFFF
(1785078890.293172) can0 19F10D13#0F9C01A101000153
(1785078890.297300) can0 0CF00400#FF7D7D000000FFFF
(1785078890.304161) can0 09F11219#98FEFFFF7FFF7FFC
(1785078890.317079) can0 0CF00400#FF7D7D000000FFFF
(1785078890.338233) can0 0CF00400#FF7D7D000000FFFF
(1785078890.357122) can0 0CF00400#FF7D7D000000FFFF
(1785078890.365958) can0 18F01D21#A73A0E80FFFFFFFF
(1785078890.377156) can0 0CF00400#FF7D7D000000FFFF
(1785078890.393172) can0 19F10D13#109D01A101000153
(1785078890.397098) can0 0CF00400#FF7D7D000000FFFF
(1785078890.404176) can0 09F11219#99FEFFFF7FFF7FFC
(1785078890.408648) can0 09F112F8#FFDC770000FF7FFD
(1785078890.417136) can0 0CF00400#FF7D7D000000FFFF
(1785078890.437920) can0 0CF00400#FF7D7D000000FFFF
(1785078890.457607) can0 0CF00400#FF7D7D000000FFFF
(1785078890.466314) can0 18F01D21#A73A0E80FFFFFFFF
(1785078890.477143) can0 0CF00400#FF7D7D000000FFFF
(1785078890.493226) can0 19F10D13#119C01A101000153
(1785078890.497106) can0 0CF00400#FF7D7D000000FFFF
(1785078890.504971) can0 09F11219#9AFEFFFF7FFF7FFC
(1785078890.508625) can0 09F8021C#E8FCD6EF0000FFFF
(1785078890.509603) can0 09F8011C#446D2618FE6B5BC1
(1785078890.512677) can0 18FEE81C#E8AF000021646A7E
(1785078890.517586) can0 0CF00400#FF7D7D000000FFFF
(1785078890.538664) can0 0CF00400#FF7D7D000000FFFF
(1785078890.548560) can0 09F112F8#FFD8770000FF7FFD
(1785078890.557099) can0 0CF00400#FF7D7D000000FFFF
(1785078890.565642) can0 18F01D21#A73A0E80FFFFFFFF
(1785078890.577078) can0 0CF00400#FF7D7D000000FFFF
(1785078890.593106) can0 19F10D13#129C01A101000153
(1785078890.597098) can0 0CF00400#FF7D7D000000FFFF
(1785078890.604218) can0 09F11219#9BFEFFFF7FFF7FFC
(1785078890.617149) can0 0CF00400#FF7D7D000000FFFF
(1785078890.638416) can0 0CF00400#FF7D7D000000FFFF
(1785078890.657284) can0 0CF00400#FF7D7D000000FFFF
(1785078890.665940) can0 18F01D21#A73A0E80FFFFFFFF
(1785078890.677190) can0 0CF00400#FF7D7D000000FFFF
(1785078890.690310) can0 09F112F8#FFCE770000FF7FFD
(1785078890.693193) can0 19F10D13#139C01A101000153
(1785078890.697127) can0 0CF00400#FF7D7D000000FFFF
(1785078890.704237) can0 09F11219#9CFEFFFF7FFF7FFC
(1785078890.717332) can0 0CF00400#FF7D7D000000FFFF
(1785078890.738265) can0 0CF00400#FF7D7D000000FFFF
(1785078890.757088) can0 0CF00400#FF7D7D000000FFFF
(1785078890.765295) can0 18F01D21#A73A0E80FFFFFFFF
(1785078890.777188) can0 0CF00400#FF7D7D000000FFFF
(1785078890.793177) can0 19F10D13#149D01A101000153
(1785078890.797151) can0 0CF00400#FF7D7D000000FFFF
(1785078890.804252) can0 09F11219#9DFEFFFF7FFF7FFC
(1785078890.817339) can0 0CF00400#FF7D7D000000FFFF
(1785078890.825965) can0 09F112F8#FFC4770000FF7FFD
(1785078890.838267) can0 0CF00400#FF7D7D000000FFFF
(1785078890.857092) can0 0CF00400#FF7D7D000000FFFF
(1785078890.865679) can0 18F01D21#A73A0E80FFFFFFFF
(1785078890.877146) can0 0CF00400#FF7D7D000000FFFF
(1785078890.893197) can0 19F10D13#159D01A101000153
(1785078890.897257) can0 0CF00400#FF7D7D000000FFFF
(1785078890.904254) can0 09F11219#9EFEFFFF7FFF7FFC
(1785078890.917177) can0 0CF00400#FF7D7D000000FFFF
(1785078890.938300) can0 0CF00400#FF7D7D000000FFFF
(1785078890.957138) can0 0CF00400#FF7D7D000000FFFF
(1785078890.966158) can0 18F01D21#A73A0E80FFFFFFFF
(1785078890.966694) can0 09F112F8#FFBE770000FF7FFD
(1785078890.977244) can0 0CF00400#FF7D7D000000FFFF
(1785078890.993828) can0 19F10D13#169D01A101000153
(1785078890.997259) can0 0CF00400#FF7D7D000000FFFF
(1785078891.005106) can0 09F11219#9FFEFFFF7FFF7FFC
(1785078891.017093) can0 0CF00400#FF7D7D000000FFFF
(1785078891.019203) can0 09F8021C#E9FCD6EF0000FFFF
(1785078891.020446) can0 09F8011C#466D2618026C5BC1
(1785078891.026443) can0 18FEE81C#E8AF000021646A7E
(1785078891.038162) can0 0CF00400#FF7D7D000000FFFF
(1785078891.057239) can0 0CF00400#FF7D7D000000FFFF
(1785078891.065908) can0 18F01D21#A73A0E80FFFFFFFF
(1785078891.078006) can0 0CF00400#FF7D7D000000FFFF
(1785078891.093175) can0 19F10D13#179B01A101000154
(1785078891.097641) can0 0CF00400#FF7D7D000000FFFF
(1785078891.103321) can0 09F112F8#FFBA770000FF7FFD
(1785078891.104724) can0 09F11219#A0FEFFFF7FFF7FFC
(1785078891.117086) can0 0CF00400#FF7D7D000000FFFF
(1785078891.138264) can0 0CF00400#FF7D7D000000FFFF
(1785078891.157268) can0 0CF00400#FF7D7D000000FFFF
(1785078891.165823) can0 18F01D21#A73A0E80FFFFFFFF
(1785078891.177309) can0 0CF00400#FF7D7D000000FFFF
(1785078891.193166) can0 19F10D13#189C01A101000153
(1785078891.197168) can0 0CF00400#FF7D7D000000FFFF
(1785078891.204303) can0 09F11219#A1FEFFFF7FFF7FFC
(1785078891.217305) can0 0CF00400#FF7D7D000000FFFF
(1785078891.237801) can0 0CF00400#FF7D7D000000FFFF
(1785078891.241517) can0 09F112F8#FFB7770000FF7FFD
(1785078891.257138) can0 0CF00400#FF7D7D000000FFFF
(1785078891.266462) can0 18F01D21#A73A0E80FFFFFFFF
(1785078891.277161) can0 0CF00400#FF7D7D000000FFFF
(1785078891.293184) can0 19F10D13#199D01A101000153
(1785078891.297153) can0 0CF00400#FF7D7D000000FFFF
(1785078891.304307) can0 09F11219#A2FEFFFF7FFF7FFC
(1785078891.317095) can0 0CF00400#FF7D7D000000FFFF
(1785078891.338215) can0 0CF00400#FF7D7D000000FFFF
(1785078891.357478) can0 0CF00400#FF7D7D000000FFFF
(1785078891.365511) can0 18F01D21#A73A0E80FFFFFFFF
(1785078891.375859) can0 09F112F8#FFB7770000FF7FFD
(1785078891.377151) can0 0CF00400#FF7D7D000000FFFF
(1785078891.393542) can0 19F10D13#1A9C01A101000153
(1785078891.397081) can0 0CF00400#FF7D7D000000FFFF
(1785078891.404778) can0 09F11219#A3FEFFFF7FFF7FFC
(1785078891.417272) can0 0CF00400#FF7D7D000000FFFF
(1785078891.438734) can0 0CF00400#FF7D7D000000FFFF
(1785078891.457086) can0 0CF00400#FF7D7D000000FFFF
(1785078891.465807) can0 18F01D21#A73A0E80FFFFFFFF
(1785078891.477141) can0 0CF00400#FF7D7D000000FFFF
(1785078891.493193) can0 19F10D13#1B9D01A101000153
(1785078891.497320) can0 0CF00400#FF7D7D000000FFFF
(1785078891.504845) can0 09F11219#A4FEFFFF7FFF7FFC
(1785078891.517136) can0 0CF00400#FF7D7D000000FFFF
