(1784999956.258187) can0 18FF50E0#0000800080008001
(1784999956.359335) can0 18FF50E0#0000800080008002
(1784999956.460158) can0 18FF50E0#0000800080008003
(1784999956.560914) can0 18FF50E0#0000800080008004
(1784999956.661525) can0 18FF50E0#0000800080008005
(1784999956.762255) can0 18FF50E0#0000800080008006
(1784999956.863015) can0 18FF50E0#0000800080008007
(1784999956.963959) can0 18FF50E0#0000800080008008
(1784999957.064831) can0 18FF50E0#0000800080008009
(1784999957.165540) can0 18FF50E0#000080008000800A
(1784999957.266200) can0 18FF50E0#000080008000800B
(1784999957.367382) can0 18FF50E0#000080008000800C
(1784999957.468190) can0 18FF50E0#000080008000800D
(1784999957.569077) can0 18FF50E0#000080008000800E
(1784999957.670134) can0 18FF50E0#000080008000800F
(1784999957.770814) can0 18FF50E0#0000800080008010
(1784999957.871545) can0 18FF50E0#0000800080008011
(1784999957.972130) can0 18FF50E0#0000800080008012
(1784999958.072884) can0 18FF50E0#0000800080008013
(1784999958.173515) can0 18FF50E0#0000800080008014
(1784999958.274208) can0 18FF50E0#0000800080008015
(1784999958.375093) can0 18FF50E0#0000800080008016
(1784999958.475905) can0 18FF50E0#0000800080008017
(1784999958.576542) can0 18FF50E0#0000800080008018
(1784999958.677262) can0 18FF50E0#0000800080008019
(1784999958.777890) can0 18FF50E0#000080008000801A
(1784999958.878649) can0 18FF50E0#000080008000801B
(1784999958.979872) can0 18FF50E0#000080008000801C
(1784999959.080844) can0 18FF50E0#000080008000801D
(1784999959.181460) can0 18FF50E0#000080008000801E
(1784999959.282389) can0 18FF50E0#000080008000801F
(1784999959.383164) can0 18FF50E0#0000800080008020
(1784999959.483984) can0 18FF50E0#0000800080008021
(1784999959.584666) can0 18FF50E0#0000800080008022
(1784999959.685445) can0 18FF50E0#0000800080008023
(1784999959.786137) can0 18FF50E0#0000800080008024
(1784999959.886886) can0 18FF50E0#0000800080008025
(1784999959.987553) can0 18FF50E0#0000800080008026
(1784999960.088449) can0 18FF50E0#0000800080008027
(1784999960.189230) can0 18FF50E0#0000800080008028
(1784999960.290217) can0 18FF50E0#0000800080008029
(1784999960.391326) can0 18FF50E0#000080008000802A
(1784999960.492007) can0 18FF50E0#000080008000802B
(1784999960.593139) can0 18FF50E0#000080008000802C
(1784999960.693939) can0 18FF50E0#000080008000802D
(1784999960.794966) can0 18FF50E0#000080008000802E
(1784999960.896290) can0 18FF50E0#000080008000802F
(1784999960.997141) can0 18FF50E0#0000800080008030
(1784999961.097703) can0 18FF50E0#0000800080008031
(1784999961.198462) can0 18FF50E0#0000800080008032
(1784999961.299132) can0 18FF50E0#0000800080008033
(1784999961.400299) can0 18FF50E0#0000800080008034
(1784999961.501233) can0 18FF50E0#0000800080008035
(1784999961.602321) can0 18FF50E0#0000800080008036
(1784999961.703276) can0 18FF50E0#0000800080008037
(1784999961.804531) can0 18FF50E0#0000800080008038
(1784999961.906240) can0 18FF50E0#0000800080008039
(1784999962.007149) can0 18FF50E0#000080008000803A
(1784999962.107811) can0 18FF50E0#000080008000803B
(1784999962.208622) can0 18FF50E0#000080008000803C
(1784999962.309720) can0 18FF50E0#000080008000803D
(1784999962.410649) can0 18FF50E0#000080008000803E
(1784999962.511539) can0 18FF50E0#000080008000803F
(1784999962.612315) can0 18FF50E0#0000800080008040
(1784999962.713032) can0 18FF50E0#0000800080008041
(1784999962.813818) can0 18FF50E0#0000800080008042
(1784999962.914644) can0 18FF50E0#0000800080008043
(1784999963.015448) can0 18FF50E0#0000800080008044
(1784999963.116254) can0 18FF50E0#0000800080008045
(1784999963.216929) can0 18FF50E0#0000800080008046
(1784999963.317927) can0 18FF50E0#0000800080008047
(1784999963.418690) can0 18FF50E0#0000800080008048
(1784999963.519706) can0 18FF50E0#0000800080008049
(1784999963.620794) can0 18FF50E0#000080008000804A
(1784999963.721607) can0 18FF50E0#000080008000804B
(1784999963.822341) can0 18FF50E0#000080008000804C
(1784999963.923184) can0 18FF50E0#000080008000804D
(1784999964.023788) can0 18FF50E0#000080008000804E
(1784999964.124629) can0 18FF50E0#000080008000804F
(1784999964.225743) can0 18FF50E0#0000800080008050
(1784999964.326448) can0 18FF50E0#0000800080008051
(1784999964.427416) can0 18FF50E0#0000800080008052
(1784999964.528175) can0 18FF50E0#0000800080008053
(1784999964.629773) can0 18FF50E0#0000800080008054
(1784999964.730918) can0 18FF50E0#0000800080008055
(1784999964.831597) can0 18FF50E0#0000800080008056
(1784999964.932284) can0 18FF50E0#0000800080008057
(1784999965.033098) can0 18FF50E0#0000800080008058
(1784999965.133859) can0 18FF50E0#0000800080008059
(1784999965.234801) can0 18FF50E0#000080008000805A
(1784999965.335643) can0 18FF50E0#000080008000805B
(1784999965.436654) can0 18FF50E0#000080008000805C
(1784999965.537932) can0 18FF50E0#000080008000805D
(1784999965.638762) can0 18FF50E0#000080008000805E
(1784999965.740205) can0 18FF50E0#000080008000805F
(1784999965.841007) can0 18FF50E0#0000800080008060
(1784999965.941688) can0 18FF50E0#0000800080008061
(1784999966.042722) can0 18FF50E0#0000800080008062
(1784999966.143707) can0 18FF50E0#0000800080008063
(1784999966.244680) can0 18FF50E0#0000800080008064
(1784999966.345609) can0 18FF50E0#0000800080008065
(1784999966.446819) can0 18FF50E0#0000800080008066
(1784999966.547671) can0 18FF50E0#0000800080008067
(1784999966.649190) can0 18FF50E0#0000800080008068
(1784999966.751435) can0 18FF50E0#0000800080008069
(1784999966.852289) can0 18FF50E0#000080008000806A
(1784999966.953195) can0 18FF50E0#000080008000806B
(1784999967.053809) can0 18FF50E0#000080008000806C
(1784999967.154649) can0 18FF50E0#000080008000806D
(1784999967.255359) can0 18FF50E0#000080008000806E
(1784999967.356145) can0 18FF50E0#000080008000806F
(1784999967.457095) can0 18FF50E0#0000800080008070
(1784999967.557938) can0 18FF50E0#0000800080008071
(1784999967.658891) can0 18FF50E0#0000800080008072
(1784999967.759872) can0 18FF50E0#0000800080008073
(1784999967.860736) can0 18FF50E0#0000800080008074
(1784999967.961473) can0 18FF50E0#0000800080008075
(1784999968.062183) can0 18FF50E0#0000800080008076
(1784999968.163341) can0 18FF50E0#0000800080008077
(1784999968.264232) can0 18FF50E0#0000800080008078
(1784999968.365180) can0 18FF50E0#0000800080008079
(1784999968.465897) can0 18FF50E0#000080008000807A
(1784999968.567791) can0 18FF50E0#000080008000807B
(1784999968.668707) can0 18FF50E0#000080008000807C
(1784999968.769657) can0 18FF50E0#000080008000807D
(1784999968.870946) can0 18FF50E0#000080008000807E
(1784999968.971905) can0 18FF50E0#000080008000807F
(1784999969.072713) can0 18FF50E0#0000800080008080
(1784999969.173750) can0 18FF50E0#0000800080008081
(1784999969.274540) can0 18FF50E0#0000800080008082
(1784999969.375235) can0 18FF50E0#0000800080008083
(1784999969.476986) can0 18FF50E0#0000800080008084
(1784999969.577749) can0 18FF50E0#0000800080008085
(1784999969.678562) can0 18FF50E0#0000800080008086
(1784999969.779269) can0 18FF50E0#0000800080008087
(1784999969.880140) can0 18FF50E0#0000800080008088
(1784999969.980746) can0 18FF50E0#0000800080008089
(1784999970.081532) can0 18FF50E0#000080008000808A
(1784999970.182215) can0 18FF50E0#000080008000808B
(1784999970.283098) can0 18FF50E0#000080008000808C
(1784999970.383864) can0 18FF50E0#000080008000808D
(1784999970.485555) can0 18FF50E0#000080008000808E
(1784999970.586508) can0 18FF50E0#000080008000808F
(1784999970.687230) can0 18FF50E0#0000800080008090
(1784999970.788472) can0 18FF50E0#0000800080008091
(1784999970.889661) can0 18FF50E0#0000800080008092
(1784999970.990599) can0 18FF50E0#0000800080008093
(1784999971.091680) can0 18FF50E0#0000800080008094
(1784999971.192640) can0 18FF50E0#0000800080008095
(1784999971.293338) can0 18FF50E0#0000800080008096
(1784999971.394260) can0 18FF50E0#0000800080008097
(1784999971.494870) can0 18FF50E0#0000800080008098
(1784999971.595710) can0 18FF50E0#0000800080008099
(1784999971.696451) can0 18FF50E0#000080008000809A
(1784999971.797259) can0 18FF50E0#000080008000809B
(1784999971.897962) can0 18FF50E0#000080008000809C
(1784999971.998840) can0 18FF50E0#000080008000809D
(1784999972.099812) can0 18FF50E0#000080008000809E
(1784999972.200671) can0 18FF50E0#000080008000809F
(1784999972.301702) can0 18FF50E0#00008000800080A0
(1784999972.402488) can0 18FF50E0#00008000800080A1
(1784999972.503200) can0 18FF50E0#00008000800080A2
(1784999972.604138) can0 18FF50E0#00008000800080A3
(1784999972.704887) can0 18FF50E0#00008000800080A4
(1784999972.805846) can0 18FF50E0#00008000800080A5
(1784999972.906856) can0 18FF50E0#00008000800080A6
(1784999973.008830) can0 18FF50E0#00008000800080A7
(1784999973.109684) can0 18FF50E0#00008000800080A8
(1784999973.210516) can0 18FF50E0#00008000800080A9
(1784999973.311450) can0 18FF50E0#00008000800080AA
(1784999973.412099) can0 18FF50E0#00008000800080AB
(1784999973.513137) can0 18FF50E0#00008000800080AC
(1784999973.613855) can0 18FF50E0#00008000800080AD
(1784999973.714899) can0 18FF50E0#00008000800080AE
(1784999973.815912) can0 18FF50E0#00008000800080AF
(1784999973.916771) can0 18FF50E0#00008000800080B0
(1784999974.017572) can0 18FF50E0#00008000800080B1
(1784999974.118257) can0 18FF50E0#00008000800080B2
(1784999974.219124) can0 18FF50E0#00008000800080B3
(1784999974.319852) can0 18FF50E0#00008000800080B4
(1784999974.420634) can0 18FF50E0#00008000800080B5
(1784999974.521716) can0 18FF50E0#00008000800080B6
(1784999974.622565) can0 18FF50E0#00008000800080B7
(1784999974.723480) can0 18FF50E0#00008000800080B8
(1784999974.824327) can0 18FF50E0#00008000800080B9
(1784999974.925265) can0 18FF50E0#00008000800080BA
(1784999975.025895) can0 18FF50E0#00008000800080BB
(1784999975.126767) can0 18FF50E0#00008000800080BC
(1784999975.227547) can0 18FF50E0#00008000800080BD
(1784999975.329140) can0 18FF50E0#00008000800080BE
