(1785076341.305207) can0 09F11219#0DFEFFFF7FFF7FFC
(1785076341.327489) can0 09F112F8#FF1A760000FF7FFD
(1785076341.384429) can0 18F01D21#6C141580FFFFFFFF
(1785076341.391862) can0 18FF50E0#0000800080008001
(1785076341.405930) can0 09F11219#0EFEFFFF7FFF7FFC
(1785076341.469183) can0 09F112F8#FF1B760000FF7FFD
(1785076341.484661) can0 18F01D21#6C141580FFFFFFFF
(1785076341.492599) can0 18FF50E0#0000800080008002
(1785076341.505136) can0 09F11219#0FFEFFFF7FFF7FFC
(1785076341.584067) can0 18F01D21#C4141580FFFFFFFF
(1785076341.593310) can0 18FF50E0#00008006C6008003
(1785076341.605407) can0 09F11219#10FEFFFF7FFF7FFC
(1785076341.609604) can0 09F112F8#FF1A760000FF7FFD
(1785076341.684454) can0 18F01D21#C4141580FFFFFFFF
(1785076341.694469) can0 18FF50E0#000F870080008004
(1785076341.705267) can0 09F11219#11FEFFFF7FFF7FFC
(1785076341.750073) can0 09F112F8#FF19760000FF7FFD
(1785076341.784757) can0 18F01D21#6C141580FFFFFFFF
(1785076341.795228) can0 18FF50E0#000F870080008005
(1785076341.805184) can0 09F11219#12FEFFFF7FFF7FFC
(1785076341.884261) can0 18F01D21#6C141580FFFFFFFF
(1785076341.887853) can0 09F112F8#FF17760000FF7FFD
(1785076341.895993) can0 18FF50E0#000F870180008006
(1785076341.905931) can0 09F11219#13FEFFFF7FFF7FFC
(1785076341.984573) can0 18F01D21#6C141580FFFFFFFF
(1785076341.997347) can0 18FF50E0#000F870080008007
(1785076342.005194) can0 09F11219#14FEFFFF7FFF7FFC
(1785076342.027710) can0 09F112F8#FF1A760000FF7FFD
(1785076342.084931) can0 18F01D21#6C141580FFFFFFFF
(1785076342.097998) can0 18FF50E0#000F87FF7F008008
(1785076342.105186) can0 09F11219#15FEFFFF7FFF7FFC
(1785076342.163357) can0 09F112F8#FF1C760000FF7FFD
(1785076342.184239) can0 18F01D21#C4141580FFFFFFFF
(1785076342.199210) can0 18FF50E0#000F870080008009
(1785076342.205245) can0 09F11219#16FEFFFF7FFF7FFC
(1785076342.284448) can0 18F01D21#C4141580FFFFFFFF
(1785076342.300051) can0 18FF50E0#000F87008000800A
(1785076342.303093) can0 09F112F8#FF1A760000FF7FFD
(1785076342.305242) can0 09F11219#17FEFFFF7FFF7FFC
(1785076342.384849) can0 18F01D21#6C141580FFFFFFFF
(1785076342.401236) can0 18FF50E0#000F87FF7F00800B
(1785076342.406085) can0 09F11219#18FEFFFF7FFF7FFC
(1785076342.446555) can0 09F112F8#FF1A760000FF7FFD
(1785076342.484419) can0 18F01D21#C4141580FFFFFFFF
(1785076342.503786) can0 18FF50E0#000F87008000800C
(1785076342.505375) can0 09F11219#19FEFFFF7FFF7FFC
(1785076342.584824) can0 18F01D21#6C141580FFFFFFFF
(1785076342.587483) can0 09F112F8#FF1A760000FF7FFD
(1785076342.604901) can0 18FF50E0#000F87FF7F00800D
(1785076342.605337) can0 09F11219#1AFEFFFF7FFF7FFC
(1785076342.684898) can0 18F01D21#6C141580FFFFFFFF
(1785076342.705395) can0 09F11219#1BFEFFFF7FFF7FFC
(1785076342.706566) can0 18FF50E0#000F87008000800E
(1785076342.723299) can0 09F112F8#FF1A760000FF7FFD
(1785076342.784318) can0 18F01D21#6C141580FFFFFFFF
(1785076342.805461) can0 09F11219#1CFEFFFF7FFF7FFC
(1785076342.807375) can0 18FF50E0#000F87008000800F
(1785076342.867450) can0 09F112F8#FF1B760000FF7FFD
(1785076342.884599) can0 18F01D21#6C141580FFFFFFFF
(1785076342.906163) can0 09F11219#1DFEFFFF7FFF7FFC
(1785076342.908194) can0 18FF50E0#000F870080008010
(1785076342.985122) can0 18F01D21#6C141580FFFFFFFF
(1785076343.003102) can0 09F112F8#FF1D760000FF7FFD
(1785076343.005357) can0 09F11219#1EFEFFFF7FFF7FFC
(1785076343.009013) can0 18FF50E0#000F870080008011
(1785076343.084463) can0 18F01D21#6C141580FFFFFFFF
(1785076343.105292) can0 09F11219#1FFEFFFF7FFF7FFC
(1785076343.109853) can0 18FF50E0#000F87FF7F008012
(1785076343.140249) can0 09F112F8#FF1C760000FF7FFD
(1785076343.184761) can0 18F01D21#6C141580FFFFFFFF
(1785076343.205284) can0 09F11219#20FEFFFF7FFF7FFC
(1785076343.210887) can0 18FF50E0#000F870080008013
(1785076343.277447) can0 09F112F8#FF18760000FF7FFD
(1785076343.283985) can0 18F01D21#C4141580FFFFFFFF
(1785076343.305363) can0 09F11219#21FEFFFF7FFF7FFC
(1785076343.311861) can0 18FF50E0#000F870080008014
(1785076343.384361) can0 18F01D21#6C141580FFFFFFFF
(1785076343.405963) can0 09F11219#22FEFFFF7FFF7FFC
(1785076343.413403) can0 18FF50E0#000F870080008015
(1785076343.420221) can0 09F112F8#FF14760000FF7FFD
(1785076343.484716) can0 18F01D21#C4141580FFFFFFFF
(1785076343.505358) can0 09F11219#23FEFFFF7FFF7FFC
(1785076343.514403) can0 18FF50E0#000F870080008016
(1785076343.557888) can0 09F112F8#FF14760000FF7FFD
(1785076343.584130) can0 18F01D21#6C141580FFFFFFFF
(1785076343.605418) can0 09F11219#24FEFFFF7FFF7FFC
(1785076343.614968) can0 18FF50E0#000F870180008017
(1785076343.684550) can0 18F01D21#C4141580FFFFFFFF
(1785076343.697748) can0 09F112F8#FF13760000FF7FFD
(1785076343.705329) can0 09F11219#25FEFFFF7FFF7FFC
(1785076343.715599) can0 18FF50E0#000F870080008018
(1785076343.785117) can0 18F01D21#6C141580FFFFFFFF
(1785076343.805332) can0 09F11219#26FEFFFF7FFF7FFC
(1785076343.816432) can0 18FF50E0#000F870080008019
(1785076343.840334) can0 09F112F8#FF11760000FF7FFD
(1785076343.884135) can0 18F01D21#6C141580FFFFFFFF
(1785076343.905999) can0 09F11219#27FEFFFF7FFF7FFC
(1785076343.917390) can0 18FF50E0#000F87018000801A
(1785076343.976887) can0 09F112F8#FF0C760000FF7FFD
(1785076343.984543) can0 18F01D21#6C141580FFFFFFFF
(1785076344.005254) can0 09F11219#28FEFFFF7FFF7FFC
(1785076344.018218) can0 18FF50E0#000E87008000801B
(1785076344.084970) can0 18F01D21#C4141580FFFFFFFF
(1785076344.105262) can0 09F11219#29FEFFFF7FFF7FFC
(1785076344.117607) can0 09F112F8#FF07760000FF7FFD
(1785076344.119374) can0 18FF50E0#000E87028000801C
(1785076344.184333) can0 18F01D21#6C141580FFFFFFFF
(1785076344.205318) can0 09F11219#2AFEFFFF7FFF7FFC
(1785076344.219943) can0 18FF50E0#000E87008000801D
(1785076344.254384) can0 09F112F8#FF03760000FF7FFD
(1785076344.284695) can0 18F01D21#C4141580FFFFFFFF
(1785076344.305319) can0 09F11219#2BFEFFFF7FFF7FFC
(1785076344.320777) can0 18FF50E0#000E87008000801E
(1785076344.385233) can0 18F01D21#6C141580FFFFFFFF
(1785076344.393421) can0 09F112F8#FFFD750000FF7FFD
(1785076344.406099) can0 09F11219#2CFEFFFF7FFF7FFC
(1785076344.421665) can0 18FF50E0#000E87048000801F
(1785076344.484395) can0 18F01D21#6C141580FFFFFFFF
(1785076344.505368) can0 09F11219#2DFEFFFF7FFF7FFC
(1785076344.522803) can0 18FF50E0#000E870080008020
(1785076344.531278) can0 09F112F8#FFFB750000FF7FFD
(1785076344.584658) can0 18F01D21#6C141580FFFFFFFF
(1785076344.605333) can0 09F11219#2EFEFFFF7FFF7FFC
(1785076344.623675) can0 18FF50E0#000E870480008021
(1785076344.671445) can0 09F112F8#FFF6750000FF7FFD
(1785076344.685013) can0 18F01D21#C4141580FFFFFFFF
(1785076344.705470) can0 09F11219#2FFEFFFF7FFF7FFC
(1785076344.724566) can0 18FF50E0#000D870080008022
(1785076344.784350) can0 18F01D21#6C141580FFFFFFFF
(1785076344.805333) can0 09F11219#30FEFFFF7FFF7FFC
(1785076344.807559) can0 09F112F8#FFF3750000FF7FFD
(1785076344.826477) can0 18FF50E0#000D870080008023
(1785076344.884898) can0 18F01D21#6C141580FFFFFFFF
(1785076344.906202) can0 09F11219#31FEFFFF7FFF7FFC
(1785076344.927179) can0 18FF50E0#000D870480008024
(1785076344.950599) can0 09F112F8#FFF3750000FF7FFD
(1785076344.985130) can0 18F01D21#6C141580FFFFFFFF
(1785076345.005332) can0 09F11219#32FEFFFF7FFF7FFC
(1785076345.028390) can0 18FF50E0#000D870080008025
(1785076345.084509) can0 18F01D21#6C141580FFFFFFFF
(1785076345.087731) can0 09F112F8#FFF2750000FF7FFD
(1785076345.105325) can0 09F11219#33FEFFFF7FFF7FFC
(1785076345.129574) can0 18FF50E0#000D870380008026
(1785076345.184728) can0 18F01D21#6C141580FFFFFFFF
(1785076345.205511) can0 09F11219#34FEFFFF7FFF7FFC
(1785076345.224115) can0 09F112F8#FFF1750000FF7FFD
(1785076345.230398) can0 18FF50E0#000D870080008027
(1785076345.285218) can0 18F01D21#6C141580FFFFFFFF
(1785076345.305512) can0 09F11219#35FEFFFF7FFF7FFC
(1785076345.331406) can0 18FF50E0#000D870080008028
(1785076345.366634) can0 09F112F8#FFF4750000FF7FFD
(1785076345.384529) can0 18F01D21#6C141580FFFFFFFF
(1785076345.406028) can0 09F11219#36FEFFFF7FFF7FFC
(1785076345.432266) can0 18FF50E0#000D870180008029
(1785076345.484971) can0 18F01D21#6C141580FFFFFFFF
(1785076345.503199) can0 09F112F8#FFF7750000FF7FFD
(1785076345.505455) can0 09F11219#37FEFFFF7FFF7FFC
(1785076345.533422) can0 18FF50E0#000C87008000802A
(1785076345.585284) can0 18F01D21#6C141580FFFFFFFF
(1785076345.605424) can0 09F11219#38FEFFFF7FFF7FFC
(1785076345.634280) can0 18FF50E0#000C87FF7F00802B
(1785076345.642140) can0 09F112F8#FFF8750000FF7FFD
(1785076345.684460) can0 18F01D21#6C141580FFFFFFFF
(1785076345.705441) can0 09F11219#39FEFFFF7FFF7FFC
(1785076345.735409) can0 18FF50E0#000C87008000802C
(1785076345.781141) can0 09F112F8#FFF9750000FF7FFD
(1785076345.784889) can0 18F01D21#C4141580FFFFFFFF
(1785076345.805477) can0 09F11219#3AFEFFFF7FFF7FFC
(1785076345.836142) can0 18FF50E0#000C87008000802D
(1785076345.885211) can0 18F01D21#6C141580FFFFFFFF
(1785076345.906066) can0 09F11219#3BFEFFFF7FFF7FFC
(1785076345.918180) can0 09F112F8#FFFD750000FF7FFD
(1785076345.937104) can0 18FF50E0#000C87FE7F00802E
(1785076345.984738) can0 18F01D21#C4141580FFFFFFFF
(1785076346.005599) can0 09F11219#3CFEFFFF7FFF7FFC
(1785076346.037934) can0 18FF50E0#000D87008000802F
(1785076346.059191) can0 09F112F8#FF02760000FF7FFD
(1785076346.085006) can0 18F01D21#C4141580FFFFFFFF
(1785076346.105483) can0 09F11219#3DFEFFFF7FFF7FFC
(1785076346.138553) can0 18FF50E0#000D87FC7F008030
(1785076346.185464) can0 18F01D21#6C141580FFFFFFFF
(1785076346.200142) can0 09F112F8#FF04760000FF7FFD
(1785076346.205424) can0 09F11219#3EFEFFFF7FFF7FFC
(1785076346.239138) can0 18FF50E0#000D870080008031
(1785076346.284727) can0 18F01D21#6C141580FFFFFFFF
(1785076346.305490) can0 09F11219#3FFEFFFF7FFF7FFC
(1785076346.333343) can0 09F112F8#FF05760000FF7FFD
(1785076346.340627) can0 18FF50E0#000D870080008032
(1785076346.384946) can0 18F01D21#6C141580FFFFFFFF
(1785076346.406156) can0 09F11219#40FEFFFF7FFF7FFC
(1785076346.441997) can0 18FF50E0#000D87FC7F008033
(1785076346.472161) can0 09F112F8#FF04760000FF7FFD
(1785076346.484609) can0 18F01D21#6C141580FFFFFFFF
(1785076346.505678) can0 09F11219#41FEFFFF7FFF7FFC
(1785076346.543435) can0 18FF50E0#000D870080008034
(1785076346.584983) can0 18F01D21#C4141580FFFFFFFF
(1785076346.605603) can0 09F11219#42FEFFFF7FFF7FFC
(1785076346.607569) can0 09F112F8#FF03760000FF7FFD
(1785076346.644368) can0 18FF50E0#000D87FE7F008035
(1785076346.685179) can0 18F01D21#6C141580FFFFFFFF
(1785076346.705607) can0 09F11219#43FEFFFF7FFF7FFC
(1785076346.745067) can0 18FF50E0#000D870080008036
(1785076346.750163) can0 09F112F8#FF04760000FF7FFD
(1785076346.784651) can0 18F01D21#6C141580FFFFFFFF
(1785076346.805485) can0 09F11219#44FEFFFF7FFF7FFC
(1785076346.845847) can0 18FF50E0#000D870080008037
(1785076346.884823) can0 18F01D21#6C141580FFFFFFFF
(1785076346.889572) can0 09F112F8#FF07760000FF7FFD
(1785076346.906218) can0 09F11219#45FEFFFF7FFF7FFC
(1785076346.946526) can0 18FF50E0#000D87FF7F008038
(1785076346.985170) can0 18F01D21#6C141580FFFFFFFF
(1785076347.005449) can0 09F11219#46FEFFFF7FFF7FFC
(1785076347.027902) can0 09F112F8#FF0A760000FF7FFD
(1785076347.047324) can0 18FF50E0#000D870080008039
(1785076347.085025) can0 18F01D21#6C141580FFFFFFFF
(1785076347.105653) can0 09F11219#47FEFFFF7FFF7FFC
(1785076347.148515) can0 18FF50E0#000D87FE7F00803A
(1785076347.171197) can0 09F112F8#FF0C760000FF7FFD
(1785076347.184815) can0 18F01D21#6C141580FFFFFFFF
(1785076347.205657) can0 09F11219#48FEFFFF7FFF7FFC
(1785076347.249189) can0 18FF50E0#000E87008000803B
(1785076347.285312) can0 18F01D21#6C141580FFFFFFFF
(1785076347.305553) can0 09F11219#49FEFFFF7FFF7FFC
(1785076347.306940) can0 09F112F8#FF0D760000FF7FFD
(1785076347.350699) can0 18FF50E0#000E87008000803C
(1785076347.384567) can0 18F01D21#C4141580FFFFFFFF
(1785076347.406331) can0 09F11219#4AFEFFFF7FFF7FFC
(1785076347.447726) can0 09F112F8#FF0F760000FF7FFD
(1785076347.451401) can0 18FF50E0#000E87FD7F00803D
(1785076347.485006) can0 18F01D21#6C141580FFFFFFFF
(1785076347.505455) can0 09F11219#4BFEFFFF7FFF7FFC
(1785076347.552547) can0 18FF50E0#000E87008000803E
(1785076347.585299) can0 18F01D21#C4141580FFFFFFFF
(1785076347.586907) can0 09F112F8#FF10760000FF7FFD
(1785076347.605461) can0 09F11219#4CFEFFFF7FFF7FFC
(1785076347.653559) can0 18FF50E0#000E87FE7F00803F
(1785076347.684649) can0 18F01D21#6C141580FFFFFFFF
(1785076347.705493) can0 09F11219#4DFEFFFF7FFF7FFC
(1785076347.724353) can0 09F112F8#FF13760000FF7FFD
(1785076347.754140) can0 18FF50E0#000E870080008040
(1785076347.785093) can0 18F01D21#C4141580FFFFFFFF
(1785076347.805462) can0 09F11219#4EFEFFFF7FFF7FFC
(1785076347.854884) can0 18FF50E0#000E870080008041
(1785076347.866685) can0 09F112F8#FF14760000FF7FFD
(1785076347.885336) can0 18F01D21#C4141580FFFFFFFF
(1785076347.906101) can0 09F11219#4FFEFFFF7FFF7FFC
(1785076347.955966) can0 18FF50E0#000E87FD7F008042
(1785076347.984890) can0 18F01D21#6C141580FFFFFFFF
(1785076348.003427) can0 09F112F8#FF19760000FF7FFD
(1785076348.005479) can0 09F11219#50FEFFFF7FFF7FFC
(1785076348.057942) can0 18FF50E0#000E870080008043
(1785076348.085489) can0 18F01D21#C4141580FFFFFFFF
(1785076348.105464) can0 09F11219#51FEFFFF7FFF7FFC
(1785076348.139652) can0 09F112F8#FF1C760000FF7FFD
(1785076348.158495) can0 18FF50E0#000E87FD7F008044
(1785076348.185469) can0 18F01D21#C4141580FFFFFFFF
(1785076348.205547) can0 09F11219#52FEFFFF7FFF7FFC
(1785076348.259126) can0 18FF50E0#000E870080008045
(1785076348.282193) can0 09F112F8#FF1E760000FF7FFD
(1785076348.284821) can0 18F01D21#6C141580FFFFFFFF
(1785076348.305506) can0 09F11219#53FEFFFF7FFF7FFC
(1785076348.359964) can0 18FF50E0#000E870080008046
(1785076348.385120) can0 18F01D21#6C141580FFFFFFFF
(1785076348.406181) can0 09F11219#54FEFFFF7FFF7FFC
(1785076348.420437) can0 09F112F8#FF1F760000FF7FFD
(1785076348.460567) can0 18FF50E0#000E87FD7F008047
(1785076348.485540) can0 18F01D21#6C141580FFFFFFFF
(1785076348.505472) can0 09F11219#55FEFFFF7FFF7FFC
(1785076348.557659) can0 09F112F8#FF22760000FF7FFD
(1785076348.561508) can0 18FF50E0#000F870080008048
(1785076348.585034) can0 18F01D21#6C141580FFFFFFFF
(1785076348.605505) can0 09F11219#56FEFFFF7FFF7FFC
(1785076348.662069) can0 18FF50E0#000F87FD7F008049
(1785076348.685234) can0 18F01D21#6C141580FFFFFFFF
(1785076348.700233) can0 09F112F8#FF25760000FF7FFD
(1785076348.705473) can0 09F11219#57FEFFFF7FFF7FFC
(1785076348.762900) can0 18FF50E0#000F87008000804A
(1785076348.785485) can0 18F01D21#C4141580FFFFFFFF
(1785076348.805541) can0 09F11219#58FEFFFF7FFF7FFC
(1785076348.836995) can0 09F112F8#FF2C760000FF7FFD
(1785076348.867489) can0 18FF50E0#000F87008000804B
(1785076348.884887) can0 18F01D21#6C141580FFFFFFFF
(1785076348.906271) can0 09F11219#59FEFFFF7FFF7FFC
(1785076348.971481) can0 18FF50E0#000F87FC7F00804C
(1785076348.974206) can0 09F112F8#FF34760000FF7FFD
(1785076348.985189) can0 18F01D21#C4141580FFFFFFFF
(1785076349.005515) can0 09F11219#5AFEFFFF7FFF7FFC
(1785076349.073575) can0 18FF50E0#000F87008000804D
(1785076349.085778) can0 18F01D21#6C141580FFFFFFFF
(1785076349.105516) can0 09F11219#5BFEFFFF7FFF7FFC
(1785076349.111564) can0 09F112F8#FF36760000FF7FFD
(1785076349.174082) can0 18FF50E0#000F87FA7F00804E
(1785076349.184992) can0 18F01D21#6C141580FFFFFFFF
(1785076349.205552) can0 09F11219#5CFEFFFF7FFF7FFC
(1785076349.251417) can0 09F112F8#FF39760000FF7FFD
(1785076349.275569) can0 18FF50E0#001087008000804F
(1785076349.285313) can0 18F01D21#C4141580FFFFFFFF
(1785076349.305598) can0 09F11219#5DFEFFFF7FFF7FFC
(1785076349.376330) can0 18FF50E0#0010870080008050
(1785076349.385764) can0 18F01D21#6C141580FFFFFFFF
(1785076349.389649) can0 09F112F8#FF38760000FF7FFD
(1785076349.406342) can0 09F11219#5EFEFFFF7FFF7FFC
(1785076349.478943) can0 18FF50E0#001087FC7F008051
(1785076349.485064) can0 18F01D21#6C141580FFFFFFFF
(1785076349.505682) can0 09F11219#5FFEFFFF7FFF7FFC
(1785076349.530406) can0 09F112F8#FF36760000FF7FFD
(1785076349.580536) can0 18FF50E0#0010870080008052
(1785076349.585490) can0 18F01D21#C4141580FFFFFFFF
(1785076349.605679) can0 09F11219#60FEFFFF7FFF7FFC
(1785076349.667192) can0 09F112F8#FF35760000FF7FFD
(1785076349.681887) can0 18FF50E0#001087FF7F008053
(1785076349.684818) can0 18F01D21#6C141580FFFFFFFF
(1785076349.705562) can0 09F11219#61FEFFFF7FFF7FFC
(1785076349.783599) can0 18FF50E0#0010870080008054
(1785076349.785176) can0 18F01D21#C4141580FFFFFFFF
(1785076349.804273) can0 09F112F8#FF36760000FF7FFD
(1785076349.805572) can0 09F11219#62FEFFFF7FFF7FFC
(1785076349.884500) can0 18FF50E0#0010870080008055
(1785076349.885438) can0 18F01D21#6C141580FFFFFFFF
(1785076349.906173) can0 09F11219#63FEFFFF7FFF7FFC
(1785076349.940638) can0 09F112F8#FF38760000FF7FFD
(1785076349.984813) can0 18F01D21#6C141580FFFFFFFF
(1785076349.985289) can0 18FF50E0#001087FF7F008056
(1785076350.005583) can0 09F11219#64FEFFFF7FFF7FFC
(1785076350.081707) can0 09F112F8#FF3C760000FF7FFD
(1785076350.085090) can0 18F01D21#6C141580FFFFFFFF
(1785076350.086554) can0 18FF50E0#0010870080008057
(1785076350.105522) can0 09F11219#65FEFFFF7FFF7FFC
(1785076350.185440) can0 18F01D21#6C141580FFFFFFFF
(1785076350.187189) can0 18FF50E0#001087FE7F008058
(1785076350.205527) can0 09F11219#66FEFFFF7FFF7FFC
(1785076350.219652) can0 09F112F8#FF41760000FF7FFD
(1785076350.284777) can0 18F01D21#C4141580FFFFFFFF
(1785076350.287607) can0 18FF50E0#0011870080008059
(1785076350.305488) can0 09F11219#67FEFFFF7FFF7FFC
(1785076350.357920) can0 09F112F8#FF42760000FF7FFD
(1785076350.385229) can0 18F01D21#6C141580FFFFFFFF
(1785076350.388564) can0 18FF50E0#001187008000805A
(1785076350.406238) can0 09F11219#68FEFFFF7FFF7FFC
(1785076350.485725) can0 18F01D21#6C141580FFFFFFFF
(1785076350.489408) can0 18FF50E0#001187FD7F00805B
(1785076350.498313) can0 09F112F8#FF43760000FF7FFD
(1785076350.505522) can0 09F11219#69FEFFFF7FFF7FFC
(1785076350.585090) can0 18F01D21#6C141580FFFFFFFF
(1785076350.590127) can0 18FF50E0#001187008000805C
(1785076350.605521) can0 09F11219#6AFEFFFF7FFF7FFC
(1785076350.630388) can0 09F112F8#FF40760000FF7FFD
(1785076350.685255) can0 18F01D21#6C141580FFFFFFFF
(1785076350.690848) can0 18FF50E0#001187FE7F00805D
(1785076350.705572) can0 09F11219#6BFEFFFF7FFF7FFC
(1785076350.769280) can0 09F112F8#FF40760000FF7FFD
(1785076350.785679) can0 18F01D21#C4141580FFFFFFFF
(1785076350.791416) can0 18FF50E0#001187008000805E
(1785076350.805580) can0 09F11219#6CFEFFFF7FFF7FFC
(1785076350.884976) can0 18F01D21#6C141580FFFFFFFF
(1785076350.892019) can0 18FF50E0#001187008000805F
(1785076350.903895) can0 09F112F8#FF42760000FF7FFD
(1785076350.906353) can0 09F11219#6DFEFFFF7FFF7FFC
(1785076350.985337) can0 18F01D21#6C141580FFFFFFFF
(1785076350.993239) can0 18FF50E0#001187FF7F008060
(1785076351.005592) can0 09F11219#6EFEFFFF7FFF7FFC
(1785076351.046836) can0 09F112F8#FF3F760000FF7FFD
(1785076351.085712) can0 18F01D21#C4141580FFFFFFFF
(1785076351.093853) can0 18FF50E0#0011870080008061
(1785076351.105587) can0 09F11219#6FFEFFFF7FFF7FFC
(1785076351.185184) can0 18F01D21#C4141580FFFFFFFF
(1785076351.186965) can0 09F112F8#FF42760000FF7FFD
(1785076351.194640) can0 18FF50E0#0011870080008062
(1785076351.205611) can0 09F11219#70FEFFFF7FFF7FFC
(1785076351.285308) can0 18F01D21#6C141580FFFFFFFF
(1785076351.295371) can0 18FF50E0#0011870080008063
(1785076351.305629) can0 09F11219#71FEFFFF7FFF7FFC
(1785076351.320658) can0 09F112F8#FF40760000FF7FFD
(1785076351.385783) can0 18F01D21#6C141580FFFFFFFF
(1785076351.396101) can0 18FF50E0#0011870080008064
(1785076351.406391) can0 09F11219#72FEFFFF7FFF7FFC
(1785076351.460468) can0 09F112F8#FF40760000FF7FFD
(1785076351.485127) can0 18F01D21#C4141580FFFFFFFF
(1785076351.497522) can0 18FF50E0#0011870080008065
(1785076351.505566) can0 09F11219#73FEFFFF7FFF7FFC
(1785076351.585469) can0 18F01D21#6C141580FFFFFFFF
(1785076351.597931) can0 09F112F8#FF40760000FF7FFD
(1785076351.602308) can0 18FF50E0#0011870080008066
(1785076351.605525) can0 09F11219#74FEFFFF7FFF7FFC
(1785076351.685853) can0 18F01D21#6C141580FFFFFFFF
(1785076351.702718) can0 18FF50E0#0011870080008067
(1785076351.705515) can0 09F11219#75FEFFFF7FFF7FFC
(1785076351.730706) can0 09F112F8#FF3F760000FF7FFD
(1785076351.785225) can0 18F01D21#6C141580FFFFFFFF
(1785076351.803182) can0 18FF50E0#0011870080008068
(1785076351.805544) can0 09F11219#76FEFFFF7FFF7FFC
(1785076351.871305) can0 09F112F8#FF3D760000FF7FFD
(1785076351.885550) can0 18F01D21#6C141580FFFFFFFF
(1785076351.904033) can0 18FF50E0#0011870080008069
(1785076351.906283) can0 09F11219#77FEFFFF7FFF7FFC
(1785076351.985808) can0 18F01D21#6C141580FFFFFFFF
(1785076352.005325) can0 18FF50E0#001187008000806A
(1785076352.005563) can0 09F11219#78FEFFFF7FFF7FFC
(1785076352.008164) can0 09F112F8#FF39760000FF7FFD
(1785076352.085259) can0 18F01D21#6C141580FFFFFFFF
(1785076352.105612) can0 09F11219#79FEFFFF7FFF7FFC
(1785076352.106565) can0 18FF50E0#001187008000806B
(1785076352.147736) can0 09F112F8#FF33760000FF7FFD
(1785076352.185766) can0 18F01D21#6C141580FFFFFFFF
(1785076352.205683) can0 09F11219#7AFEFFFF7FFF7FFC
(1785076352.207764) can0 18FF50E0#001187038000806C
(1785076352.286191) can0 18F01D21#6C141580FFFFFFFF
(1785076352.287697) can0 09F112F8#FF32760000FF7FFD
(1785076352.305625) can0 09F11219#7BFEFFFF7FFF7FFC
(1785076352.308400) can0 18FF50E0#001187008000806D
(1785076352.385247) can0 18F01D21#6C141580FFFFFFFF
(1785076352.406302) can0 09F11219#7CFEFFFF7FFF7FFC
(1785076352.408920) can0 18FF50E0#001187008000806E
(1785076352.426899) can0 09F112F8#FF2F760000FF7FFD
(1785076352.485693) can0 18F01D21#6C141580FFFFFFFF
(1785076352.505598) can0 09F11219#7DFEFFFF7FFF7FFC
(1785076352.509591) can0 18FF50E0#001187038000806F
(1785076352.569380) can0 09F112F8#FF2D760000FF7FFD
(1785076352.586087) can0 18F01D21#6C141580FFFFFFFF
(1785076352.605623) can0 09F11219#7EFEFFFF7FFF7FFC
(1785076352.611441) can0 18FF50E0#0010870080008070
(1785076352.685375) can0 18F01D21#6C141580FFFFFFFF
(1785076352.703435) can0 09F112F8#FF2B760000FF7FFD
(1785076352.705646) can0 09F11219#7FFEFFFF7FFF7FFC
(1785076352.712193) can0 18FF50E0#0010870080008071
(1785076352.785676) can0 18F01D21#6C141580FFFFFFFF
(1785076352.805701) can0 09F11219#80FEFFFF7FFF7FFC
(1785076352.812897) can0 18FF50E0#0010870280008072
(1785076352.841399) can0 09F112F8#FF29760000FF7FFD
(1785076352.884977) can0 18F01D21#6C141580FFFFFFFF
(1785076352.906453) can0 09F11219#81FEFFFF7FFF7FFC
(1785076352.913675) can0 18FF50E0#0010870080008073
(1785076352.980780) can0 09F112F8#FF28760000FF7FFD
(1785076352.985486) can0 18F01D21#6C141580FFFFFFFF
(1785076353.005661) can0 09F11219#82FEFFFF7FFF7FFC
(1785076353.014327) can0 18FF50E0#0010870280008074
(1785076353.085807) can0 18F01D21#6C141580FFFFFFFF
(1785076353.105657) can0 09F11219#83FEFFFF7FFF7FFC
(1785076353.114993) can0 18FF50E0#0010870080008075
(1785076353.129420) can0 09F112F8#FF29760000FF7FFD
(1785076353.185158) can0 18F01D21#6C141580FFFFFFFF
(1785076353.205690) can0 09F11219#84FEFFFF7FFF7FFC
(1785076353.215833) can0 18FF50E0#0010870080008076
(1785076353.258200) can0 09F112F8#FF29760000FF7FFD
(1785076353.285423) can0 18F01D21#6C141580FFFFFFFF
(1785076353.305701) can0 09F11219#85FEFFFF7FFF7FFC
(1785076353.316706) can0 18FF50E0#0010870180008077
(1785076353.385847) can0 18F01D21#6C141580FFFFFFFF
(1785076353.401415) can0 09F112F8#FF27760000FF7FFD
(1785076353.406507) can0 09F11219#86FEFFFF7FFF7FFC
(1785076353.418227) can0 18FF50E0#0010870080008078
(1785076353.485121) can0 18F01D21#6C141580FFFFFFFF
(1785076353.505866) can0 09F11219#87FEFFFF7FFF7FFC
(1785076353.518843) can0 18FF50E0#0110870080008079
(1785076353.533728) can0 09F112F8#FF28760000FF7FFD
(1785076353.585540) can0 18F01D21#A104158085491480
(1785076353.605723) can0 09F11219#88FEFFFF7FFF7FFC
(1785076353.621593) can0 18FF50E0#011087008000807A
(1785076353.672415) can0 09F112F8#FF2B760000FF7FFD
(1785076353.685992) can0 18F01D21#7CAF148085491480
(1785076353.705671) can0 09F11219#89FEFFFF7FFF7FFC
(1785076353.724432) can0 18FF50E0#011087008000807B
(1785076353.785136) can0 18F01D21#8549148085491480
(1785076353.805696) can0 09F11219#8AFEFFFF7FFF7FFC
(1785076353.810421) can0 09F112F8#FF2D760000FF7FFD
(1785076353.825152) can0 18FF50E0#011087008000807C
(1785076353.885625) can0 18F01D21#693A148085491480
(1785076353.906287) can0 09F11219#8BFEFFFF7FFF7FFC
(1785076353.926921) can0 18FF50E0#011087008000807D
(1785076353.949392) can0 09F112F8#FF30760000FF7FFD
(1785076353.986114) can0 18F01D21#1A52148085491480
(1785076354.005689) can0 09F11219#8CFEFFFF7FFF7FFC
(1785076354.027704) can0 18FF50E0#011087FE7F00807E
(1785076354.084617) can0 09F112F8#FF30760000FF7FFD
(1785076354.085749) can0 18F01D21#1D47148085491480
(1785076354.105798) can0 09F11219#8DFEFFFF7FFF7FFC
(1785076354.128592) can0 18FF50E0#011087FE7F00807F
(1785076354.185778) can0 18F01D21#CD47148085491480
(1785076354.205774) can0 09F11219#8EFEFFFF7FFF7FFC
(1785076354.220747) can0 09F112F8#FF31760000FF7FFD
(1785076354.229815) can0 18FF50E0#011087FE7F008080
(1785076354.286018) can0 18F01D21#CD47148085491480
(1785076354.305760) can0 09F11219#8FFEFFFF7FFF7FFC
(1785076354.330643) can0 18FF50E0#011087FD7F008081
(1785076354.366291) can0 09F112F8#FF30760000FF7FFD
(1785076354.385280) can0 18F01D21#CD47148085491480
(1785076354.406364) can0 09F11219#90FEFFFF7FFF7FFC
(1785076354.431484) can0 18FF50E0#011087FD7F008082
(1785076354.485618) can0 18F01D21#CD47148085491480
(1785076354.502442) can0 09F112F8#FF2E760000FF7FFD
(1785076354.505715) can0 09F11219#91FEFFFF7FFF7FFC
(1785076354.532242) can0 18FF50E0#011087FC7F008083
(1785076354.586073) can0 18F01D21#575A148000B91580
(1785076354.605833) can0 09F11219#92FEFFFF7FFF7FFC
(1785076354.634993) can0 18FF50E0#011087FC7F008084
(1785076354.638233) can0 09F112F8#FF2F760000FF7FFD
(1785076354.685498) can0 18F01D21#D398148000B91580
(1785076354.705683) can0 09F11219#93FEFFFF7FFF7FFC
(1785076354.739357) can0 18FF50E0#011087FC7F008085
(1785076354.781634) can0 09F112F8#FF2D760000FF7FFD
(1785076354.785766) can0 18F01D21#3201158000B91580
(1785076354.805856) can0 09F11219#94FEFFFF7FFF7FFC
(1785076354.840307) can0 18FF50E0#011087FC7F008086
(1785076354.886287) can0 18F01D21#8167158000B91580
(1785076354.906495) can0 09F11219#95FEFFFF7FFF7FFC
(1785076354.913422) can0 09F112F8#FF29760000FF7FFD
(1785076354.941044) can0 18FF50E0#011087FC7F008087
(1785076354.985428) can0 18F01D21#E7B9158000B91580
(1785076355.005769) can0 09F11219#96FEFFFF7FFF7FFC
(1785076355.042001) can0 18FF50E0#011087FE7F008088
(1785076355.049866) can0 09F112F8#FF25760000FF7FFD
(1785076355.085815) can0 18F01D21#C5C0158000B91580
(1785076355.105706) can0 09F11219#97FEFFFF7FFF7FFC
(1785076355.142823) can0 18FF50E0#011087FE7F008089
(1785076355.186231) can0 18F01D21#71B5158000B91580
(1785076355.191993) can0 09F112F8#FF23760000FF7FFD
(1785076355.205881) can0 09F11219#98FEFFFF7FFF7FFC
(1785076355.243531) can0 18FF50E0#011087FE7F00808A
(1785076355.285499) can0 18F01D21#D8B7158000B91580
(1785076355.305894) can0 09F11219#99FEFFFF7FFF7FFC
(1785076355.331427) can0 09F112F8#FF23760000FF7FFD
(1785076355.344902) can0 18FF50E0#011087018000808B
(1785076355.385872) can0 18F01D21#D8B7158000B91580
(1785076355.406576) can0 09F11219#9AFEFFFF7FFF7FFC
(1785076355.446352) can0 18FF50E0#011087018000808C
(1785076355.466987) can0 09F112F8#FF23760000FF7FFD
(1785076355.486171) can0 18F01D21#D8B7158000B91580
(1785076355.505744) can0 09F11219#9BFEFFFF7FFF7FFC
(1785076355.547234) can0 18FF50E0#011087038000808D
(1785076355.585507) can0 18F01D21#D8B7158000B91580
(1785076355.605829) can0 09F11219#9CFEFFFF7FFF7FFC
(1785076355.606919) can0 09F112F8#FF22760000FF7FFD
(1785076355.648725) can0 18FF50E0#011087038000808E
(1785076355.685857) can0 18F01D21#D8B7158000B91580
(1785076355.705779) can0 09F11219#9DFEFFFF7FFF7FFC
(1785076355.744490) can0 09F112F8#FF20760000FF7FFD
(1785076355.749522) can0 18FF50E0#011087038000808F
(1785076355.786247) can0 18F01D21#D8B7158000B91580
(1785076355.806065) can0 09F11219#9EFEFFFF7FFF7FFC
(1785076355.850496) can0 18FF50E0#0110870480008090
(1785076355.882645) can0 09F112F8#FF1D760000FF7FFD
(1785076355.885760) can0 18F01D21#D8B7158000B91580
(1785076355.906713) can0 09F11219#9FFEFFFF7FFF7FFC
(1785076355.951365) can0 18FF50E0#0110870480008091
(1785076355.985907) can0 18F01D21#D8B7158000B91580
(1785076356.005994) can0 09F11219#A0FEFFFF7FFF7FFC
(1785076356.018099) can0 09F112F8#FF1E760000FF7FFD
(1785076356.052185) can0 18FF50E0#0110870680008092
(1785076356.085249) can0 18F01D21#D8B7158000B91580
(1785076356.105846) can0 09F11219#A1FEFFFF7FFF7FFC
(1785076356.153836) can0 18FF50E0#0110870680008093
(1785076356.160613) can0 09F112F8#FF1C760000FF7FFD
(1785076356.185637) can0 18F01D21#D8B7158000B91580
(1785076356.205814) can0 09F11219#A2FEFFFF7FFF7FFC
(1785076356.254717) can0 18FF50E0#0110870680008094
(1785076356.286013) can0 18F01D21#D8B7158000B91580
(1785076356.293462) can0 09F112F8#FF1A760000FF7FFD
(1785076356.305836) can0 09F11219#A3FEFFFF7FFF7FFC
(1785076356.355874) can0 18FF50E0#0110870780008095
(1785076356.385705) can0 18F01D21#D8B7158000B91580
(1785076356.406410) can0 09F11219#A4FEFFFF7FFF7FFC
(1785076356.437849) can0 09F112F8#FF1B760000FF7FFD
(1785076356.456629) can0 18FF50E0#0110870780008096
(1785076356.485689) can0 18F01D21#D8B7158000B91580
(1785076356.505861) can0 09F11219#A5FEFFFF7FFF7FFC
(1785076356.557095) can0 18FF50E0#0110870880008097
(1785076356.574361) can0 09F112F8#FF19760000FF7FFD
(1785076356.586023) can0 18F01D21#D8B7158000B91580
(1785076356.605887) can0 09F11219#A6FEFFFF7FFF7FFC
(1785076356.657660) can0 18FF50E0#0110870880008098
(1785076356.685418) can0 18F01D21#D8B7158000B91580
(1785076356.705826) can0 09F11219#A7FEFFFF7FFF7FFC
(1785076356.712488) can0 09F112F8#FF19760000FF7FFD
(1785076356.758128) can0 18FF50E0#0110870880008099
(1785076356.785728) can0 18F01D21#D8B7158000B91580
(1785076356.805841) can0 09F11219#A8FEFFFF7FFF7FFC
(1785076356.850509) can0 09F112F8#FF17760000FF7FFD
(1785076356.858627) can0 18FF50E0#011087098000809A
(1785076356.886078) can0 18F01D21#D8B7158000B91580
(1785076356.906483) can0 09F11219#A9FEFFFF7FFF7FFC
(1785076356.959249) can0 18FF50E0#011087098000809B
(1785076356.985468) can0 18F01D21#D8B7158000B91580
(1785076356.991452) can0 09F112F8#FF14760000FF7FFD
(1785076357.005872) can0 09F11219#AAFEFFFF7FFF7FFC
(1785076357.060637) can0 18FF50E0#0110870B8000809C
(1785076357.085808) can0 18F01D21#D8B7158000B91580
(1785076357.105849) can0 09F11219#ABFEFFFF7FFF7FFC
(1785076357.129880) can0 09F112F8#FF13760000FF7FFD
(1785076357.161668) can0 18FF50E0#0110870B8000809D
(1785076357.186185) can0 18F01D21#D8B7158000B91580
(1785076357.205842) can0 09F11219#ACFEFFFF7FFF7FFC
(1785076357.262573) can0 18FF50E0#0110870B8000809E
(1785076357.267063) can0 09F112F8#FF12760000FF7FFD
(1785076357.285560) can0 18F01D21#D8B7158000B91580
(1785076357.305819) can0 09F11219#ADFEFFFF7FFF7FFC
(1785076357.363432) can0 18FF50E0#0110870C8000809F
(1785076357.385867) can0 18F01D21#D8B7158000B91580
(1785076357.403901) can0 09F112F8#FF12760000FF7FFD
(1785076357.406576) can0 09F11219#AEFEFFFF7FFF7FFC
(1785076357.464387) can0 18FF50E0#0110870C800080A0
(1785076357.486254) can0 18F01D21#D8B7158000B91580
(1785076357.506064) can0 09F11219#AFFEFFFF7FFF7FFC
(1785076357.540560) can0 09F112F8#FF0D760000FF7FFD
(1785076357.565333) can0 18FF50E0#0110870D800080A1
(1785076357.585551) can0 18F01D21#D8B7158000B91580
(1785076357.606067) can0 09F11219#B0FEFFFF7FFF7FFC
(1785076357.666700) can0 18FF50E0#0110870D800080A2
(1785076357.682102) can0 09F112F8#FF0C760000FF7FFD
(1785076357.686167) can0 18F01D21#D8B7158000B91580
(1785076357.706075) can0 09F11219#B1FEFFFF7FFF7FFC
(1785076357.767671) can0 18FF50E0#0110870D800080A3
(1785076357.786313) can0 18F01D21#D8B7158000B91580
(1785076357.806127) can0 09F11219#B2FEFFFF7FFF7FFC
(1785076357.821494) can0 09F112F8#FF10760000FF7FFD
(1785076357.868564) can0 18FF50E0#0110870F800080A4
(1785076357.885842) can0 18F01D21#D8B7158000B91580
(1785076357.906645) can0 09F11219#B3FEFFFF7FFF7FFC
(1785076357.957163) can0 09F112F8#FF0F760000FF7FFD
(1785076357.969537) can0 18FF50E0#0110870F800080A5
(1785076357.986000) can0 18F01D21#D8B7158000B91580
(1785076358.005988) can0 09F11219#B4FEFFFF7FFF7FFC
(1785076358.070672) can0 18FF50E0#01108710800080A6
(1785076358.086338) can0 18F01D21#D8B7158000B91580
(1785076358.094718) can0 09F112F8#FF0E760000FF7FFD
(1785076358.105804) can0 09F11219#B5FEFFFF7FFF7FFC
(1785076358.171438) can0 18FF50E0#01108710800080A7
(1785076358.185682) can0 18F01D21#D8B7158000B91580
(1785076358.205887) can0 09F11219#B6FEFFFF7FFF7FFC
(1785076358.236413) can0 09F112F8#FF10760000FF7FFD
(1785076358.272176) can0 18FF50E0#01108710800080A8
(1785076358.286096) can0 18F01D21#D8B7158000B91580
(1785076358.305855) can0 09F11219#B7FEFFFF7FFF7FFC
(1785076358.372786) can0 09F112F8#FF12760000FF7FFD
(1785076358.372848) can0 18FF50E0#01108710800080A9
(1785076358.386510) can0 18F01D21#D8B7158000B91580
(1785076358.406488) can0 09F11219#B8FEFFFF7FFF7FFC
(1785076358.473373) can0 18FF50E0#01108710800080AA
(1785076358.485812) can0 18F01D21#D8B7158000B91580
(1785076358.505836) can0 09F11219#B9FEFFFF7FFF7FFC
(1785076358.510900) can0 09F112F8#FF11760000FF7FFD
(1785076358.573792) can0 18FF50E0#0110870F800080AB
(1785076358.586131) can0 18F01D21#D8B7158000B91580
(1785076358.605855) can0 09F11219#BAFEFFFF7FFF7FFC
(1785076358.651705) can0 09F112F8#FF11760000FF7FFD
(1785076358.674456) can0 18FF50E0#0110870F800080AC
(1785076358.686505) can0 18F01D21#D8B7158000B91580
(1785076358.705849) can0 09F11219#BBFEFFFF7FFF7FFC
(1785076358.774875) can0 18FF50E0#0110870F800080AD
(1785076358.785886) can0 18F01D21#D8B7158000B91580
(1785076358.791678) can0 09F112F8#FF10760000FF7FFD
(1785076358.806023) can0 09F11219#BCFEFFFF7FFF7FFC
(1785076358.875604) can0 18FF50E0#0110870F800080AE
(1785076358.886251) can0 18F01D21#D8B7158000B91580
(1785076358.906602) can0 09F11219#BDFEFFFF7FFF7FFC
(1785076358.928005) can0 09F112F8#FF0F760000FF7FFD
(1785076358.976478) can0 18FF50E0#0110870F800080AF
(1785076358.986585) can0 18F01D21#D8B7158000B91580
(1785076359.006099) can0 09F11219#BEFEFFFF7FFF7FFC
(1785076359.070906) can0 09F112F8#FF0F760000FF7FFD
(1785076359.077266) can0 18FF50E0#0110870F800080B0
(1785076359.086195) can0 18F01D21#D8B7158000B91580
(1785076359.105961) can0 09F11219#BFFEFFFF7FFF7FFC
(1785076359.178343) can0 18FF50E0#0110870F800080B1
(1785076359.186241) can0 18F01D21#D8B7158000B91580
(1785076359.205906) can0 09F11219#C0FEFFFF7FFF7FFC
(1785076359.208434) can0 09F112F8#FF12760000FF7FFD
(1785076359.280724) can0 18FF50E0#0110870F800080B2
(1785076359.285668) can0 18F01D21#D8B7158000B91580
(1785076359.305921) can0 09F11219#C1FEFFFF7FFF7FFC
(1785076359.342546) can0 09F112F8#FF13760000FF7FFD
(1785076359.381448) can0 18FF50E0#0110870F800080B3
(1785076359.386013) can0 18F01D21#D8B7158000B91580
(1785076359.406774) can0 09F11219#C2FEFFFF7FFF7FFC
(1785076359.482434) can0 18FF50E0#0110870F800080B4
(1785076359.482931) can0 09F112F8#FF13760000FF7FFD
(1785076359.486378) can0 18F01D21#D8B7158000B91580
(1785076359.506114) can0 09F11219#C3FEFFFF7FFF7FFC
(1785076359.583281) can0 18FF50E0#0110870E800080B5
(1785076359.585787) can0 18F01D21#D8B7158000B91580
(1785076359.606142) can0 09F11219#C4FEFFFF7FFF7FFC
(1785076359.617347) can0 09F112F8#FF14760000FF7FFD
(1785076359.684501) can0 18FF50E0#0110870E800080B6
(1785076359.686106) can0 18F01D21#D8B7158000B91580
(1785076359.705808) can0 09F11219#C5FEFFFF7FFF7FFC
(1785076359.758003) can0 09F112F8#FF14760000FF7FFD
(1785076359.785365) can0 18FF50E0#0110870E800080B7
(1785076359.786873) can0 18F01D21#D8B7158000B91580
(1785076359.806108) can0 09F11219#C6FEFFFF7FFF7FFC
(1785076359.885741) can0 18F01D21#D8B7158000B91580
(1785076359.886375) can0 18FF50E0#0110870D800080B8
(1785076359.899737) can0 09F112F8#FF13760000FF7FFD
(1785076359.906755) can0 09F11219#C7FEFFFF7FFF7FFC
(1785076359.986130) can0 18F01D21#D8B7158000B91580
(1785076359.987760) can0 18FF50E0#0110870D800080B9
(1785076360.006066) can0 09F11219#C8FEFFFF7FFF7FFC
(1785076360.034590) can0 09F112F8#FF14760000FF7FFD
(1785076360.086779) can0 18F01D21#D8B7158000B91580
(1785076360.088587) can0 18FF50E0#0110870D800080BA
(1785076360.106064) can0 09F11219#C9FEFFFF7FFF7FFC
(1785076360.174778) can0 09F112F8#FF16760000FF7FFD
(1785076360.185931) can0 18F01D21#D8B7158000B91580
(1785076360.189428) can0 18FF50E0#0110870D800080BB
(1785076360.205949) can0 09F11219#CAFEFFFF7FFF7FFC
(1785076360.286246) can0 18F01D21#D8B7158000B91580
(1785076360.290562) can0 18FF50E0#0110870D800080BC
(1785076360.305898) can0 09F11219#CBFEFFFF7FFF7FFC
(1785076360.311577) can0 09F112F8#FF1B760000FF7FFD
(1785076360.386474) can0 18F01D21#D8B7158000B91580
(1785076360.392165) can0 18FF50E0#0110870C800080BD
(1785076360.406568) can0 09F11219#CCFEFFFF7FFF7FFC
(1785076360.454761) can0 09F112F8#FF1B760000FF7FFD
(1785076360.485888) can0 18F01D21#D8B7158000B91580
(1785076360.494455) can0 18FF50E0#0110870C800080BE
(1785076360.505995) can0 09F11219#CDFEFFFF7FFF7FFC
(1785076360.586188) can0 18F01D21#D8B7158000B91580
(1785076360.592577) can0 09F112F8#FF1E760000FF7FFD
(1785076360.595725) can0 18FF50E0#0110870A800080BF
(1785076360.606181) can0 09F11219#CEFEFFFF7FFF7FFC
(1785076360.686789) can0 18F01D21#D8B7158000B91580
(1785076360.696648) can0 18FF50E0#0110870A800080C0
(1785076360.706167) can0 09F11219#CFFEFFFF7FFF7FFC
(1785076360.733969) can0 09F112F8#FF1E760000FF7FFD
(1785076360.785888) can0 18F01D21#D8B7158000B91580
(1785076360.797600) can0 18FF50E0#0110870A800080C1
(1785076360.805958) can0 09F11219#D0FEFFFF7FFF7FFC
(1785076360.870763) can0 09F112F8#FF25760000FF7FFD
(1785076360.886534) can0 18F01D21#D8B7158000B91580
(1785076360.900287) can0 18FF50E0#01108708800080C2
(1785076360.906594) can0 09F11219#D1FEFFFF7FFF7FFC
(1785076360.986628) can0 18F01D21#D8B7158000B91580
(1785076361.001312) can0 18FF50E0#01108708800080C3
(1785076361.005951) can0 09F11219#D2FEFFFF7FFF7FFC
(1785076361.009995) can0 09F112F8#FF26760000FF7FFD
(1785076361.086444) can0 18F01D21#D8B7158000B91580
(1785076361.102124) can0 18FF50E0#01108705800080C4
(1785076361.105977) can0 09F11219#D3FEFFFF7FFF7FFC
(1785076361.150818) can0 09F112F8#FF28760000FF7FFD
(1785076361.186564) can0 18F01D21#D8B7158000B91580
(1785076361.202958) can0 18FF50E0#01108705800080C5
(1785076361.206362) can0 09F11219#D4FEFFFF7FFF7FFC
(1785076361.287011) can0 18F01D21#D8B7158000B91580
(1785076361.287499) can0 09F112F8#FF27760000FF7FFD
(1785076361.303814) can0 18FF50E0#01108705800080C6
(1785076361.306239) can0 09F11219#D5FEFFFF7FFF7FFC
(1785076361.386142) can0 18F01D21#D8B7158000B91580
(1785076361.405012) can0 18FF50E0#01108703800080C7
(1785076361.407144) can0 09F11219#D6FEFFFF7FFF7FFC
(1785076361.424833) can0 09F112F8#FF25760000FF7FFD
(1785076361.486599) can0 18F01D21#D8B7158000B91580
(1785076361.505983) can0 09F11219#D7FEFFFF7FFF7FFC
(1785076361.506026) can0 18FF50E0#01108703800080C8
(1785076361.563071) can0 09F112F8#FF27760000FF7FFD
(1785076361.586797) can0 18F01D21#D8B7158000B91580
(1785076361.605985) can0 09F11219#D8FEFFFF7FFF7FFC
(1785076361.607414) can0 18FF50E0#01108702800080C9
(1785076361.686110) can0 18F01D21#D8B7158000B91580
(1785076361.698505) can0 09F112F8#FF25760000FF7FFD
(1785076361.706147) can0 09F11219#D9FEFFFF7FFF7FFC
(1785076361.708639) can0 18FF50E0#01108702800080CA
(1785076361.786463) can0 18F01D21#D8B7158000B91580
(1785076361.805995) can0 09F11219#DAFEFFFF7FFF7FFC
(1785076361.809508) can0 18FF50E0#01108702800080CB
(1785076361.834645) can0 09F112F8#FF27760000FF7FFD
(1785076361.886856) can0 18F01D21#D8B7158000B91580
(1785076361.906945) can0 09F11219#DBFEFFFF7FFF7FFC
(1785076361.910266) can0 18FF50E0#01108701800080CC
(1785076361.973218) can0 09F112F8#FF2B760000FF7FFD
(1785076361.986354) can0 18F01D21#D8B7158000B91580
(1785076362.006220) can0 09F11219#DCFEFFFF7FFF7FFC
(1785076362.010943) can0 18FF50E0#01108701800080CD
(1785076362.086912) can0 18F01D21#D8B7158000B91580
(1785076362.106062) can0 09F11219#DDFEFFFF7FFF7FFC
(1785076362.111639) can0 18FF50E0#01108700800080CE
(1785076362.113141) can0 09F112F8#FF2D760000FF7FFD
(1785076362.187062) can0 18F01D21#D8B7158000B91580
(1785076362.206158) can0 09F11219#DEFEFFFF7FFF7FFC
(1785076362.212875) can0 18FF50E0#01108700800080CF
(1785076362.251730) can0 09F112F8#FF2F760000FF7FFD
(1785076362.286226) can0 18F01D21#D8B7158000B91580
(1785076362.306314) can0 09F11219#DFFEFFFF7FFF7FFC
(1785076362.313655) can0 18FF50E0#01108700800080D0
(1785076362.386726) can0 18F01D21#D8B7158000B91580
(1785076362.390707) can0 09F112F8#FF33760000FF7FFD
(1785076362.406883) can0 09F11219#E0FEFFFF7FFF7FFC
(1785076362.414433) can0 18FF50E0#011087FE7F0080D1
(1785076362.486137) can0 18F01D21#D8B7158000B91580
(1785076362.506304) can0 09F11219#E1FEFFFF7FFF7FFC
(1785076362.515631) can0 18FF50E0#011087FE7F0080D2
(1785076362.528444) can0 09F112F8#FF35760000FF7FFD
(1785076362.586310) can0 18F01D21#D8B7158000B91580
(1785076362.606131) can0 09F11219#E2FEFFFF7FFF7FFC
(1785076362.616507) can0 18FF50E0#011087FC7F0080D3
(1785076362.660802) can0 09F112F8#FF3A760000FF7FFD
(1785076362.686827) can0 18F01D21#D8B7158000B91580
(1785076362.706257) can0 09F11219#E3FEFFFF7FFF7FFC
(1785076362.717570) can0 18FF50E0#011087FC7F0080D4
(1785076362.786174) can0 18F01D21#D8B7158000B91580
(1785076362.802005) can0 09F112F8#FF3F760000FF7FFD
(1785076362.806105) can0 09F11219#E4FEFFFF7FFF7FFC
(1785076362.818529) can0 18FF50E0#011087FC7F0080D5
(1785076362.886308) can0 18F01D21#D8B7158000B91580
(1785076362.906721) can0 09F11219#E5FEFFFF7FFF7FFC
(1785076362.919444) can0 18FF50E0#011087F87F0080D6
(1785076362.938246) can0 09F112F8#FF43760000FF7FFD
(1785076362.986744) can0 18F01D21#D8B7158000B91580
(1785076363.006280) can0 09F11219#E6FEFFFF7FFF7FFC
(1785076363.020285) can0 18FF50E0#011087F87F0080D7
(1785076363.077129) can0 09F112F8#FF45760000FF7FFD
(1785076363.086586) can0 18F01D21#D8B7158000B91580
(1785076363.106118) can0 09F11219#E7FEFFFF7FFF7FFC
(1785076363.121256) can0 18FF50E0#011087F37F0080D8
(1785076363.186588) can0 18F01D21#D8B7158000B91580
(1785076363.206254) can0 09F11219#E8FEFFFF7FFF7FFC
(1785076363.212842) can0 09F112F8#FF44760000FF7FFD
(1785076363.222255) can0 18FF50E0#011087F37F0080D9
(1785076363.286978) can0 18F01D21#D8B7158000B91580
(1785076363.306319) can0 09F11219#E9FEFFFF7FFF7FFC
(1785076363.323091) can0 18FF50E0#011087F37F0080DA
(1785076363.357441) can0 09F112F8#FF3D760000FF7FFD
(1785076363.386375) can0 18F01D21#D8B7158000B91580
(1785076363.406765) can0 09F11219#EAFEFFFF7FFF7FFC
(1785076363.424054) can0 18FF50E0#011087F17F0080DB
(1785076363.474891) can0 18EEFF00#C82C420E00000051
(1785076363.480381) can0 18EEFF19#E773B81C009178C0
(1785076363.481519) can0 18EEFF1C#0204450E00000042
(1785076363.482625) can0 18EEFFF8#6CDBAF1C008C78C0
(1785076363.484706) can0 18EEFF00#C82C4A0E00000051
(1785076363.486440) can0 18F01D21#D8B7158000B91580
(1785076363.494686) can0 09F112F8#FF35760000FF7FFD
(1785076363.506202) can0 09F11219#EBFEFFFF7FFF7FFC
(1785076363.525033) can0 18FF50E0#011087F17F0080DC
(1785076363.532070) can0 19F10D13#004A014D01000181
(1785076363.586825) can0 18F01D21#D8B7158000B91580
(1785076363.606050) can0 09F11219#ECFEFFFF7FFF7FFC
(1785076363.625827) can0 18FF50E0#011087F47F0080DD
(1785076363.630121) can0 09F112F8#FF2F760000FF7FFD
(1785076363.632866) can0 19F10D13#0148014D01000182
(1785076363.686167) can0 18F01D21#D8B7158000B91580
(1785076363.706222) can0 09F11219#EDFEFFFF7FFF7FFC
(1785076363.727407) can0 18FF50E0#011087F47F0080DE
(1785076363.732221) can0 19F10D13#024A014E01000181
(1785076363.760254) can0 0CF00400#FF7D7D000000FFFF
(1785076363.780885) can0 0CF00400#FF7D7D000000FFFF
(1785076363.782722) can0 09F112F8#FF2F760000FF7FFD
(1785076363.786577) can0 18F01D21#D8B7158000B91580
(1785076363.799775) can0 0CF00400#FF7D7D000000FFFF
(1785076363.806020) can0 09F11219#EEFEFFFF7FFF7FFC
(1785076363.819738) can0 0CF00400#FF7D7D000000FFFF
(1785076363.825339) can0 09F8021C#D8FCD4F20400FFFF
(1785076363.826435) can0 09F8011C#546E2618BC6A5BC1
(1785076363.828200) can0 18FF50E0#011087F47F0080DF
(1785076363.829804) can0 18FEE81C#1AB200002164277E
(1785076363.831988) can0 19F10D13#034A014E01000181
(1785076363.840017) can0 0CF00400#FF7D7D000000FFFF
(1785076363.860912) can0 0CF00400#FF7D7D000000FFFF
(1785076363.879874) can0 0CF00400#FF7D7D000000FFFF
(1785076363.887060) can0 18F01D21#D8B7158000B91580
(1785076363.899885) can0 0CF00400#FF7D7D000000FFFF
(1785076363.907167) can0 09F11219#EFFEFFFF7FFF7FFC
(1785076363.908111) can0 09F112F8#FF2C760000FF7FFD
(1785076363.919700) can0 0CF00400#FF7D7D000000FFFF
(1785076363.929680) can0 18FF50E0#011087F87F0080E0
(1785076363.931994) can0 19F10D13#0448014E01000182
(1785076363.939761) can0 0CF00400#FF7D7D000000FFFF
(1785076363.960909) can0 0CF00400#FF7D7D000000FFFF
(1785076363.979778) can0 0CF00400#FF7D7D000000FFFF
(1785076363.986610) can0 18F01D21#D8B7158000B91580
(1785076363.999784) can0 0CF00400#FF7D7D000000FFFF
(1785076364.006098) can0 09F11219#F0FEFFFF7FFF7FFC
(1785076364.019742) can0 0CF00400#FF7D7D000000FFFF
(1785076364.031020) can0 18FF50E0#011087F87F0080E1
(1785076364.032023) can0 19F10D13#0548014E01000182
(1785076364.039843) can0 0CF00400#FF7D7D000000FFFF
(1785076364.048146) can0 09F112F8#FF26760000FF7FFD
(1785076364.060412) can0 0CF00400#FF7D7D000000FFFF
(1785076364.079765) can0 0CF00400#FF7D7D000000FFFF
(1785076364.086688) can0 18F01D21#D8B7158000B91580
(1785076364.100758) can0 0CF00400#FF7D7D000000FFFF
(1785076364.106061) can0 09F11219#F1FEFFFF7FFF7FFC
(1785076364.119744) can0 0CF00400#FF7D7D000000FFFF
(1785076364.131924) can0 18FF50E0#011087FD7F0080E2
(1785076364.131992) can0 19F10D13#0649014E01000181
(1785076364.139879) can0 0CF00400#FF7D7D000000FFFF
(1785076364.160885) can0 0CF00400#FF7D7D000000FFFF
(1785076364.179715) can0 0CF00400#FF7D7D000000FFFF
(1785076364.186976) can0 18F01D21#D8B7158000B91580
(1785076364.190690) can0 09F112F8#FF23760000FF7FFD
(1785076364.199742) can0 0CF00400#FF7D7D000000FFFF
(1785076364.206081) can0 09F11219#F2FEFFFF7FFF7FFC
(1785076364.219699) can0 0CF00400#FF7D7D000000FFFF
(1785076364.232094) can0 19F10D13#0749014E01000181
(1785076364.233435) can0 18FF50E0#011087FD7F0080E3
(1785076364.239744) can0 0CF00400#FF7D7D000000FFFF
(1785076364.241771) can0 18EEFF9B#6DAAEF10008278C0
(1785076364.260810) can0 0CF00400#FF7D7D000000FFFF
(1785076364.279859) can0 0CF00400#FF7D7D000000FFFF
(1785076364.286416) can0 18F01D21#D8B7158000B91580
(1785076364.300625) can0 0CF00400#FF7D7D000000FFFF
(1785076364.306151) can0 09F11219#F3FEFFFF7FFF7FFC
(1785076364.319877) can0 0CF00400#FF7D7D000000FFFF
(1785076364.328390) can0 09F112F8#FF21760000FF7FFD
(1785076364.330895) can0 09F8021C#D9FCD4F20400FFFF
(1785076364.331869) can0 09F8011C#566E2618C06A5BC1
(1785076364.332338) can0 19F10D13#0849014E01000181
(1785076364.334848) can0 18FF50E0#011087FD7F0080E4
(1785076364.334857) can0 18FEE81C#1AB200002164267E
(1785076364.339745) can0 0CF00400#FF7D7D000000FFFF
(1785076364.361095) can0 0CF00400#FF7D7D000000FFFF
(1785076364.379747) can0 0CF00400#FF7D7D000000FFFF
(1785076364.386658) can0 18F01D21#D8B7158000B91580
(1785076364.401315) can0 0CF00400#FF7D7D000000FFFF
(1785076364.406975) can0 09F11219#F4FEFFFF7FFF7FFC
(1785076364.419848) can0 0CF00400#FF7D7D000000FFFF
(1785076364.432002) can0 19F10D13#094A014F01000181
(1785076364.435907) can0 18FF50E0#01108701800080E5
(1785076364.439734) can0 0CF00400#FF7D7D000000FFFF
(1785076364.460829) can0 0CF00400#FF7D7D000000FFFF
(1785076364.470738) can0 09F112F8#FF20760000FF7FFD
(1785076364.479868) can0 0CF00400#FF7D7D000000FFFF
(1785076364.487213) can0 18F01D21#D8B7158000B91580
(1785076364.499835) can0 0CF00400#FF7D7D000000FFFF
(1785076364.506184) can0 09F11219#F5FEFFFF7FFF7FFC
(1785076364.519702) can0 0CF00400#FF7D7D000000FFFF
(1785076364.532585) can0 19F10D13#0A4A014F01000181
(1785076364.537826) can0 18FF50E0#01108701800080E6
(1785076364.539842) can0 0CF00400#FF7D7D000000FFFF
(1785076364.560807) can0 0CF00400#FF7D7D000000FFFF
(1785076364.579847) can0 0CF00400#FF7D7D000000FFFF
(1785076364.586599) can0 18F01D21#D8B7158000B91580
(1785076364.599680) can0 0CF00400#FF7D7D000000FFFF
(1785076364.606148) can0 09F11219#F6FEFFFF7FFF7FFC
(1785076364.607602) can0 09F112F8#FF1F760000FF7FFD
(1785076364.619713) can0 0CF00400#FF7D7D000000FFFF
(1785076364.632099) can0 19F10D13#0B49014F01000181
(1785076364.638671) can0 18FF50E0#01108704800080E7
(1785076364.639664) can0 0CF00400#FF7D7D000000FFFF
(1785076364.660806) can0 0CF00400#FF7D7D000000FFFF
(1785076364.679859) can0 0CF00400#FF7D7D000000FFFF
(1785076364.686718) can0 18F01D21#D8B7158000B91580
(1785076364.699729) can0 0CF00400#FF7D7D000000FFFF
(1785076364.706147) can0 09F11219#F7FEFFFF7FFF7FFC
(1785076364.719841) can0 0CF00400#FF7D7D000000FFFF
(1785076364.732247) can0 19F10D13#0C48014F01000182
(1785076364.739668) can0 0CF00400#FF7D7D000000FFFF
(1785076364.739904) can0 18FF50E0#01108704800080E8
(1785076364.743876) can0 09F112F8#FF1B760000FF7FFD
(1785076364.760810) can0 0CF00400#FF7D7D000000FFFF
(1785076364.779634) can0 0CF00400#FF7D7D000000FFFF
(1785076364.787125) can0 18F01D21#D8B7158000B91580
(1785076364.799639) can0 0CF00400#FF7D7D000000FFFF
(1785076364.806398) can0 09F11219#F8FEFFFF7FFF7FFC
(1785076364.819825) can0 0CF00400#FF7D7D000000FFFF
(1785076364.832098) can0 19F10D13#0D48014F01000182
(1785076364.839614) can0 09F8021C#DAFCD4F20300FFFF
(1785076364.840008) can0 0CF00400#FF7D7D000000FFFF
(1785076364.840532) can0 09F8011C#5A6E2618C26A5BC1
(1785076364.842044) can0 18FF50E0#01108704800080E9
(1785076364.843676) can0 18FEE81C#1AB200002164267E
(1785076364.860437) can0 0CF00400#FF7D7D000000FFFF
(1785076364.879638) can0 0CF00400#FF7D7D000000FFFF
(1785076364.886476) can0 18F01D21#D8B7158000B91580
(1785076364.887237) can0 09F112F8#FF17760000FF7FFD
(1785076364.899719) can0 0CF00400#FF7D7D000000FFFF
(1785076364.907275) can0 09F11219#F9FEFFFF7FFF7FFC
(1785076364.919730) can0 0CF00400#FF7D7D000000FFFF
(1785076364.932244) can0 19F10D13#0E4A014F01000181
(1785076364.939730) can0 0CF00400#FF7D7D000000FFFF
(1785076364.942869) can0 18FF50E0#01108706800080EA
(1785076364.960809) can0 0CF00400#FF7D7D000000FFFF
(1785076364.979707) can0 0CF00400#FF7D7D000000FFFF
(1785076364.986897) can0 18F01D21#D8B7158000B91580
(1785076364.999728) can0 0CF00400#FF7D7D000000FFFF
(1785076365.006215) can0 09F11219#FAFEFFFF7FFF7FFC
(1785076365.019833) can0 0CF00400#FF7D7D000000FFFF
(1785076365.022891) can0 09F112F8#FF0F760000FF7FFD
(1785076365.032024) can0 19F10D13#0F4A014F01000181
(1785076365.039630) can0 0CF00400#FF7D7D000000FFFF
(1785076365.043833) can0 18FF50E0#01108706800080EB
(1785076365.060893) can0 0CF00400#FF7D7D000000FFFF
(1785076365.079837) can0 0CF00400#FF7D7D000000FFFF
(1785076365.087547) can0 18F01D21#D8B7158000B91580
(1785076365.100655) can0 0CF00400#FF7D7D000000FFFF
(1785076365.106153) can0 09F11219#00FEFFFF7FFF7FFC
(1785076365.119642) can0 0CF00400#FF7D7D000000FFFF
(1785076365.132000) can0 19F10D13#1048014F01000182
(1785076365.139715) can0 0CF00400#FF7D7D000000FFFF
(1785076365.144632) can0 18FF50E0#0110870A800080EC
(1785076365.160884) can0 0CF00400#FF7D7D000000FFFF
(1785076365.161329) can0 09F112F8#FF08760000FF7FFD
(1785076365.179734) can0 0CF00400#FF7D7D000000FFFF
(1785076365.186706) can0 18F01D21#D8B7158000B91580
(1785076365.200421) can0 0CF00400#FF7D7D000000FFFF
(1785076365.206150) can0 09F11219#01FEFFFF7FFF7FFC
(1785076365.220094) can0 0CF00400#FF7D7D000000FFFF
(1785076365.232098) can0 19F10D13#114A015001000181
(1785076365.239792) can0 0CF00400#FF7D7D000000FFFF
(1785076365.245734) can0 18FF50E0#0110870A800080ED
(1785076365.261312) can0 0CF00400#FF7D7D000000FFFF
(1785076365.279638) can0 0CF00400#FF7D7D000000FFFF
(1785076365.286874) can0 18F01D21#D8B7158000B91580
(1785076365.299689) can0 0CF00400#FF7D7D000000FFFF
(1785076365.305224) can0 09F112F8#FFFF750000FF7FFD
(1785076365.306353) can0 09F11219#02FEFFFF7FFF7FFC
(1785076365.319696) can0 0CF00400#FF7D7D000000FFFF
(1785076365.332098) can0 19F10D13#1249015001000181
(1785076365.339810) can0 0CF00400#FF7D7D000000FFFF
(1785076365.346031) can0 09F8021C#DBFCD4F20100FFFF
(1785076365.346648) can0 18FF50E0#0110870A800080EE
(1785076365.346925) can0 09F8011C#5A6E2618C86A5BC1
(1785076365.352154) can0 18FEE81C#1AB200002164267E
(1785076365.360608) can0 0CF00400#FF7D7D000000FFFF
(1785076365.379962) can0 0CF00400#FF7D7D000000FFFF
(1785076365.387177) can0 18F01D21#D8B7158000B91580
(1785076365.399697) can0 0CF00400#FF7D7D000000FFFF
(1785076365.406887) can0 09F11219#03FEFFFF7FFF7FFC
(1785076365.419790) can0 0CF00400#FF7D7D000000FFFF
(1785076365.432470) can0 19F10D13#1349015001000181
(1785076365.438770) can0 09F112F8#FFF9750000FF7FFD
(1785076365.439739) can0 0CF00400#FF7D7D000000FFFF
(1785076365.447668) can0 18FF50E0#01108711800080EF
(1785076365.460824) can0 0CF00400#FF7D7D000000FFFF
(1785076365.479638) can0 0CF00400#FF7D7D000000FFFF
(1785076365.486567) can0 18F01D21#D8B7158000B91580
(1785076365.499707) can0 0CF00400#FF7D7D000000FFFF
(1785076365.506369) can0 09F11219#04FEFFFF7FFF7FFC
(1785076365.519858) can0 0CF00400#FF7D7D000000FFFF
(1785076365.532238) can0 19F10D13#144A015001000181
(1785076365.539789) can0 0CF00400#FF7D7D000000FFFF
(1785076365.549662) can0 18FF50E0#01108711800080F0
(1785076365.560827) can0 0CF00400#FF7D7D000000FFFF
(1785076365.577277) can0 09F112F8#FFEF750000FF7FFD
(1785076365.579686) can0 0CF00400#FF7D7D000000FFFF
(1785076365.587066) can0 18F01D21#D8B7158000B91580
(1785076365.599684) can0 0CF00400#FF7D7D000000FFFF
(1785076365.606171) can0 09F11219#05FEFFFF7FFF7FFC
(1785076365.619793) can0 0CF00400#FF7D7D000000FFFF
(1785076365.632017) can0 19F10D13#1549015001000181
(1785076365.639645) can0 0CF00400#FF7D7D000000FFFF
(1785076365.651834) can0 18FF50E0#0110871A800080F1
(1785076365.660893) can0 0CF00400#FF7D7D000000FFFF
(1785076365.679615) can0 0CF00400#FF7D7D000000FFFF
(1785076365.686214) can0 18F01D21#D8B7158000B91580
(1785076365.699789) can0 0CF00400#FF7D7D000000FFFF
(1785076365.706359) can0 09F11219#06FEFFFF7FFF7FFC
(1785076365.711222) can0 09F112F8#FFE8750000FF7FFD
(1785076365.719620) can0 0CF00400#FF7D7D000000FFFF
(1785076365.732078) can0 19F10D13#1649015001000181
(1785076365.739673) can0 0CF00400#FF7D7D000000FFFF
(1785076365.753062) can0 18FF50E0#0110871A800080F2
(1785076365.760850) can0 0CF00400#FF7D7D000000FFFF
(1785076365.779774) can0 0CF00400#FF7D7D000000FFFF
(1785076365.786918) can0 18F01D21#D8B7158000B91580
(1785076365.799704) can0 0CF00400#FF7D7D000000FFFF
(1785076365.806883) can0 09F11219#07FEFFFF7FFF7FFC
(1785076365.819676) can0 0CF00400#FF7D7D000000FFFF
(1785076365.832000) can0 19F10D13#1749015001000181
(1785076365.839677) can0 0CF00400#FF7D7D000000FFFF
(1785076365.853173) can0 09F112F8#FFE4750000FF7FFD
(1785076365.853692) can0 09F8021C#DCFCD4F20300FFFF
(1785076365.854082) can0 18FF50E0#0110871A800080F3
(1785076365.854518) can0 09F8011C#5A6E2618CE6A5BC1
(1785076365.860727) can0 0CF00400#FF7D7D000000FFFF
(1785076365.861269) can0 18FEE81C#1AB200002164267E
(1785076365.879685) can0 0CF00400#FF7D7D000000FFFF
(1785076365.887434) can0 18F01D21#D8B7158000B91580
(1785076365.899601) can0 0CF00400#FF7D7D000000FFFF
(1785076365.906875) can0 09F11219#08FEFFFF7FFF7FFC
(1785076365.919796) can0 0CF00400#FF7D7D000000FFFF
(1785076365.932067) can0 19F10D13#1849015001000181
(1785076365.939655) can0 0CF00400#FF7D7D000000FFFF
(1785076365.955695) can0 18FF50E0#01108722800080F4
(1785076365.960777) can0 0CF00400#FF7D7D000000FFFF
(1785076365.979613) can0 0CF00400#FF7D7D000000FFFF
(1785076365.986327) can0 18F01D21#D8B7158000B91580
(1785076365.991783) can0 09F112F8#FFDF750000FF7FFD
(1785076365.999622) can0 0CF00400#FF7D7D000000FFFF
(1785076366.006140) can0 09F11219#09FEFFFF7FFF7FFC
(1785076366.019652) can0 0CF00400#FF7D7D000000FFFF
(1785076366.032086) can0 19F10D13#1949015001000181
(1785076366.039657) can0 0CF00400#FF7D7D000000FFFF
(1785076366.056416) can0 18FF50E0#01108722800080F5
(1785076366.060404) can0 0CF00400#FF7D7D000000FFFF
(1785076366.079925) can0 0CF00400#FF7D7D000000FFFF
(1785076366.086736) can0 18F01D21#D8B7158000B91580
(1785076366.100888) can0 0CF00400#FF7D7D000000FFFF
(1785076366.106164) can0 09F11219#0AFEFFFF7FFF7FFC
(1785076366.119991) can0 0CF00400#FF7D7D000000FFFF
(1785076366.130126) can0 09F112F8#FFD9750000FF7FFD
(1785076366.132195) can0 19F10D13#1A4A015001000181
(1785076366.139665) can0 0CF00400#FF7D7D000000FFFF
(1785076366.157270) can0 18FF50E0#01108729800080F6
(1785076366.161288) can0 0CF00400#FF7D7D000000FFFF
(1785076366.179586) can0 0CF00400#FF7D7D000000FFFF
(1785076366.187070) can0 18F01D21#D8B7158000B91580
(1785076366.199828) can0 0CF00400#FF7D7D000000FFFF
(1785076366.206181) can0 09F11219#0BFEFFFF7FFF7FFC
(1785076366.219678) can0 0CF00400#FF7D7D000000FFFF
(1785076366.232057) can0 19F10D13#1B4B015001000180
(1785076366.239599) can0 0CF00400#FF7D7D000000FFFF
(1785076366.258692) can0 18FF50E0#01108729800080F7
(1785076366.260808) can0 0CF00400#FF7D7D000000FFFF
(1785076366.267304) can0 09F112F8#FFD6750000FF7FFD
(1785076366.279600) can0 0CF00400#FF7D7D000000FFFF
(1785076366.286426) can0 18F01D21#D8B7158000B91580
(1785076366.299674) can0 0CF00400#FF7D7D000000FFFF
(1785076366.306165) can0 09F11219#0CFEFFFF7FFF7FFC
(1785076366.319632) can0 0CF00400#FF7D7D000000FFFF
(1785076366.332331) can0 19F10D13#1C49015001000181
(1785076366.339601) can0 0CF00400#FF7D7D000000FFFF
(1785076366.360698) can0 18FF50E0#01108729800080F8
(1785076366.360784) can0 0CF00400#FF7D7D000000FFFF
(1785076366.363094) can0 09F8021C#DDFCD4F20100FFFF
(1785076366.364086) can0 09F8011C#5A6E2618D86A5BC1
(1785076366.368243) can0 18FEE81C#1AB200002164267E
(1785076366.380028) can0 0CF00400#FF7D7D000000FFFF
(1785076366.386998) can0 18F01D21#D8B7158000B91580
(1785076366.400505) can0 0CF00400#FF7D7D000000FFFF
(1785076366.407697) can0 09F11219#0DFEFFFF7FFF7FFC
(1785076366.410765) can0 09F112F8#FFCA750000FF7FFD
(1785076366.419619) can0 0CF00400#FF7D7D000000FFFF
(1785076366.432110) can0 19F10D13#1D49015001000181
(1785076366.439761) can0 0CF00400#FF7D7D000000FFFF
(1785076366.460785) can0 0CF00400#FF7D7D000000FFFF
(1785076366.461858) can0 18FF50E0#0110872E800080F9
(1785076366.479816) can0 0CF00400#FF7D7D000000FFFF
(1785076366.487235) can0 18F01D21#D8B7158000B91580
(1785076366.499626) can0 0CF00400#FF7D7D000000FFFF
(1785076366.506225) can0 09F11219#0EFEFFFF7FFF7FFC
(1785076366.519738) can0 0CF00400#FF7D7D000000FFFF
(1785076366.532261) can0 19F10D13#1E4A015001000181
(1785076366.539664) can0 0CF00400#FF7D7D000000FFFF
(1785076366.545227) can0 09F112F8#FFBF750000FF7FFD
(1785076366.560741) can0 0CF00400#FF7D7D000000FFFF
(1785076366.562700) can0 18FF50E0#0110872E800080FA
(1785076366.579617) can0 0CF00400#FF7D7D000000FFFF
(1785076366.586444) can0 18F01D21#D8B7158000B91580
(1785076366.599622) can0 0CF00400#FF7D7D000000FFFF
(1785076366.606277) can0 09F11219#0FFEFFFF7FFF7FFC
(1785076366.619750) can0 0CF00400#FF7D7D000000FFFF
(1785076366.632090) can0 19F10D13#1F4A015001000181
(1785076366.639769) can0 0CF00400#FF7D7D000000FFFF
(1785076366.660714) can0 0CF00400#FF7D7D000000FFFF
(1785076366.663573) can0 18FF50E0#01108735800080FB
(1785076366.679638) can0 0CF00400#FF7D7D000000FFFF
(1785076366.683137) can0 09F112F8#FFB8750000FF7FFD
(1785076366.686761) can0 18F01D21#D8B7158000B91580
(1785076366.699641) can0 0CF00400#FF7D7D000000FFFF
(1785076366.706519) can0 09F11219#10FEFFFF7FFF7FFC
(1785076366.719763) can0 0CF00400#FF7D7D000000FFFF
(1785076366.732266) can0 19F10D13#204C01500100017F
(1785076366.739754) can0 0CF00400#FF7D7D000000FFFF
(1785076366.760741) can0 0CF00400#FF7D7D000000FFFF
(1785076366.765027) can0 18FF50E0#01108735800080FC
(1785076366.779576) can0 0CF00400#FF7D7D000000FFFF
(1785076366.787315) can0 18F01D21#D8B7158000B91580
(1785076366.799643) can0 0CF00400#FF7D7D000000FFFF
(1785076366.806310) can0 09F11219#11FEFFFF7FFF7FFC
(1785076366.819721) can0 0CF00400#FF7D7D000000FFFF
(1785076366.832366) can0 19F10D13#214A015001000181
(1785076366.834790) can0 09F112F8#FFAF750000FF7FFD
(1785076366.839586) can0 0CF00400#FF7D7D000000FFFF
(1785076366.860798) can0 0CF00400#FF7D7D000000FFFF
(1785076366.867019) can0 18FF50E0#01108735800080FD
(1785076366.868830) can0 09F8021C#DEFCD4F20100FFFF
(1785076366.869734) can0 09F8011C#5A6E2618DE6A5BC1
(1785076366.872809) can0 18FEE81C#1AB200002164267E
(1785076366.879616) can0 0CF00400#FF7D7D000000FFFF
(1785076366.886549) can0 18F01D21#D8B7158000B91580
(1785076366.900250) can0 0CF00400#FF7D7D000000FFFF
(1785076366.907357) can0 09F11219#12FEFFFF7FFF7FFC
(1785076366.919613) can0 0CF00400#FF7D7D000000FFFF
(1785076366.932101) can0 19F10D13#224A015001000181
(1785076366.939561) can0 0CF00400#FF7D7D000000FFFF
(1785076366.958472) can0 09F112F8#FFA3750000FF7FFD
(1785076366.960774) can0 0CF00400#FF7D7D000000FFFF
(1785076366.967923) can0 18FF50E0#0110873F800080FE
(1785076366.980016) can0 0CF00400#FF7D7D000000FFFF
(1785076366.987027) can0 18F01D21#D8B7158000B91580
(1785076367.000275) can0 0CF00400#FF7D7D000000FFFF
(1785076367.006266) can0 09F11219#13FEFFFF7FFF7FFC
(1785076367.019943) can0 0CF00400#FF7D7D000000FFFF
(1785076367.032022) can0 19F10D13#2348015001000182
(1785076367.040151) can0 0CF00400#FF7D7D000000FFFF
(1785076367.061081) can0 0CF00400#FF7D7D000000FFFF
(1785076367.069768) can0 18FF50E0#0110873F800080FF
(1785076367.080687) can0 0CF00400#FF7D7D000000FFFF
(1785076367.087389) can0 18F01D21#D8B7158000B91580
(1785076367.097569) can0 09F112F8#FFA8750000FF7FFD
(1785076367.099555) can0 0CF00400#FF7D7D000000FFFF
(1785076367.106256) can0 09F11219#14FEFFFF7FFF7FFC
(1785076367.119604) can0 0CF00400#FF7D7D000000FFFF
(1785076367.132091) can0 19F10D13#2449015001000181
(1785076367.139621) can0 0CF00400#FF7D7D000000FFFF
(1785076367.160685) can0 0CF00400#FF7D7D000000FFFF
(1785076367.170799) can0 18FF50E0#0110874780008000
(1785076367.179577) can0 0CF00400#FF7D7D000000FFFF
(1785076367.186515) can0 18F01D21#D8B7158000B91580
(1785076367.199561) can0 0CF00400#FF7D7D000000FFFF
(1785076367.206280) can0 09F11219#15FEFFFF7FFF7FFC
(1785076367.219640) can0 0CF00400#FF7D7D000000FFFF
(1785076367.232250) can0 19F10D13#2548015001000182
(1785076367.233375) can0 09F112F8#FFAE750000FF7FFD
(1785076367.239732) can0 0CF00400#FF7D7D000000FFFF
(1785076367.260761) can0 0CF00400#FF7D7D000000FFFF
(1785076367.272708) can0 18FF50E0#0110874780008001
(1785076367.279614) can0 0CF00400#FF7D7D000000FFFF
(1785076367.286876) can0 18F01D21#D8B7158000B91580
(1785076367.299591) can0 0CF00400#FF7D7D000000FFFF
(1785076367.306259) can0 09F11219#16FEFFFF7FFF7FFC
(1785076367.319732) can0 0CF00400#FF7D7D000000FFFF
(1785076367.332412) can0 19F10D13#2649015001000181
(1785076367.339625) can0 0CF00400#FF7D7D000000FFFF
(1785076367.360675) can0 0CF00400#FF7D7D000000FFFF
(1785076367.373070) can0 09F112F8#FFB2750000FF7FFD
(1785076367.374735) can0 09F8021C#DFFCD4F20200FFFF
(1785076367.375010) can0 18FF50E0#0110874780008002
(1785076367.376520) can0 09F8011C#586E2618E86A5BC1
(1785076367.379991) can0 0CF00400#FF7D7D000000FFFF
(1785076367.380456) can0 18FEE81C#1AB200002164267E
(1785076367.387350) can0 18F01D21#D8B7158000B91580
(1785076367.399731) can0 0CF00400#FF7D7D000000FFFF
(1785076367.407426) can0 09F11219#17FEFFFF7FFF7FFC
(1785076367.419615) can0 0CF00400#FF7D7D000000FFFF
(1785076367.432228) can0 19F10D13#274B015001000180
(1785076367.439590) can0 0CF00400#FF7D7D000000FFFF
(1785076367.460669) can0 0CF00400#FF7D7D000000FFFF
(1785076367.476159) can0 18FF50E0#0110874880008003
(1785076367.479628) can0 0CF00400#FF7D7D000000FFFF
(1785076367.486643) can0 18F01D21#D8B7158000B91580
(1785076367.499642) can0 0CF00400#FF7D7D000000FFFF
(1785076367.506286) can0 09F11219#18FEFFFF7FFF7FFC
(1785076367.510788) can0 09F112F8#FFB6750000FF7FFD
(1785076367.519629) can0 0CF00400#FF7D7D000000FFFF
(1785076367.532009) can0 19F10D13#284A015001000181
(1785076367.539564) can0 0CF00400#FF7D7D000000FFFF
(1785076367.560757) can0 0CF00400#FF7D7D000000FFFF
(1785076367.577143) can0 18FF50E0#0110874880008004
(1785076367.579747) can0 0CF00400#FF7D7D000000FFFF
(1785076367.587036) can0 18F01D21#D8B7158000B91580
(1785076367.599605) can0 0CF00400#FF7D7D000000FFFF
(1785076367.606434) can0 09F11219#19FEFFFF7FFF7FFC
(1785076367.619592) can0 0CF00400#FF7D7D000000FFFF
(1785076367.632030) can0 19F10D13#2949015001000181
(1785076367.639549) can0 0CF00400#FF7D7D000000FFFF
(1785076367.650130) can0 09F112F8#FFB6750000FF7FFD
(1785076367.660744) can0 0CF00400#FF7D7D000000FFFF
(1785076367.678129) can0 18FF50E0#0110874680008005
(1785076367.679745) can0 0CF00400#FF7D7D000000FFFF
(1785076367.687388) can0 18F01D21#D8B7158000B91580
(1785076367.699560) can0 0CF00400#FF7D7D000000FFFF
(1785076367.706316) can0 09F11219#1AFEFFFF7FFF7FFC
(1785076367.719712) can0 0CF00400#FF7D7D000000FFFF
(1785076367.732252) can0 19F10D13#2A4A015001000181
(1785076367.739730) can0 0CF00400#FF7D7D000000FFFF
(1785076367.760719) can0 0CF00400#FF7D7D000000FFFF
(1785076367.779530) can0 0CF00400#FF7D7D000000FFFF
(1785076367.779789) can0 18FF50E0#0110874680008006
(1785076367.786634) can0 18F01D21#D8B7158000B91580
(1785076367.788349) can0 09F112F8#FFB5750000FF7FFD
(1785076367.799525) can0 0CF00400#FF7D7D000000FFFF
(1785076367.806209) can0 09F11219#1BFEFFFF7FFF7FFC
(1785076367.819592) can0 0CF00400#FF7D7D000000FFFF
(1785076367.832091) can0 19F10D13#2B48015001000182
(1785076367.839948) can0 0CF00400#FF7D7D000000FFFF
(1785076367.860764) can0 0CF00400#FF7D7D000000FFFF
(1785076367.879538) can0 0CF00400#FF7D7D000000FFFF
(1785076367.881422) can0 18FF50E0#0110874680008007
(1785076367.886948) can0 09F8021C#E0FCD4F20200FFFF
(1785076367.887446) can0 18F01D21#D8B7158000B91580
(1785076367.887980) can0 09F8011C#546E2618F26A5BC1
(1785076367.892025) can0 18FEE81C#1AB200002064257E
(1785076367.899576) can0 0CF00400#FF7D7D000000FFFF
(1785076367.907034) can0 09F11219#1CFEFFFF7FFF7FFC
(1785076367.919767) can0 0CF00400#FF7D7D000000FFFF
(1785076367.928329) can0 09F112F8#FFB2750000FF7FFD
(1785076367.932031) can0 19F10D13#2C4A015001000181
(1785076367.940003) can0 0CF00400#FF7D7D000000FFFF
(1785076367.961251) can0 0CF00400#FF7D7D000000FFFF
(1785076367.979577) can0 0CF00400#FF7D7D000000FFFF
(1785076367.982310) can0 18FF50E0#0110874580008008
(1785076367.987728) can0 18F01D21#D8B7158000B91580
(1785076367.999750) can0 0CF00400#FF7D7D000000FFFF
(1785076368.006301) can0 09F11219#1DFEFFFF7FFF7FFC
(1785076368.019763) can0 0CF00400#FF7D7D000000FFFF
(1785076368.032233) can0 19F10D13#2D49015001000181
(1785076368.039543) can0 0CF00400#FF7D7D000000FFFF
(1785076368.060602) can0 0CF00400#FF7D7D000000FFFF
(1785076368.066853) can0 09F112F8#FFB0750000FF7FFD
(1785076368.080029) can0 0CF00400#FF7D7D000000FFFF
(1785076368.083269) can0 18FF50E0#0110874580008009
(1785076368.087281) can0 18F01D21#D8B7158000B91580
(1785076368.099586) can0 0CF00400#FF7D7D000000FFFF
(1785076368.106318) can0 09F11219#1EFEFFFF7FFF7FFC
(1785076368.119595) can0 0CF00400#FF7D7D000000FFFF
(1785076368.132098) can0 19F10D13#2E4A015001000181
(1785076368.139546) can0 0CF00400#FF7D7D000000FFFF
(1785076368.160732) can0 0CF00400#FF7D7D000000FFFF
(1785076368.179624) can0 0CF00400#FF7D7D000000FFFF
(1785076368.185009) can0 18FF50E0#011087468000800A
(1785076368.187250) can0 18F01D21#D8B7158000B91580
(1785076368.199710) can0 0CF00400#FF7D7D000000FFFF
(1785076368.203977) can0 09F112F8#FFB1750000FF7FFD
(1785076368.206329) can0 09F11219#1FFEFFFF7FFF7FFC
(1785076368.219524) can0 0CF00400#FF7D7D000000FFFF
(1785076368.232019) can0 19F10D13#2F49015001000181
(1785076368.239582) can0 0CF00400#FF7D7D000000FFFF
(1785076368.260714) can0 0CF00400#FF7D7D000000FFFF
(1785076368.279745) can0 0CF00400#FF7D7D000000FFFF
(1785076368.286569) can0 18FF50E0#011087468000800B
(1785076368.288031) can0 18F01D21#D8B7158000B91580
(1785076368.299521) can0 0CF00400#FF7D7D000000FFFF
(1785076368.306343) can0 09F11219#20FEFFFF7FFF7FFC
(1785076368.319567) can0 0CF00400#FF7D7D000000FFFF
(1785076368.332121) can0 19F10D13#304A015001000181
(1785076368.339576) can0 0CF00400#FF7D7D000000FFFF
(1785076368.351875) can0 09F112F8#FFB2750000FF7FFD
(1785076368.360638) can0 0CF00400#FF7D7D000000FFFF
(1785076368.379516) can0 0CF00400#FF7D7D000000FFFF
(1785076368.386740) can0 18F01D21#D8B7158000B91580
(1785076368.389578) can0 18FF50E0#011087468000800C
(1785076368.395480) can0 09F8021C#E1FCD4F20200FFFF
(1785076368.396444) can0 09F8011C#506E2618FE6A5BC1
(1785076368.399485) can0 0CF00400#FF7D7D000000FFFF
(1785076368.400625) can0 18FEE81C#1AB200002064257E
(1785076368.414758) can0 09F11219#21FEFFFF7FFF7FFC
(1785076368.419587) can0 0CF00400#FF7D7D000000FFFF
(1785076368.432561) can0 19F10D13#314A015001000181
(1785076368.439595) can0 0CF00400#FF7D7D000000FFFF
(1785076368.460647) can0 0CF00400#FF7D7D000000FFFF
(1785076368.479584) can0 0CF00400#FF7D7D000000FFFF
(1785076368.480862) can0 09F112F8#FFB5750000FF7FFD
(1785076368.487451) can0 18F01D21#D8B7158000B91580
(1785076368.491365) can0 18FF50E0#011087468000800D
(1785076368.499553) can0 0CF00400#FF7D7D000000FFFF
(1785076368.506280) can0 09F11219#22FEFFFF7FFF7FFC
(1785076368.519721) can0 0CF00400#FF7D7D000000FFFF
(1785076368.532231) can0 19F10D13#3249015001000181
(1785076368.539747) can0 0CF00400#FF7D7D000000FFFF
(1785076368.560682) can0 0CF00400#FF7D7D000000FFFF
(1785076368.579519) can0 0CF00400#FF7D7D000000FFFF
(1785076368.587754) can0 18F01D21#D8B7158000B91580
(1785076368.592458) can0 18FF50E0#011087468000800E
(1785076368.599710) can0 0CF00400#FF7D7D000000FFFF
(1785076368.606343) can0 09F11219#23FEFFFF7FFF7FFC
(1785076368.617544) can0 09F112F8#FFBA750000FF7FFD
(1785076368.619699) can0 0CF00400#FF7D7D000000FFFF
(1785076368.632034) can0 19F10D13#3348015001000182
(1785076368.639498) can0 0CF00400#FF7D7D000000FFFF
(1785076368.660618) can0 0CF00400#FF7D7D000000FFFF
(1785076368.679508) can0 0CF00400#FF7D7D000000FFFF
(1785076368.687474) can0 18F01D21#D8B7158000B91580
(1785076368.693260) can0 18FF50E0#011087448000800F
(1785076368.699539) can0 0CF00400#FF7D7D000000FFFF
(1785076368.706319) can0 09F11219#24FEFFFF7FFF7FFC
(1785076368.719696) can0 0CF00400#FF7D7D000000FFFF
(1785076368.729149) can0 18EEFF1C#0204450E00000042
(1785076368.732030) can0 19F10D13#3449015001000181
(1785076368.739495) can0 0CF00400#FF7D7D000000FFFF
(1785076368.758224) can0 09F112F8#FFBC750000FF7FFD
(1785076368.760684) can0 0CF00400#FF7D7D000000FFFF
(1785076368.779552) can0 0CF00400#FF7D7D000000FFFF
(1785076368.788043) can0 18F01D21#D8B7158000B91580
(1785076368.794306) can0 18FF50E0#0110874480008010
(1785076368.799499) can0 0CF00400#FF7D7D000000FFFF
(1785076368.806304) can0 09F11219#25FEFFFF7FFF7FFC
(1785076368.819674) can0 0CF00400#FF7D7D000000FFFF
(1785076368.832029) can0 19F10D13#3549015001000181
(1785076368.839898) can0 0CF00400#FF7D7D000000FFFF
(1785076368.861387) can0 0CF00400#FF7D7D000000FFFF
(1785076368.879480) can0 0CF00400#FF7D7D000000FFFF
(1785076368.886603) can0 18F01D21#D8B7158000B91580
(1785076368.895395) can0 18FF50E0#0110874480008011
(1785076368.899645) can0 0CF00400#FF7D7D000000FFFF
(1785076368.901134) can0 09F112F8#FFBC750000FF7FFD
(1785076368.904057) can0 09F8021C#E2FCD4F20000FFFF
(1785076368.905179) can0 09F8011C#4C6E2618066B5BC1
(1785076368.907423) can0 09F11219#26FEFFFF7FFF7FFC
(1785076368.909131) can0 18FEE81C#1AB200002064247E
(1785076368.919903) can0 0CF00400#FF7D7D000000FFFF
(1785076368.932024) can0 19F10D13#364A015001000181
(1785076368.939558) can0 0CF00400#FF7D7D000000FFFF
(1785076368.960630) can0 0CF00400#FF7D7D000000FFFF
(1785076368.979569) can0 0CF00400#FF7D7D000000FFFF
(1785076368.986942) can0 18F01D21#D8B7158000B91580
(1785076368.996208) can0 18FF50E0#0110874280008012
(1785076368.999524) can0 0CF00400#FF7D7D000000FFFF
(1785076369.006376) can0 09F11219#27FEFFFF7FFF7FFC
(1785076369.019541) can0 0CF00400#FF7D7D000000FFFF
(1785076369.032031) can0 19F10D13#3748015001000182
(1785076369.034908) can0 09F112F8#FFBF750000FF7FFD
(1785076369.039556) can0 0CF00400#FF7D7D000000FFFF
(1785076369.060356) can0 0CF00400#FF7D7D000000FFFF
(1785076369.079949) can0 0CF00400#FF7D7D000000FFFF
(1785076369.087257) can0 18F01D21#D8B7158000B91580
(1785076369.097290) can0 18FF50E0#0110874280008013
(1785076369.100626) can0 0CF00400#FF7D7D000000FFFF
(1785076369.106275) can0 09F11219#28FEFFFF7FFF7FFC
(1785076369.119496) can0 0CF00400#FF7D7D000000FFFF
(1785076369.132201) can0 19F10D13#3849015001000181
(1785076369.139555) can0 0CF00400#FF7D7D000000FFFF
(1785076369.160670) can0 0CF00400#FF7D7D000000FFFF
(1785076369.178304) can0 09F112F8#FFC3750000FF7FFD
(1785076369.179523) can0 0CF00400#FF7D7D000000FFFF
(1785076369.186671) can0 18F01D21#D8B7158000B91580
(1785076369.198774) can0 18FF50E0#0110873F80008014
(1785076369.199486) can0 0CF00400#FF7D7D000000FFFF
(1785076369.206358) can0 09F11219#29FEFFFF7FFF7FFC
(1785076369.219705) can0 0CF00400#FF7D7D000000FFFF
(1785076369.232241) can0 19F10D13#394A015001000181
(1785076369.239507) can0 0CF00400#FF7D7D000000FFFF
(1785076369.260689) can0 0CF00400#FF7D7D000000FFFF
(1785076369.279469) can0 0CF00400#FF7D7D000000FFFF
(1785076369.286995) can0 18F01D21#D8B7158000B91580
(1785076369.299538) can0 0CF00400#FF7D7D000000FFFF
(1785076369.299733) can0 18FF50E0#0110873F80008015
(1785076369.306374) can0 09F11219#2AFEFFFF7FFF7FFC
(1785076369.313968) can0 09F112F8#FFC9750000FF7FFD
(1785076369.319694) can0 0CF00400#FF7D7D000000FFFF
(1785076369.332013) can0 19F10D13#3A49015001000181
(1785076369.339579) can0 0CF00400#FF7D7D000000FFFF
(1785076369.360696) can0 0CF00400#FF7D7D000000FFFF
(1785076369.379466) can0 0CF00400#FF7D7D000000FFFF
(1785076369.387323) can0 18F01D21#D8B7158000B91580
(1785076369.399542) can0 0CF00400#FF7D7D000000FFFF
(1785076369.400723) can0 18FF50E0#0110873F80008016
(1785076369.406913) can0 09F11219#2BFEFFFF7FFF7FFC
(1785076369.410634) can0 09F8021C#E3FCD4F20200FFFF
(1785076369.411611) can0 09F8011C#4A6E2618106B5BC1
(1785076369.415014) can0 18FEE81C#1AB200002064247E
(1785076369.419508) can0 0CF00400#FF7D7D000000FFFF
(1785076369.432462) can0 19F10D13#3B4B015001000180
(1785076369.439531) can0 0CF00400#FF7D7D000000FFFF
(1785076369.452918) can0 09F112F8#FFCC750000FF7FFD
(1785076369.460679) can0 0CF00400#FF7D7D000000FFFF
(1785076369.479674) can0 0CF00400#FF7D7D000000FFFF
(1785076369.486970) can0 18F01D21#D8B7158000B91580
(1785076369.499490) can0 0CF00400#FF7D7D000000FFFF
(1785076369.502099) can0 18FF50E0#0110873C80008017
(1785076369.506385) can0 09F11219#2CFEFFFF7FFF7FFC
(1785076369.519511) can0 0CF00400#FF7D7D000000FFFF
(1785076369.532186) can0 19F10D13#3C4A015001000181
(1785076369.539680) can0 0CF00400#FF7D7D000000FFFF
(1785076369.560612) can0 0CF00400#FF7D7D000000FFFF
(1785076369.579678) can0 0CF00400#FF7D7D000000FFFF
(1785076369.587035) can0 18F01D21#D8B7158000B91580
(1785076369.591462) can0 09F112F8#FFCF750000FF7FFD
(1785076369.599514) can0 0CF00400#FF7D7D000000FFFF
(1785076369.603933) can0 18FF50E0#0110873C80008018
(1785076369.606297) can0 09F11219#2DFEFFFF7FFF7FFC
(1785076369.619478) can0 0CF00400#FF7D7D000000FFFF
(1785076369.632072) can0 19F10D13#3D49015001000181
(1785076369.639477) can0 0CF00400#FF7D7D000000FFFF
(1785076369.660584) can0 0CF00400#FF7D7D000000FFFF
(1785076369.679447) can0 0CF00400#FF7D7D000000FFFF
(1785076369.687433) can0 18F01D21#D8B7158000B91580
(1785076369.699444) can0 0CF00400#FF7D7D000000FFFF
(1785076369.704638) can0 18FF50E0#0110873880008019
(1785076369.706285) can0 09F11219#2EFEFFFF7FFF7FFC
(1785076369.719643) can0 0CF00400#FF7D7D000000FFFF
(1785076369.730324) can0 09F112F8#FFD1750000FF7FFD
(1785076369.732254) can0 19F10D13#3E48015001000182
(1785076369.739769) can0 0CF00400#FF7D7D000000FFFF
(1785076369.748569) can0 18EEFF1C#0204450E00000042
(1785076369.760560) can0 0CF00400#FF7D7D000000FFFF
(1785076369.779451) can0 0CF00400#FF7D7D000000FFFF
(1785076369.786674) can0 18F01D21#D8B7158000B91580
(1785076369.799467) can0 0CF00400#FF7D7D000000FFFF
(1785076369.806032) can0 18FF50E0#011087388000801A
(1785076369.806444) can0 09F11219#2FFEFFFF7FFF7FFC
(1785076369.819478) can0 0CF00400#FF7D7D000000FFFF
(1785076369.832098) can0 19F10D13#3F49015001000181
(1785076369.839660) can0 0CF00400#FF7D7D000000FFFF
(1785076369.861156) can0 0CF00400#FF7D7D000000FFFF
(1785076369.879456) can0 0CF00400#FF7D7D000000FFFF
(1785076369.881397) can0 09F112F8#FFD3750000FF7FFD
(1785076369.887294) can0 18F01D21#D8B7158000B91580
(1785076369.899529) can0 0CF00400#FF7D7D000000FFFF
(1785076369.906759) can0 18FF50E0#011087388000801B
(1785076369.907189) can0 09F11219#30FEFFFF7FFF7FFC
(1785076369.915199) can0 09F8021C#E4FCD4F20000FFFF
(1785076369.916193) can0 09F8011C#4A6E2618146B5BC1
(1785076369.919284) can0 18FEE81C#1AB200002064237E
(1785076369.919783) can0 0CF00400#FF7D7D000000FFFF
(1785076369.932025) can0 19F10D13#404A015001000181
(1785076369.939490) can0 0CF00400#FF7D7D000000FFFF
(1785076369.960636) can0 0CF00400#FF7D7D000000FFFF
(1785076369.979496) can0 0CF00400#FF7D7D000000FFFF
(1785076369.987677) can0 18F01D21#D8B7158000B91580
(1785076369.999533) can0 0CF00400#FF7D7D000000FFFF
(1785076370.006375) can0 09F11219#31FEFFFF7FFF7FFC
(1785076370.007879) can0 18FF50E0#011087358000801C
(1785076370.008712) can0 09F112F8#FFD6750000FF7FFD
(1785076370.019469) can0 0CF00400#FF7D7D000000FFFF
(1785076370.032104) can0 19F10D13#414A015001000181
(1785076370.039467) can0 0CF00400#FF7D7D000000FFFF
(1785076370.060518) can0 0CF00400#FF7D7D000000FFFF
(1785076370.079503) can0 0CF00400#FF7D7D000000FFFF
(1785076370.087258) can0 18F01D21#D8B7158000B91580
(1785076370.100127) can0 0CF00400#FF7D7D000000FFFF
(1785076370.106254) can0 09F11219#32FEFFFF7FFF7FFC
(1785076370.108616) can0 18FF50E0#011087358000801D
(1785076370.119497) can0 0CF00400#FF7D7D000000FFFF
(1785076370.132037) can0 19F10D13#4249015001000181
(1785076370.139500) can0 0CF00400#FF7D7D000000FFFF
(1785076370.148569) can0 09F112F8#FFD7750000FF7FFD
(1785076370.160669) can0 0CF00400#FF7D7D000000FFFF
(1785076370.179511) can0 0CF00400#FF7D7D000000FFFF
(1785076370.187242) can0 18F01D21#D8B7158000B91580
(1785076370.199442) can0 0CF00400#FF7D7D000000FFFF
(1785076370.206249) can0 09F11219#33FEFFFF7FFF7FFC
(1785076370.209627) can0 18FF50E0#011087328000801E
(1785076370.219496) can0 0CF00400#FF7D7D000000FFFF
(1785076370.232066) can0 19F10D13#434A015001000181
(1785076370.239504) can0 0CF00400#FF7D7D000000FFFF
(1785076370.260657) can0 0CF00400#FF7D7D000000FFFF
(1785076370.279444) can0 0CF00400#FF7D7D000000FFFF
(1785076370.284987) can0 09F112F8#FFD6750000FF7FFD
(1785076370.287481) can0 18F01D21#D8B7158000B91580
(1785076370.299479) can0 0CF00400#FF7D7D000000FFFF
(1785076370.306397) can0 09F11219#34FEFFFF7FFF7FFC
(1785076370.310786) can0 18FF50E0#011087328000801F
(1785076370.319509) can0 0CF00400#FF7D7D000000FFFF
(1785076370.332254) can0 19F10D13#4448015001000182
(1785076370.339659) can0 0CF00400#FF7D7D000000FFFF
(1785076370.360629) can0 0CF00400#FF7D7D000000FFFF
(1785076370.379493) can0 0CF00400#FF7D7D000000FFFF
(1785076370.386856) can0 18F01D21#D8B7158000B91580
(1785076370.399478) can0 0CF00400#FF7D7D000000FFFF
(1785076370.410003) can0 09F11219#35FEFFFF7FFF7FFC
(1785076370.412285) can0 18FF50E0#0110873280008020
(1785076370.419502) can0 0CF00400#FF7D7D000000FFFF
(1785076370.422825) can0 09F8021C#E5FCD4F20200FFFF
(1785076370.423771) can0 09F8011C#466E26181E6B5BC1
(1785076370.427853) can0 18FEE81C#1AB200002064237E
(1785076370.430103) can0 09F112F8#FFD8750000FF7FFD
(1785076370.432461) can0 19F10D13#4549015001000181
(1785076370.439549) can0 0CF00400#FF7D7D000000FFFF
(1785076370.460459) can0 0CF00400#FF7D7D000000FFFF
(1785076370.479511) can0 0CF00400#FF7D7D000000FFFF
(1785076370.488313) can0 18F01D21#D8B7158000B91580
(1785076370.499607) can0 0CF00400#FF7D7D000000FFFF
(1785076370.506336) can0 09F11219#36FEFFFF7FFF7FFC
(1785076370.513944) can0 18FF50E0#0110873080008021
(1785076370.519645) can0 0CF00400#FF7D7D000000FFFF
(1785076370.532235) can0 19F10D13#4649015001000181
(1785076370.539432) can0 0CF00400#FF7D7D000000FFFF
(1785076370.560567) can0 0CF00400#FF7D7D000000FFFF
(1785076370.568240) can0 09F112F8#FFD7750000FF7FFD
(1785076370.579474) can0 0CF00400#FF7D7D000000FFFF
(1785076370.587727) can0 18F01D21#D8B7158000B91580
(1785076370.599476) can0 0CF00400#FF7D7D000000FFFF
(1785076370.606338) can0 09F11219#37FEFFFF7FFF7FFC
(1785076370.615862) can0 18FF50E0#0110873080008022
(1785076370.619505) can0 0CF00400#FF7D7D000000FFFF
(1785076370.632022) can0 19F10D13#474A015001000181
(1785076370.639672) can0 0CF00400#FF7D7D000000FFFF
(1785076370.660443) can0 0CF00400#FF7D7D000000FFFF
(1785076370.679584) can0 0CF00400#FF7D7D000000FFFF
(1785076370.687144) can0 18F01D21#D8B7158000B91580
(1785076370.699463) can0 0CF00400#FF7D7D000000FFFF
(1785076370.706269) can0 09F11219#38FEFFFF7FFF7FFC
(1785076370.707430) can0 09F112F8#FFD6750000FF7FFD
(1785076370.717520) can0 18FF50E0#0110873080008023
(1785076370.719418) can0 0CF00400#FF7D7D000000FFFF
(1785076370.732019) can0 19F10D13#4849015001000181
(1785076370.739484) can0 0CF00400#FF7D7D000000FFFF
(1785076370.748515) can0 18EEFF1C#0204450E00000042
(1785076370.761199) can0 0CF00400#FF7D7D000000FFFF
(1785076370.779706) can0 0CF00400#FF7D7D000000FFFF
(1785076370.787365) can0 18F01D21#D8B7158000B91580
(1785076370.799470) can0 0CF00400#FF7D7D000000FFFF
(1785076370.806274) can0 09F11219#39FEFFFF7FFF7FFC
(1785076370.819456) can0 0CF00400#FF7D7D000000FFFF
(1785076370.820338) can0 18FF50E0#0110873080008024
(1785076370.832078) can0 19F10D13#4949015001000181
(1785076370.839397) can0 0CF00400#FF7D7D000000FFFF
(1785076370.844971) can0 09F112F8#FFD4750000FF7FFD
(1785076370.860582) can0 0CF00400#FF7D7D000000FFFF
(1785076370.879476) can0 0CF00400#FF7D7D000000FFFF
(1785076370.888074) can0 18F01D21#D8B7158000B91580
(1785076370.900242) can0 0CF00400#FF7D7D000000FFFF
(1785076370.906958) can0 09F11219#3AFEFFFF7FFF7FFC
(1785076370.919440) can0 0CF00400#FF7D7D000000FFFF
(1785076370.921692) can0 18FF50E0#0110873080008025
(1785076370.928313) can0 09F8021C#E6FCD4F20000FFFF
(1785076370.929297) can0 09F8011C#466E2618266B5BC1
(1785076370.932068) can0 19F10D13#4A49015001000181
(1785076370.933709) can0 18FEE81C#1AB200002064237E
(1785076370.939435) can0 0CF00400#FF7D7D000000FFFF
(1785076370.960542) can0 0CF00400#FF7D7D000000FFFF
(1785076370.979465) can0 0CF00400#FF7D7D000000FFFF
(1785076370.984004) can0 09F112F8#FFD6750000FF7FFD
(1785076370.987013) can0 18F01D21#D8B7158000B91580
(1785076370.999424) can0 0CF00400#FF7D7D000000FFFF
(1785076371.006392) can0 09F11219#3BFEFFFF7FFF7FFC
(1785076371.019466) can0 0CF00400#FF7D7D000000FFFF
(1785076371.022840) can0 18FF50E0#0110873080008026
(1785076371.032068) can0 19F10D13#4B49015001000181
(1785076371.039466) can0 0CF00400#FF7D7D000000FFFF
(1785076371.060561) can0 0CF00400#FF7D7D000000FFFF
(1785076371.079789) can0 0CF00400#FF7D7D000000FFFF
(1785076371.087352) can0 18F01D21#D8B7158000B91580
(1785076371.100199) can0 0CF00400#FF7D7D000000FFFF
(1785076371.106376) can0 09F11219#3CFEFFFF7FFF7FFC
(1785076371.119481) can0 0CF00400#FF7D7D000000FFFF
(1785076371.123195) can0 09F112F8#FFD6750000FF7FFD
(1785076371.124026) can0 18FF50E0#0110873080008027
(1785076371.132197) can0 19F10D13#4C4A015001000181
(1785076371.139598) can0 0CF00400#FF7D7D000000FFFF
(1785076371.160545) can0 0CF00400#FF7D7D000000FFFF
(1785076371.179469) can0 0CF00400#FF7D7D000000FFFF
(1785076371.187775) can0 18F01D21#D8B7158000B91580
(1785076371.199390) can0 0CF00400#FF7D7D000000FFFF
(1785076371.206461) can0 09F11219#3DFEFFFF7FFF7FFC
(1785076371.219468) can0 0CF00400#FF7D7D000000FFFF
(1785076371.225978) can0 18FF50E0#0110873080008028
(1785076371.232114) can0 19F10D13#4D49015001000181
(1785076371.239562) can0 0CF00400#FF7D7D000000FFFF
(1785076371.260591) can0 0CF00400#FF7D7D000000FFFF
(1785076371.266854) can0 09F112F8#FFD8750000FF7FFD
(1785076371.279490) can0 0CF00400#FF7D7D000000FFFF
(1785076371.287036) can0 18F01D21#D8B7158000B91580
(1785076371.299401) can0 0CF00400#FF7D7D000000FFFF
(1785076371.306376) can0 09F11219#3EFEFFFF7FFF7FFC
(1785076371.319487) can0 0CF00400#FF7D7D000000FFFF
(1785076371.327034) can0 18FF50E0#0110873080008029
(1785076371.332038) can0 19F10D13#4E4A015001000181
(1785076371.339463) can0 0CF00400#FF7D7D000000FFFF
(1785076371.360538) can0 0CF00400#FF7D7D000000FFFF
(1785076371.379457) can0 0CF00400#FF7D7D000000FFFF
(1785076371.387929) can0 18F01D21#D8B7158000B91580
(1785076371.399438) can0 0CF00400#FF7D7D000000FFFF
(1785076371.407023) can0 09F11219#3FFEFFFF7FFF7FFC
(1785076371.415084) can0 09F112F8#FFDA750000FF7FFD
(1785076371.419385) can0 0CF00400#FF7D7D000000FFFF
(1785076371.428795) can0 18FF50E0#011087308000802A
(1785076371.432113) can0 19F10D13#4F49015001000181
(1785076371.439018) can0 09F8021C#E7FCD4F20000FFFF
(1785076371.439462) can0 0CF00400#FF7D7D000000FFFF
(1785076371.440003) can0 09F8011C#426E2618366B5BC1
(1785076371.443014) can0 18FEE81C#1AB200002064237E
(1785076371.460567) can0 0CF00400#FF7D7D000000FFFF
(1785076371.479581) can0 0CF00400#FF7D7D000000FFFF
(1785076371.487766) can0 18F01D21#D8B7158000B91580
(1785076371.499447) can0 0CF00400#FF7D7D000000FFFF
(1785076371.506314) can0 09F11219#40FEFFFF7FFF7FFC
(1785076371.519391) can0 0CF00400#FF7D7D000000FFFF
(1785076371.531131) can0 18FF50E0#0110872F8000802B
(1785076371.532076) can0 19F10D13#5049015001000181
(1785076371.539554) can0 0CF00400#FF7D7D000000FFFF
(1785076371.544955) can0 09F112F8#FFDC750000FF7FFD
(1785076371.560356) can0 0CF00400#FF7D7D000000FFFF
(1785076371.579437) can0 0CF00400#FF7D7D000000FFFF
(1785076371.587177) can0 18F01D21#D8B7158000B91580
(1785076371.599441) can0 0CF00400#FF7D7D000000FFFF
(1785076371.606371) can0 09F11219#41FEFFFF7FFF7FFC
(1785076371.619465) can0 0CF00400#FF7D7D000000FFFF
(1785076371.632053) can0 19F10D13#514B015001000180
(1785076371.632086) can0 18FF50E0#0110872F8000802C
(1785076371.639463) can0 0CF00400#FF7D7D000000FFFF
(1785076371.661078) can0 0CF00400#FF7D7D000000FFFF
(1785076371.679410) can0 0CF00400#FF7D7D000000FFFF
(1785076371.683002) can0 09F112F8#FFE0750000FF7FFD
(1785076371.687783) can0 18F01D21#D8B7158000B91580
(1785076371.699429) can0 0CF00400#FF7D7D000000FFFF
(1785076371.706425) can0 09F11219#42FEFFFF7FFF7FFC
(1785076371.719436) can0 0CF00400#FF7D7D000000FFFF
(1785076371.728115) can0 18EEFF1C#0204450E00000042
(1785076371.732090) can0 19F10D13#5249015001000181
(1785076371.733370) can0 18FF50E0#0110872D8000802D
(1785076371.739458) can0 0CF00400#FF7D7D000000FFFF
(1785076371.760566) can0 0CF00400#FF7D7D000000FFFF
(1785076371.779436) can0 0CF00400#FF7D7D000000FFFF
(1785076371.787912) can0 18F01D21#D8B7158000B91580
(1785076371.799557) can0 0CF00400#FF7D7D000000FFFF
(1785076371.806437) can0 09F11219#43FEFFFF7FFF7FFC
(1785076371.819594) can0 0CF00400#FF7D7D000000FFFF
(1785076371.823016) can0 09F112F8#FFE9750000FF7FFD
(1785076371.832109) can0 19F10D13#5348015001000182
(1785076371.834702) can0 18FF50E0#0110872D8000802E
(1785076371.839414) can0 0CF00400#FF7D7D000000FFFF
(1785076371.860545) can0 0CF00400#FF7D7D000000FFFF
(1785076371.879570) can0 0CF00400#FF7D7D000000FFFF
(1785076371.887239) can0 18F01D21#D8B7158000B91580
(1785076371.899618) can0 0CF00400#FF7D7D000000FFFF
(1785076371.907132) can0 09F11219#44FEFFFF7FFF7FFC
(1785076371.919834) can0 0CF00400#FF7D7D000000FFFF
(1785076371.932085) can0 19F10D13#5449015001000181
(1785076371.936659) can0 18FF50E0#0110872D8000802F
(1785076371.939376) can0 0CF00400#FF7D7D000000FFFF
(1785076371.944970) can0 09F8021C#E8FCD4F20000FFFF
(1785076371.946471) can0 09F8011C#426E26183E6B5BC1
(1785076371.950010) can0 18FEE81C#1AB200002064227E
(1785076371.960083) can0 0CF00400#FF7D7D000000FFFF
(1785076371.960609) can0 09F112F8#FFEF750000FF7FFD
(1785076371.979501) can0 0CF00400#FF7D7D000000FFFF
(1785076371.987589) can0 18F01D21#D8B7158000B91580
(1785076371.999445) can0 0CF00400#FF7D7D000000FFFF
(1785076372.006321) can0 09F11219#45FEFFFF7FFF7FFC
(1785076372.019435) can0 0CF00400#FF7D7D000000FFFF
(1785076372.032030) can0 19F10D13#554A015001000181
(1785076372.037616) can0 18FF50E0#0110872880008030
(1785076372.039413) can0 0CF00400#FF7D7D000000FFFF
(1785076372.060628) can0 0CF00400#FF7D7D000000FFFF
(1785076372.079445) can0 0CF00400#FF7D7D000000FFFF
(1785076372.087357) can0 18F01D21#D8B7158000B91580
(1785076372.100267) can0 0CF00400#FF7D7D000000FFFF
(1785076372.102039) can0 09F112F8#FFF4750000FF7FFD
(1785076372.106635) can0 09F11219#46FEFFFF7FFF7FFC
(1785076372.119352) can0 0CF00400#FF7D7D000000FFFF
(1785076372.132141) can0 19F10D13#564A015001000181
(1785076372.138708) can0 18FF50E0#0110872880008031
(1785076372.139392) can0 0CF00400#FF7D7D000000FFFF
(1785076372.160583) can0 0CF00400#FF7D7D000000FFFF
(1785076372.179382) can0 0CF00400#FF7D7D000000FFFF
(1785076372.187195) can0 18F01D21#D8B7158000B91580
(1785076372.199416) can0 0CF00400#FF7D7D000000FFFF
(1785076372.207012) can0 09F11219#47FEFFFF7FFF7FFC
(1785076372.219466) can0 0CF00400#FF7D7D000000FFFF
(1785076372.232210) can0 19F10D13#574A015001000181
(1785076372.239357) can0 0CF00400#FF7D7D000000FFFF
(1785076372.239859) can0 18FF50E0#0110872280008032
(1785076372.241466) can0 09F112F8#FFFB750000FF7FFD
(1785076372.260495) can0 0CF00400#FF7D7D000000FFFF
(1785076372.279356) can0 0CF00400#FF7D7D000000FFFF
(1785076372.287813) can0 18F01D21#D8B7158000B91580
(1785076372.299422) can0 0CF00400#FF7D7D000000FFFF
(1785076372.306768) can0 09F11219#48FEFFFF7FFF7FFC
(1785076372.319427) can0 0CF00400#FF7D7D000000FFFF
(1785076372.332223) can0 19F10D13#584A015001000181
(1785076372.339553) can0 0CF00400#FF7D7D000000FFFF
(1785076372.341063) can0 18FF50E0#0110872280008033
(1785076372.360499) can0 0CF00400#FF7D7D000000FFFF
(1785076372.377610) can0 09F112F8#FFFD750000FF7FFD
(1785076372.379437) can0 0CF00400#FF7D7D000000FFFF
(1785076372.387060) can0 18F01D21#D8B7158000B91580
(1785076372.399404) can0 0CF00400#FF7D7D000000FFFF
(1785076372.407599) can0 09F11219#49FEFFFF7FFF7FFC
(1785076372.419594) can0 0CF00400#FF7D7D000000FFFF
(1785076372.432027) can0 19F10D13#5948015001000182
(1785076372.439415) can0 0CF00400#FF7D7D000000FFFF
(1785076372.442813) can0 18FF50E0#0110872280008034
(1785076372.453058) can0 09F8021C#E9FCD4F20000FFFF
(1785076372.454035) can0 09F8011C#3E6E2618426B5BC1
(1785076372.457620) can0 18FEE81C#1AB200002064227E
(1785076372.460249) can0 0CF00400#FF7D7D000000FFFF
(1785076372.479440) can0 0CF00400#FF7D7D000000FFFF
(1785076372.487306) can0 18F01D21#D8B7158000B91580
(1785076372.499582) can0 0CF00400#FF7D7D000000FFFF
(1785076372.506480) can0 09F11219#4AFEFFFF7FFF7FFC
(1785076372.519379) can0 0CF00400#FF7D7D000000FFFF
(1785076372.521022) can0 09F112F8#FF00760000FF7FFD
(1785076372.532033) can0 19F10D13#5A48015001000182
(1785076372.539334) can0 0CF00400#FF7D7D000000FFFF
(1785076372.543773) can0 18FF50E0#0110871E80008035
(1785076372.561025) can0 0CF00400#FF7D7D000000FFFF
(1785076372.579342) can0 0CF00400#FF7D7D000000FFFF
(1785076372.587790) can0 18F01D21#D8B7158000B91580
(1785076372.599339) can0 0CF00400#FF7D7D000000FFFF
(1785076372.606353) can0 09F11219#4BFEFFFF7FFF7FFC
(1785076372.619338) can0 0CF00400#FF7D7D000000FFFF
(1785076372.632033) can0 19F10D13#5B49015001000181
(1785076372.639344) can0 0CF00400#FF7D7D000000FFFF
(1785076372.646873) can0 18FF50E0#0110871E80008036
(1785076372.655107) can0 09F112F8#FF00760000FF7FFD
(1785076372.660475) can0 0CF00400#FF7D7D000000FFFF
(1785076372.679370) can0 0CF00400#FF7D7D000000FFFF
(1785076372.687004) can0 18F01D21#D8B7158000B91580
(1785076372.699341) can0 0CF00400#FF7D7D000000FFFF
(1785076372.706329) can0 09F11219#4CFEFFFF7FFF7FFC
(1785076372.719335) can0 0CF00400#FF7D7D000000FFFF
(1785076372.728090) can0 18EEFF1C#0204450E00000042
(1785076372.732025) can0 19F10D13#5C49015001000181
(1785076372.739334) can0 0CF00400#FF7D7D000000FFFF
(1785076372.750517) can0 18FF50E0#0110871A80008037
(1785076372.760477) can0 0CF00400#FF7D7D000000FFFF
(1785076372.779326) can0 0CF00400#FF7D7D000000FFFF
(1785076372.787379) can0 18F01D21#D8B7158000B91580
(1785076372.798300) can0 09F112F8#FF01760000FF7FFD
(1785076372.799319) can0 0CF00400#FF7D7D000000FFFF
(1785076372.806319) can0 09F11219#4DFEFFFF7FFF7FFC
(1785076372.819319) can0 0CF00400#FF7D7D000000FFFF
(1785076372.832078) can0 19F10D13#5D49015001000181
(1785076372.839335) can0 0CF00400#FF7D7D000000FFFF
(1785076372.851379) can0 18FF50E0#0110871A80008038
(1785076372.860460) can0 0CF00400#FF7D7D000000FFFF
(1785076372.879314) can0 0CF00400#FF7D7D000000FFFF
(1785076372.887862) can0 18F01D21#D8B7158000B91580
(1785076372.899395) can0 0CF00400#FF7D7D000000FFFF
(1785076372.907535) can0 09F11219#4EFEFFFF7FFF7FFC
(1785076372.919390) can0 0CF00400#FF7D7D000000FFFF
(1785076372.932154) can0 19F10D13#5E4A015001000181
(1785076372.939420) can0 0CF00400#FF7D7D000000FFFF
(1785076372.943063) can0 09F112F8#FF02760000FF7FFD
(1785076372.952745) can0 18FF50E0#0110871A80008039
(1785076372.960464) can0 0CF00400#FF7D7D000000FFFF
(1785076372.962679) can0 09F8021C#EAFCD4F20000FFFF
(1785076372.963678) can0 09F8011C#3C6E2618426B5BC1
(1785076372.968751) can0 18FEE81C#1AB200002064227E
(1785076372.979492) can0 0CF00400#FF7D7D000000FFFF
(1785076372.987474) can0 18F01D21#D8B7158000B91580
(1785076373.000288) can0 0CF00400#FF7D7D000000FFFF
(1785076373.006430) can0 09F11219#4FFEFFFF7FFF7FFC
(1785076373.019368) can0 0CF00400#FF7D7D000000FFFF
(1785076373.032092) can0 19F10D13#5F47015001000183
(1785076373.039318) can0 0CF00400#FF7D7D000000FFFF
(1785076373.054280) can0 18FF50E0#011087178000803A
(1785076373.060510) can0 0CF00400#FF7D7D000000FFFF
(1785076373.075072) can0 09F112F8#FF04760000FF7FFD
(1785076373.079638) can0 0CF00400#FF7D7D000000FFFF
(1785076373.088506) can0 18F01D21#D8B7158000B91580
(1785076373.100134) can0 0CF00400#FF7D7D000000FFFF
(1785076373.106838) can0 09F11219#50FEFFFF7FFF7FFC
(1785076373.119353) can0 0CF00400#FF7D7D000000FFFF
(1785076373.132104) can0 19F10D13#6049015001000181
(1785076373.139385) can0 0CF00400#FF7D7D000000FFFF
(1785076373.155800) can0 18FF50E0#011087178000803B
(1785076373.160482) can0 0CF00400#FF7D7D000000FFFF
(1785076373.179554) can0 0CF00400#FF7D7D000000FFFF
(1785076373.187788) can0 18F01D21#D8B7158000B91580
(1785076373.199403) can0 0CF00400#FF7D7D000000FFFF
(1785076373.206402) can0 09F11219#51FEFFFF7FFF7FFC
(1785076373.217987) can0 09F112F8#FF04760000FF7FFD
(1785076373.219446) can0 0CF00400#FF7D7D000000FFFF
(1785076373.232080) can0 19F10D13#6149015001000181
(1785076373.239389) can0 0CF00400#FF7D7D000000FFFF
(1785076373.257339) can0 18FF50E0#011087168000803C
(1785076373.260525) can0 0CF00400#FF7D7D000000FFFF
(1785076373.279546) can0 0CF00400#FF7D7D000000FFFF
(1785076373.287165) can0 18F01D21#D8B7158000B91580
(1785076373.299386) can0 0CF00400#FF7D7D000000FFFF
(1785076373.306433) can0 09F11219#52FEFFFF7FFF7FFC
(1785076373.319301) can0 0CF00400#FF7D7D000000FFFF
(1785076373.332099) can0 19F10D13#6249015001000181
(1785076373.339392) can0 0CF00400#FF7D7D000000FFFF
(1785076373.354237) can0 09F112F8#FF04760000FF7FFD
(1785076373.359407) can0 18FF50E0#011087168000803D
(1785076373.360157) can0 0CF00400#FF7D7D000000FFFF
(1785076373.379742) can0 0CF00400#FF7D7D000000FFFF
(1785076373.387542) can0 18F01D21#D8B7158000B91580
(1785076373.399394) can0 0CF00400#FF7D7D000000FFFF
(1785076373.407069) can0 09F11219#53FEFFFF7FFF7FFC
(1785076373.419556) can0 0CF00400#FF7D7D000000FFFF
(1785076373.432593) can0 19F10D13#634A015001000181
(1785076373.439826) can0 0CF00400#FF7D7D000000FFFF
(1785076373.460996) can0 0CF00400#FF7D7D000000FFFF
(1785076373.461031) can0 18FF50E0#011087168000803E
(1785076373.468261) can0 09F8021C#EBFCD4F20100FFFF
(1785076373.469241) can0 09F8011C#3C6E2618446B5BC1
(1785076373.473342) can0 18FEE81C#1AB200002064227E
(1785076373.479282) can0 0CF00400#FF7D7D000000FFFF
(1785076373.488089) can0 18F01D21#D8B7158000B91580
(1785076373.489149) can0 09F112F8#FF05760000FF7FFD
(1785076373.499349) can0 0CF00400#FF7D7D000000FFFF
(1785076373.506503) can0 09F11219#54FEFFFF7FFF7FFC
(1785076373.519385) can0 0CF00400#FF7D7D000000FFFF
(1785076373.532083) can0 19F10D13#6448015001000182
(1785076373.539372) can0 0CF00400#FF7D7D000000FFFF
(1785076373.560465) can0 0CF00400#FF7D7D000000FFFF
(1785076373.562220) can0 18FF50E0#011087158000803F
(1785076373.579365) can0 0CF00400#FF7D7D000000FFFF
(1785076373.587299) can0 18F01D21#D8B7158000B91580
(1785076373.599568) can0 0CF00400#FF7D7D000000FFFF
(1785076373.606603) can0 09F11219#55FEFFFF7FFF7FFC
(1785076373.619405) can0 0CF00400#FF7D7D000000FFFF
(1785076373.628827) can0 09F112F8#FF09760000FF7FFD
(1785076373.632550) can0 19F10D13#6549015001000181
(1785076373.639293) can0 0CF00400#FF7D7D000000FFFF
(1785076373.660454) can0 0CF00400#FF7D7D000000FFFF
(1785076373.664065) can0 18FF50E0#0110871580008040
(1785076373.679297) can0 0CF00400#FF7D7D000000FFFF
(1785076373.687539) can0 18F01D21#D8B7158000B91580
(1785076373.699325) can0 0CF00400#FF7D7D000000FFFF
(1785076373.706408) can0 09F11219#56FEFFFF7FFF7FFC
(1785076373.719286) can0 0CF00400#FF7D7D000000FFFF
(1785076373.732087) can0 19F10D13#6649015001000181
(1785076373.739303) can0 0CF00400#FF7D7D000000FFFF
(1785076373.760435) can0 0CF00400#FF7D7D000000FFFF
(1785076373.765846) can0 18FF50E0#0110871380008041
(1785076373.771011) can0 09F112F8#FF0D760000FF7FFD
(1785076373.779300) can0 0CF00400#FF7D7D000000FFFF
(1785076373.787907) can0 18F01D21#D8B7158000B91580
(1785076373.788779) can0 18EEFF1C#0204450E00000042
(1785076373.799299) can0 0CF00400#FF7D7D000000FFFF
(1785076373.806439) can0 09F11219#57FEFFFF7FFF7FFC
(1785076373.819355) can0 0CF00400#FF7D7D000000FFFF
(1785076373.832032) can0 19F10D13#6749015001000181
(1785076373.839319) can0 0CF00400#FF7D7D000000FFFF
(1785076373.860440) can0 0CF00400#FF7D7D000000FFFF
(1785076373.867312) can0 18FF50E0#0110871380008042
(1785076373.879299) can0 0CF00400#FF7D7D000000FFFF
(1785076373.887223) can0 18F01D21#D8B7158000B91580
(1785076373.899311) can0 0CF00400#FF7D7D000000FFFF
(1785076373.904021) can0 09F112F8#FF10760000FF7FFD
(1785076373.907363) can0 09F11219#58FEFFFF7FFF7FFC
(1785076373.919310) can0 0CF00400#FF7D7D000000FFFF
(1785076373.932034) can0 19F10D13#6849015001000181
(1785076373.939626) can0 0CF00400#FF7D7D000000FFFF
(1785076373.960425) can0 0CF00400#FF7D7D000000FFFF
(1785076373.968998) can0 18FF50E0#0110871380008043
(1785076373.979273) can0 0CF00400#FF7D7D000000FFFF
(1785076373.979865) can0 09F8021C#ECFCD4F20000FFFF
(1785076373.980823) can0 09F8011C#3A6E2618486B5BC1
(1785076373.983841) can0 18FEE81C#1AB200002064227E
(1785076373.987576) can0 18F01D21#D8B7158000B91580
(1785076374.000190) can0 0CF00400#FF7D7D000000FFFF
(1785076374.006394) can0 09F11219#59FEFFFF7FFF7FFC
(1785076374.019899) can0 0CF00400#FF7D7D000000FFFF
(1785076374.032036) can0 19F10D13#6949015001000181
(1785076374.039318) can0 0CF00400#FF7D7D000000FFFF
(1785076374.047873) can0 09F112F8#FF14760000FF7FFD
(1785076374.060422) can0 0CF00400#FF7D7D000000FFFF
(1785076374.069510) can0 18FF50E0#0110871180008044
(1785076374.079305) can0 0CF00400#FF7D7D000000FFFF
(1785076374.088039) can0 18F01D21#D8B7158000B91580
(1785076374.100296) can0 0CF00400#FF7D7D000000FFFF
(1785076374.106570) can0 09F11219#5AFEFFFF7FFF7FFC
(1785076374.119363) can0 0CF00400#FF7D7D000000FFFF
(1785076374.132141) can0 19F10D13#6A48015001000182
(1785076374.139338) can0 0CF00400#FF7D7D000000FFFF
(1785076374.160419) can0 0CF00400#FF7D7D000000FFFF
(1785076374.170316) can0 18FF50E0#0110871180008045
(1785076374.179370) can0 0CF00400#FF7D7D000000FFFF
(1785076374.184212) can0 09F112F8#FF17760000FF7FFD
(1785076374.187325) can0 18F01D21#D8B7158000B91580
(1785076374.199349) can0 0CF00400#FF7D7D000000FFFF
(1785076374.206589) can0 09F11219#5BFEFFFF7FFF7FFC
(1785076374.219363) can0 0CF00400#FF7D7D000000FFFF
(1785076374.232047) can0 19F10D13#6B47015001000183
(1785076374.239264) can0 0CF00400#FF7D7D000000FFFF
(1785076374.260015) can0 0CF00400#FF7D7D000000FFFF
(1785076374.271323) can0 18FF50E0#0110870D80008046
(1785076374.279676) can0 0CF00400#FF7D7D000000FFFF
(1785076374.287704) can0 18F01D21#D8B7158000B91580
(1785076374.299500) can0 0CF00400#FF7D7D000000FFFF
(1785076374.306630) can0 09F11219#5CFEFFFF7FFF7FFC
(1785076374.319307) can0 0CF00400#FF7D7D000000FFFF
(1785076374.322072) can0 09F112F8#FF1C760000FF7FFD
(1785076374.332125) can0 19F10D13#6C49015001000181
(1785076374.339480) can0 0CF00400#FF7D7D000000FFFF
(1785076374.361106) can0 0CF00400#FF7D7D000000FFFF
(1785076374.372426) can0 18FF50E0#0110870D80008047
(1785076374.379355) can0 0CF00400#FF7D7D000000FFFF
(1785076374.388210) can0 18F01D21#D8B7158000B91580
(1785076374.399292) can0 0CF00400#FF7D7D000000FFFF
(1785076374.407155) can0 09F11219#5DFEFFFF7FFF7FFC
(1785076374.419309) can0 0CF00400#FF7D7D000000FFFF
(1785076374.432541) can0 19F10D13#6D4A015001000181
(1785076374.439335) can0 0CF00400#FF7D7D000000FFFF
(1785076374.458488) can0 09F112F8#FF20760000FF7FFD
(1785076374.460493) can0 0CF00400#FF7D7D000000FFFF
(1785076374.473509) can0 18FF50E0#0110870D80008048
(1785076374.479339) can0 0CF00400#FF7D7D000000FFFF
(1785076374.486481) can0 09F8021C#EDFCD4F20000FFFF
(1785076374.487894) can0 09F8011C#386E2618486B5BC1
(1785076374.488438) can0 18F01D21#D8B7158000B91580
(1785076374.492468) can0 18FEE81C#1AB200002064227E
(1785076374.499331) can0 0CF00400#FF7D7D000000FFFF
(1785076374.506507) can0 09F11219#5EFEFFFF7FFF7FFC
(1785076374.519353) can0 0CF00400#FF7D7D000000FFFF
