;$FILEVERSION=2.0
;$STARTTIME=45853.3935581597
;$COLUMNS=N,O,T,I,d,l,D
;
;   Start time: 7/15/2025 09:26:43.425.0
;   Generated by PCAN-View v5.3.0.942
;   Message   Time    Type ID     Rx/Tx
;   Number    Offset  |    [hex]  |  Data Length
;   |         [ms]    |    |      |  |  Data [hex] ...
;   |         |       |    |      |  |  |
;---+-- ------+------ +- --+----- +- +- +- +- -- -- -- -- -- -- --
      1         7.303 DT 04EF001C Rx 8  7F 5E 8C A0 7F 3E 8C C4 
      2        17.427 DT 04EF001C Rx 8  CF 41 C1 3F CF 21 C1 5B 
      3        27.521 DT 04EF001C Rx 8  8E 44 AA 32 8E 04 AA 76 
      4        37.620 DT 04EF001C Rx 8  2A 47 13 11 2A 27 13 75 
      5        47.751 DT 04EF001C Rx 8  0E 4A 5E 3C 0E 2A 5E 58 
      6        57.858 DT 04EF001C Rx 8  D0 4C B6 CA D0 2C B6 AE 
      7        67.954 DT 04EF001C Rx 8  6B 4F 10 11 6B CF 10 95 
      8        78.081 DT 04EF001C Rx 8  51 52 C3 DC 51 F2 C3 78 
      9        88.188 DT 04EF001C Rx 8  82 54 26 42 82 F4 26 E6 
     10        98.291 DT 04EF001C Rx 8  43 57 F9 49 43 B7 F9 AD 
     11       108.406 DT 04EF001C Rx 8  02 5A D2 4C 03 5A D3 48 
     12       118.506 DT 04EF001C Rx 8  C2 5C 24 4A C3 5C 25 4E 
     13       128.644 DT 04EF001C Rx 8  81 5F 7D 51 80 5F 7C 55 
     14       138.735 DT 04EF001C Rx 8  43 42 51 5C 42 42 50 58 
     15       148.854 DT 04EF001C Rx 8  00 45 28 43 01 45 29 47 
     16       158.981 DT 04EF001C Rx 8  C0 47 FE 41 C0 A7 FE A5 
     17       169.073 DT 04EF001C Rx 8  81 4A D5 44 81 AA D5 A0 
     18       179.176 DT 04EF001C Rx 8  42 4D 28 5B 42 ED 28 FF 
     19       189.307 DT 04EF001C Rx 8  00 50 80 56 00 D0 80 D2 
     20       199.410 DT 04EF001C Rx 8  BF 52 2A AC BF 12 2A E8 
     21       209.521 DT 04EF001C Rx 8  82 55 2E 43 82 15 2E 07 
     22       219.636 DT 04EF001C Rx 8  A9 58 6C 16 A9 58 6C 12 
     23       229.743 DT 04EF001C Rx 8  8F 5B 53 25 8F 7B 53 01 
     24       239.862 DT 04EF001C Rx 8  2B 5E DA 00 2B 7E DA 24 
     25       249.969 DT 04EF001C Rx 8  EC 40 EB 26 EC 40 EB 22 
     26       260.084 DT 04EF001C Rx 8  D0 43 CE C5 D0 63 CE E1 
     27       270.200 DT 04EF001C Rx 8  6C 46 5F 20 6C 06 5F 64 
     28       280.299 DT 04EF001C Rx 8  2C 49 65 2F 2C 69 65 0B 
     29       290.410 DT 04EF001C Rx 8  82 4B DE 5D 82 0B DE 19 
     30       300.517 DT 04EF001C Rx 8  42 4E 30 58 42 0E 30 1C 
     31       310.648 DT 04EF001C Rx 8  FE 50 79 A6 FE 70 79 82 
     32       320.731 DT 04EF001C Rx 8  C2 53 5C 45 C2 13 5C 01 
     33       330.854 DT 04EF001C Rx 8  7E 56 CD A0 7E 56 CD A4 
     34       340.969 DT 04EF001C Rx 8  3F 59 F6 A7 3F 59 F6 A3 
     35       351.068 DT 04EF001C Rx 8  02 5C E2 4A FD BB 1D A9 
     36       352.112 DT 09F8021C Rx 8  09 FC 7E 58 03 00 FF FF 
     37       353.092 DT 09F8011C Rx 8  74 6D 26 18 12 6C 5B C1 
     38       354.124 DT 19FA031C Rx 8  09 D2 5A 00 8F 00 64 00 
     39       355.132 DT 0DF0101C Rx 8  09 F0 3C 4F 30 58 24 21 
     40       356.160 DT 18FEE81C Rx 8  E8 40 00 00 20 64 77 7E 
     41       357.223 DT 19FA041C Rx 8  40 AB 09 FF 0E 05 52 35 
     42       358.231 DT 19FA041C Rx 8  41 4C 4F A0 0F FF FF FF 
     43       359.219 DT 19FA041C Rx 8  42 FF FF 0B 75 12 C0 2B 
     44       360.251 DT 19FA041C Rx 8  43 F0 0A FF FF FF FF FF 
     45       361.183 DT 04EF001C Rx 8  66 5F 9D 69 99 F8 62 CA 
     46       362.263 DT 19FA041C Rx 8  44 0C 75 12 26 7F 04 10 
     47       363.279 DT 19FA041C Rx 8  45 FF FF FF FF FF 0D 85 
     48       364.287 DT 19FA041C Rx 8  46 07 80 57 F0 0A FF FF 
     49       365.299 DT 19FA041C Rx 8  47 FF FF FF 0F 85 07 1C 
     50       366.310 DT 19FA041C Rx 8  48 70 1C 0C FF FF FF FF 
     51       367.310 DT 19FA041C Rx 8  49 FF 12 AC 0D D6 B5 04 
     52       368.331 DT 19FA041C Rx 8  4A 10 FF FF FF FF FF 14 
     53       369.327 DT 19FA041C Rx 8  4B 3B 24 8C 23 74 0E FF 
     54       370.351 DT 19FA041C Rx 8  4C FF FF FF FF 15 21 20 
     55       371.295 DT 04EF001C Rx 8  28 42 39 04 D7 25 C6 67 
     56       372.375 DT 19FA041C Rx 8  4D EA 24 D8 0E FF FF FF 
     57       373.379 DT 19FA041C Rx 8  4E FF FF 17 AF 00 4A 92 
     58       374.407 DT 19FA041C Rx 8  4F 00 00 FF FF FF FF FF 
     59       375.394 DT 19FA041C Rx 8  50 19 B6 1C C2 97 04 10 
     60       376.418 DT 19FA041C Rx 8  51 FF FF FF FF FF 1A C9 
     61       377.434 DT 19FA041C Rx 8  52 04 1E DC 6C 07 FF FF 
     62       378.438 DT 19FA041C Rx 8  53 FF FF FF 1D 04 29 04 
     63       379.450 DT 19FA041C Rx 8  54 D8 68 10 FF FF FF FF 
     64       380.454 DT 19FA041C Rx 8  55 FF 2C B6 1C FC 85 04 
     65       381.410 DT 04EF001C Rx 8  FA 44 DD 92 05 63 22 B1 
     66       382.494 DT 19FA041C Rx 8  56 10 FF FF FF FF FF 30 
     67       383.482 DT 19FA041C Rx 8  57 A9 1A 30 8E A0 0F FF 
     68       384.509 DT 19FA041C Rx 8  58 FF FF FF FF FF FF FF 
     69       391.545 DT 04EF001C Rx 8  00 47 38 41 FF 60 C7 62 
     70       401.628 DT 04EF001C Rx 8  C1 49 8F 47 3E 6E 70 64 
     71       411.743 DT 04EF001C Rx 8  7F 4C 1C B2 80 6B E3 91 
     72       421.866 DT 04EF001C Rx 8  CE 4F B0 39 31 48 4F 3A 
     73       431.973 DT 04EF001C Rx 8  68 52 FB 14 97 55 04 17 
     74       442.088 DT 04EF001C Rx 8  29 55 80 1B D6 72 7F 38 
     75       452.211 DT 04EF001C Rx 8  10 58 D0 DE EF 7F 2F FD 
     76       462.298 DT 04EF001C Rx 8  AC 5A 79 3C 53 1D 86 7F 
     77       472.418 DT 04EF001C Rx 8  68 5D 83 1B 97 1A 7C 58 
     78       482.529 DT 04EF001C Rx 8  4D 40 4F 2E B2 07 B0 6D 
     79       492.624 DT 04EF001C Rx 8  81 42 95 4C 7E 25 6A 2F 
     80       502.731 DT 04EF001C Rx 8  43 45 69 5B BC C2 96 D8 
     81       512.869 DT 04EF001C Rx 8  00 48 40 4E FF CF BF CD 
     82       522.953 DT 04EF001C Rx 8  C2 4A 94 5C 3D 2D 6B 3F 
     83       533.072 DT 04EF001C Rx 8  7F 4D 14 B3 80 2A EB D0 
     84       543.191 DT 04EF001C Rx 8  3F 50 BE AE C0 37 41 CD 
     85       553.302 DT 04EF001C Rx 8  FF 52 68 AC 00 35 97 CF 
     86       563.401 DT 04EF001C Rx 8  BF 55 12 AB 40 12 ED E8 
     87       573.517 DT 04EF001C Rx 8  83 58 47 46 7C 7F B8 65 
     88       583.640 DT 04EF001C Rx 8  3F 5B E6 A5 C0 7C 19 86 
     89       593.747 DT 04EF001C Rx 8  00 5E F0 58 FF 59 0F 5B 
     90       603.842 DT 04EF001C Rx 8  C2 40 C4 56 3D 47 3B 55 
     91       613.956 DT 04EF001C Rx 8  81 43 9D 4D 7E 64 62 6E 
     92       624.072 DT 04EF001C Rx 8  AC 46 99 20 53 61 66 03 
     93       634.191 DT 04EF001C Rx 8  90 49 DC CF 6F 6E 23 EC 
     94       644.298 DT 04EF001C Rx 8  50 4C 32 CA AF 6B CD E9 
     95       654.397 DT 04EF001C Rx 8  EC 4E 9B 28 13 29 64 4B 
     96       664.532 DT 04EF001C Rx 8  D1 51 5F DF 2E D6 A0 5C 
     97       674.632 DT 04EF001C Rx 8  8D 54 29 3A 72 F3 D6 99 
     98       684.747 DT 04EF001C Rx 8  29 57 90 19 D6 D0 6F 9A 
     99       694.846 DT 04EF001C Rx 8  7F 59 B4 A7 80 DE 4B 24 
    100       704.960 DT 04EF001C Rx 8  3F 5C DE A2 C0 DB 21 21 
    101       715.087 DT 04EF001C Rx 8  01 5F F9 51 FE F8 06 F2 
    102       725.179 DT 04EF001C Rx 8  C2 41 CC 57 3D E6 33 F4 
    103       735.298 DT 04EF001C Rx 8  81 44 A5 4A 7E 83 5A 89 
    104       745.413 DT 04EF001C Rx 8  40 47 7A 41 BF A0 85 A2 
    105       755.520 DT 04EF001C Rx 8  01 4A 51 44 01 4A 51 40 
    106       765.619 DT 04EF001C Rx 8  C2 4C A4 5A 3D 8B 5B 99 
    107       775.747 DT 04EF001C Rx 8  7F 4F 04 B1 80 E8 FB 12 
    108       785.850 DT 04EF001C Rx 8  3F 52 AE AC C0 35 51 CF 
    109       795.957 DT 04EF001C Rx 8  FE 54 59 A2 01 13 A6 E1 
    110       806.075 DT 04EF001C Rx 8  BF 57 02 A9 40 10 FD EA 
    111       816.206 DT 04EF001C Rx 8  E8 5A 3F 1C 17 7D C0 3F 
    112       826.306 DT 04EF001C Rx 8  D0 5D 3E DB 2F 1A C1 98 
    113       836.421 DT 04EF001C Rx 8  69 40 6A 0E 96 07 95 4D 
    114       846.520 DT 04EF001C Rx 8  2C 43 35 25 D3 24 CA 46 
    115       854.663 DT 09F8021C Rx 8  0A FC 7E 58 06 00 FF FF 
    116       855.635 DT 09F8011C Rx 8  70 6D 26 18 FE 6B 5B C1 
    117       856.635 DT 04EF001C Rx 8  51 46 63 C8 AE 21 9C AB 
    118       857.671 DT 19FA031C Rx 8  0A D2 5A 00 8F 00 64 00 
    119       858.679 DT 0DF0101C Rx 8  0A F0 3C 4F 40 7F 24 21 
    120       859.695 DT 18FEE81C Rx 8  E8 40 00 00 20 64 79 7E 
    121       861.790 DT 19FA041C Rx 8  60 AB 0A FF 0E 05 52 35 
    122       862.774 DT 19FA041C Rx 8  61 4C 4F A0 0F FF FF FF 
    123       863.786 DT 19FA041C Rx 8  62 FF FF 0B 75 12 C0 2B 
    124       864.810 DT 19FA041C Rx 8  63 8C 0A FF FF FF FF FF 
    125       865.806 DT 19FA041C Rx 8  64 0C 75 12 26 7F 04 10 
    126       866.758 DT 04EF001C Rx 8  8C 49 C0 2F 73 2E 3F 4C 
    127       867.858 DT 19FA041C Rx 8  65 FF FF FF FF FF 0D 85 
    128       868.850 DT 19FA041C Rx 8  66 07 80 57 F0 0A FF FF 
    129       869.858 DT 19FA041C Rx 8  67 FF FF FF 0F 85 07 1C 
    130       870.866 DT 19FA041C Rx 8  68 70 80 0C FF FF FF FF 
    131       871.870 DT 19FA041C Rx 8  69 FF 12 AC 0D D6 B5 04 
    132       872.902 DT 19FA041C Rx 8  6A 10 FF FF FF FF FF 14 
    133       873.898 DT 19FA041C Rx 8  6B 3B 24 8C 23 10 0E FF 
    134       874.910 DT 19FA041C Rx 8  6C FF FF FF FF 15 21 20 
    135       875.918 DT 19FA041C Rx 8  6D EA 24 3C 0F FF FF FF 
    136       876.866 DT 04EF001C Rx 8  40 4C 22 4A BF 2B DD 29 
    137       877.942 DT 19FA041C Rx 8  6E FF FF 17 AF 00 4A 92 
    138       878.981 DT 19FA041C Rx 8  6F 00 00 FF FF FF FF FF 
    139       879.973 DT 19FA041C Rx 8  70 19 B6 1C C2 97 04 10 
    140       880.985 DT 19FA041C Rx 8  71 FF FF FF FF FF 1A C9 
    141       881.997 DT 19FA041C Rx 8  72 04 1E DC 00 00 FF FF 
    142       883.001 DT 19FA041C Rx 8  73 FF FF FF 1D 04 29 04 
    143       884.009 DT 19FA041C Rx 8  74 D8 68 10 FF FF FF FF 
    144       885.025 DT 19FA041C Rx 8  75 FF 2C B6 1C FC 85 04 
    145       886.021 DT 19FA041C Rx 8  76 10 FF FF FF FF FF 30 
    146       886.961 DT 04EF001C Rx 8  67 4E 14 70 98 09 EB 33 
    147       888.036 DT 19FA041C Rx 8  77 A9 1A 30 8E A0 0F FF 
    148       889.048 DT 19FA041C Rx 8  78 FF FF FF FF FF FF FF 
    149       897.087 DT 04EF001C Rx 8  81 50 05 5E 7E 77 FA 7D 
    150       907.178 DT 04EF001C Rx 8  43 53 D9 4D BC 14 26 0E 
    151       917.297 DT 04EF001C Rx 8  02 56 B2 40 FD 11 4D 03 
    152       927.413 DT 04EF001C Rx 8  C0 58 06 5E 3F 1F F9 1D 
    153       937.520 DT 04EF001C Rx 8  7F 5B A4 A5 80 7C 5B 86 
    154       947.627 DT 04EF001C Rx 8  43 5E B1 40 BC 19 4E 03 
    155       957.746 DT 04EF001C Rx 8  01 41 09 4F FE 26 F6 2C 
    156       967.853 DT 04EF001C Rx 8  BF 43 A2 BD 40 04 5D FE 
    157       977.957 DT 04EF001C Rx 8  7F 46 4C B8 80 61 B3 9B 
    158       988.139 DT 04EF001C Rx 8  3F 49 76 B7 C0 6E 89 94 
    159       998.249 DT 04EF001C Rx 8  FF 4B A0 B5 00 4C 5F B6 
    160      1008.356 DT 04EF001C Rx 8  BF 4E CA B0 41 A9 34 53 
    161      1018.479 DT 04EF001C Rx 8  F9 51 76 9F 07 96 88 5C 
    162      1028.594 DT 04EF001C Rx 8  A9 54 0C 1A 57 B3 F2 F9 
    163      1038.698 DT 04EF001C Rx 8  8F 57 33 29 70 50 CC 2A 
    164      1048.809 DT 04EF001C Rx 8  36 5A E7 EC C9 5D 18 EF 
    165      1058.920 DT 04EF001C Rx 8  E9 5C 0E 12 16 5B F1 11 
    166      1069.031 DT 04EF001C Rx 8  CF 5F 31 21 31 B8 CF C2 
    167      1079.142 DT 04EF001C Rx 8  75 42 66 EC 8B 85 98 2F 
    168      1089.242 DT 04EF001C Rx 8  BF 44 9A BA 41 A3 64 59 
    169      1099.356 DT 04EF001C Rx 8  7E 47 45 B1 80 E0 BB 12 
    170      1109.467 DT 04EF001C Rx 8  42 4A 10 5C BC ED EE FF 
    171      1119.578 DT 04EF001C Rx 8  00 4D 68 4B FE 8A 96 88 
    172      1129.705 DT 04EF001C Rx 8  BF 4F C2 B1 41 E8 3C 12 
    173      1139.809 DT 04EF001C Rx 8  7E 52 ED A4 80 F5 13 07 
    174      1149.920 DT 04EF001C Rx 8  3F 55 96 AB C1 D2 68 28 
    175      1160.027 DT 04EF001C Rx 8  FF 57 40 A9 01 30 BE CA 
    176      1170.142 DT 04EF001C Rx 8  C0 5A 16 5C 3E 3D E8 3F 
    177      1180.245 DT 04EF001C Rx 8  7F 5D 94 A3 81 1A 6A E0 
    178      1190.384 DT 04EF001C Rx 8  3F 40 3E BE C1 07 C0 FD 
    179      1200.475 DT 04EF001C Rx 8  01 43 19 4D FF 04 E7 0E 
    180      1210.574 DT 04EF001C Rx 8  C1 45 EF 4B 3F 62 11 68 
    181      1220.693 DT 04EF001C Rx 8  EA 48 AD 1E 14 4F 53 1D 
    182      1230.804 DT 04EF001C Rx 8  CD 4B 93 25 33 6C 6D 06 
    183      1240.916 DT 04EF001C Rx 8  6A 4E 19 18 94 09 E7 5B 
    184      1251.035 DT 04EF001C Rx 8  29 51 A0 1F D7 76 5E 3C 
    185      1261.138 DT 04EF001C Rx 8  0C 54 AC 32 F2 73 52 11 
    186      1271.249 DT 04EF001C Rx 8  A9 56 1C 18 57 11 E2 5B 
    187      1281.361 DT 04EF001C Rx 8  68 59 A3 1F 96 1E 5D 5C 
    188      1291.459 DT 04EF001C Rx 8  C2 5B 1C 4D 3C 3C E2 2E 
    189      1301.578 DT 04EF001C Rx 8  82 5E 76 48 7C D9 88 CB 
    190      1311.689 DT 04EF001C Rx 8  40 41 4A 47 BE 86 B4 84 
    191      1321.812 DT 04EF001C Rx 8  01 44 21 4A FF 83 DF 89 
    192      1331.912 DT 04EF001C Rx 8  BF 46 8A B8 41 81 74 7B 
    193      1342.027 DT 04EF001C Rx 8  81 49 CD 47 7F EE 33 E4 
    194      1352.138 DT 04EF001C Rx 8  3F 4C 5E B2 C1 CB A0 31 
    195      1358.229 DT 09F8021C Rx 8  0B FC 7E 58 02 00 FF FF 
    196      1359.213 DT 09F8011C Rx 8  6A 6D 26 18 DA 6B 5B C1 
    197      1360.241 DT 19FA031C Rx 8  0B D2 5A 00 8F 00 64 00 
    198      1361.249 DT 0DF0101C Rx 8  0B F0 3C 4F 40 7F 24 21 
    199      1362.257 DT 04EF001C Rx 8  3E 4F 47 B9 C0 C8 B9 3A 
    200      1363.285 DT 18FEE81C Rx 8  E8 40 00 00 20 64 7C 7E 
    201      1364.356 DT 19FA041C Rx 8  80 AB 0B FF 0E 05 52 35 
    202      1365.348 DT 19FA041C Rx 8  81 4C 4F A0 0F FF FF FF 
    203      1366.352 DT 19FA041C Rx 8  82 FF FF 0B 75 12 C0 2B 
    204      1367.376 DT 19FA041C Rx 8  83 8C 0A FF FF FF FF FF 
    205      1368.376 DT 19FA041C Rx 8  84 0C 75 12 26 7F 04 10 
    206      1369.392 DT 19FA041C Rx 8  85 FF FF FF FF FF 0D 85 
    207      1370.412 DT 19FA041C Rx 8  86 07 80 57 F0 0A FF FF 
    208      1371.420 DT 19FA041C Rx 8  87 FF FF FF 0F 85 07 1C 
    209      1372.364 DT 04EF001C Rx 8  6F 52 FC 2C 91 15 02 6F 
    210      1373.451 DT 19FA041C Rx 8  88 70 80 0C FF FF FF FF 
    211      1374.431 DT 19FA041C Rx 8  89 FF 12 AC 0D D6 B5 04 
    212      1375.455 DT 19FA041C Rx 8  8A 10 FF FF FF FF FF 14 
    213      1376.451 DT 19FA041C Rx 8  8B 3B 24 8C 23 10 0E FF 
    214      1377.475 DT 19FA041C Rx 8  8C FF FF FF FF 15 21 20 
    215      1378.487 DT 19FA041C Rx 8  8D EA 24 3C 0F FF FF FF 
    216      1379.495 DT 19FA041C Rx 8  8E FF FF 17 AF 00 4A 92 
    217      1380.524 DT 19FA041C Rx 8  8F 00 00 FF FF FF FF FF 
    218      1381.516 DT 19FA041C Rx 8  90 19 B6 1C C2 97 04 10 
    219      1382.475 DT 04EF001C Rx 8  3A 55 93 83 C4 52 6D 80 
    220      1383.555 DT 19FA041C Rx 8  91 FF FF FF FF FF 1A C9 
    221      1384.571 DT 19FA041C Rx 8  92 04 1E DC 00 00 FF FF 
    222      1385.567 DT 19FA041C Rx 8  93 FF FF FF 1D 04 29 04 
    223      1386.587 DT 19FA041C Rx 8  94 D8 68 10 FF FF FF FF 
    224      1387.587 DT 19FA041C Rx 8  95 FF 2C B6 1C FC 85 04 
    225      1388.607 DT 19FA041C Rx 8  96 10 FF FF FF FF FF 30 
    226      1389.603 DT 19FA041C Rx 8  97 A9 1A 30 8E A0 0F FF 
    227      1390.623 DT 19FA041C Rx 8  98 FF FF FF FF FF FF FF 
    228      1392.594 DT 04EF001C Rx 8  3F 57 86 A9 C2 B0 7B 4A 
    229      1402.689 DT 04EF001C Rx 8  FF 59 30 A7 02 9E CD 64 
    230      1412.796 DT 04EF001C Rx 8  C0 5C 26 5A 3D 9B DB 99 
    231      1422.919 DT 04EF001C Rx 8  EA 5F 15 09 17 98 E8 CA 
    232      1433.031 DT 04EF001C Rx 8  CD 42 DB 2C 30 A5 26 CF 
    233      1443.146 DT 04EF001C Rx 8  68 45 43 03 95 A2 BE E0 
    234      1453.265 DT 04EF001C Rx 8  29 48 68 06 D7 4F 96 05 
    235      1463.368 DT 04EF001C Rx 8  0F 4B 57 35 F1 4C A9 36 
    236      1473.467 DT 04EF001C Rx 8  AA 4D C7 1B 54 6A 39 38 
    237      1483.586 DT 04EF001C Rx 8  6A 50 E9 06 94 17 17 45 
    238      1493.685 DT 04EF001C Rx 8  BF 52 2A AC 41 35 D4 CF 
    239      1503.812 DT 04EF001C Rx 8  82 55 2E 43 7C 32 D0 20 
    240      1513.927 DT 04EF001C Rx 8  3F 58 FE A6 C1 DF 00 25 
    241      1524.018 DT 04EF001C Rx 8  FF 5A 28 A4 01 1D D6 E7 
    242      1534.138 DT 04EF001C Rx 8  BF 5D 52 A3 41 3A AC C0 
    243      1544.253 DT 04EF001C Rx 8  80 40 84 46 7E 07 7A 05 
    244      1554.348 DT 04EF001C Rx 8  42 43 58 55 BC C4 A6 D6 
    245      1564.467 DT 04EF001C Rx 8  FF 45 D0 BB 01 C2 2E 38 
    246      1574.574 DT 04EF001C Rx 8  C0 48 86 4E 3E CF 78 CD 
    247      1584.689 DT 04EF001C Rx 8  7F 4B 24 B5 81 CC DA 36 
    248      1594.800 DT 04EF001C Rx 8  40 4E 32 48 BE C9 CC CB 
    249      1604.915 DT 04EF001C Rx 8  00 51 88 57 FE 36 76 34 
    250      1615.022 DT 04EF001C Rx 8  C1 53 5F 5D 3F D4 A1 DE 
    251      1625.145 DT 04EF001C Rx 8  0C 57 B4 31 F2 30 4A 52 
    252      1635.249 DT 04EF001C Rx 8  AB 59 66 07 55 DE 98 84 
    253      1645.364 DT 04EF001C Rx 8  6B 5C 88 02 95 BB 76 E1 
    254      1655.475 DT 04EF001C Rx 8  4D 5F B7 31 B2 58 48 32 
    255      1665.594 DT 04EF001C Rx 8  EB 41 E4 1F 14 46 1B 1C 
    256      1675.688 DT 04EF001C Rx 8  AC 44 89 22 53 43 76 21 
    257      1685.812 DT 04EF001C Rx 8  8C 47 B0 21 73 60 4F 02 
    258      1695.907 DT 04EF001C Rx 8  C1 49 8F 47 3F AE 71 A4 
    259      1706.026 DT 04EF001C Rx 8  7E 4C 1D BA 80 8B E3 79 
    260      1716.129 DT 04EF001C Rx 8  40 4F 3A 49 BE 88 C4 8A 
    261      1726.257 DT 04EF001C Rx 8  00 52 90 54 FE F5 6E F7 
    262      1736.352 DT 04EF001C Rx 8  C0 54 66 52 3E F3 98 F1 
    263      1746.487 DT 04EF001C Rx 8  7F 57 C4 A9 81 F0 3A 0A 
    264      1756.582 DT 04EF001C Rx 8  3F 5A EE A4 C1 DD 10 27 
    265      1766.705 DT 04EF001C Rx 8  FE 5C 19 AA 00 3B E7 C9 
    266      1776.800 DT 04EF001C Rx 8  BF 5F 42 A1 41 18 BC E2 
    267      1786.915 DT 04EF001C Rx 8  7F 42 6C BC 81 25 92 DF 
    268      1797.038 DT 04EF001C Rx 8  3F 45 16 BB C1 02 E8 F8 
    269      1807.153 DT 04EF001C Rx 8  FE 47 C1 B1 00 00 3F F2 
    270      1817.252 DT 04EF001C Rx 8  2D 4B 74 25 D3 0C 8A 66 
    271      1827.356 DT 04EF001C Rx 8  E8 4D 87 0B 16 2A 79 68 
    272      1837.475 DT 04EF001C Rx 8  CD 50 4B 3E 33 37 B5 5D 
    273      1847.594 DT 04EF001C Rx 8  71 53 EA DD 8F F4 14 7E 
    274      1857.697 DT 04EF001C Rx 8  2C 56 9D 30 D2 91 63 F3 
    275      1860.764 DT 09F8021C Rx 8  0C FC 7E 58 02 00 FF FF 
    276      1861.744 DT 09F8011C Rx 8  64 6D 26 18 C4 6B 5B C1 
    277      1862.776 DT 19FA031C Rx 8  0C D2 5A 00 8F 00 64 00 
    278      1863.772 DT 0DF0101C Rx 8  0C F0 3C 4F 50 A6 24 21 
    279      1864.808 DT 18FEE81C Rx 8  E8 40 00 00 20 64 7E 7E 
    280      1865.904 DT 19FA041C Rx 8  A0 AB 0C FF 0E 05 52 35 
    281      1866.888 DT 19FA041C Rx 8  A1 4C 4F A0 0F FF FF FF 
    282      1867.831 DT 04EF001C Rx 8  C0 59 0E 5F 3E FE F0 FC 
    283      1868.891 DT 19FA041C Rx 8  A2 FF FF 0B 75 12 C0 2B 
    284      1869.907 DT 19FA041C Rx 8  A3 8C 0A FF FF FF FF FF 
    285      1870.911 DT 19FA041C Rx 8  A4 0C 75 12 26 7F 04 10 
    286      1871.943 DT 19FA041C Rx 8  A5 FF FF FF FF FF 0D 85 
    287      1872.959 DT 19FA041C Rx 8  A6 07 80 57 F0 0A FF FF 
    288      1873.952 DT 19FA041C Rx 8  A7 FF FF FF 0F 85 07 1C 
    289      1874.964 DT 19FA041C Rx 8  A8 70 1C 0C FF FF FF FF 
    290      1875.964 DT 19FA041C Rx 8  A9 FF 12 AC 0D D6 B5 04 
    291      1876.983 DT 19FA041C Rx 8  AA 10 FF FF FF FF FF 14 
    292      1877.927 DT 04EF001C Rx 8  5A 5C B8 8A A4 DB 46 09 
    293      1879.015 DT 19FA041C Rx 8  AB 3B 24 8C 23 10 0E FF 
    294      1880.023 DT 19FA041C Rx 8  AC FF FF FF FF 15 21 20 
    295      1881.027 DT 19FA041C Rx 8  AD EA 24 3C 0F FF FF FF 
    296      1882.027 DT 19FA041C Rx 8  AE FF FF 17 AF 00 4A 92 
    297      1883.067 DT 19FA041C Rx 8  AF 00 00 FF FF FF FF FF 
    298      1884.075 DT 19FA041C Rx 8  B0 19 B6 1C C2 97 04 10 
    299      1885.071 DT 19FA041C Rx 8  B1 FF FF FF FF FF 1A C9 
    300      1886.086 DT 19FA041C Rx 8  B2 04 1E DC FC 08 FF FF 
    301      1887.082 DT 19FA041C Rx 8  B3 FF FF FF 1D 04 29 04 
    302      1888.018 DT 04EF001C Rx 8  AE 5E 5B 28 50 D9 A5 AB 
    303      1889.106 DT 19FA041C Rx 8  B4 D8 68 10 FF FF FF FF 
    304      1890.098 DT 19FA041C Rx 8  B5 FF 2C B6 1C FC 85 68 
    305      1891.126 DT 19FA041C Rx 8  B6 10 FF FF FF FF FF 30 
    306      1892.126 DT 19FA041C Rx 8  B7 A9 1A 30 8E A0 0F FF 
    307      1893.146 DT 19FA041C Rx 8  B8 FF FF FF FF FF FF FF 
    308      1898.137 DT 04EF001C Rx 8  C2 40 C4 56 3C 27 3A 35 
    309      1908.244 DT 04EF001C Rx 8  7E 43 65 B5 80 24 9B D6 
    310      1918.375 DT 04EF001C Rx 8  3F 46 0E B8 C1 01 F0 FB 
    311      1928.475 DT 04EF001C Rx 8  FE 48 B9 BE 00 0F 47 FD 
    312      1938.574 DT 04EF001C Rx 8  C2 4B 9C 5D 3C 2C 62 3E 
    313      1948.689 DT 04EF001C Rx 8  81 4E F5 40 7F 29 0B 23 
    314      1958.796 DT 04EF001C Rx 8  43 51 C9 4F BD D6 37 CC 
    315      1968.922 DT 04EF001C Rx 8  01 54 A1 5A FF D3 5F D9 
    316      1979.026 DT 04EF001C Rx 8  BF 56 0A A8 41 D1 F4 2B 
    317      1989.089 DT 04EF001C Rx 8  81 59 4D 57 7F FE B3 F4 
    318      1999.200 DT 04EF001C Rx 8  40 5C A2 5A BE 1B 5C 19 
    319      2009.327 DT 04EF001C Rx 8  FE 5E 09 A8 00 39 F7 CB 
    320      2019.426 DT 04EF001C Rx 8  50 42 42 C4 AE 25 BC A7 
    321      2029.541 DT 04EF001C Rx 8  0D 45 25 2B F3 22 DB 48 
    322      2039.649 DT 04EF001C Rx 8  AA 47 97 11 54 C0 69 92 
    323      2049.756 DT 04EF001C Rx 8  8D 4A D9 24 73 CD 27 A7 
    324      2059.863 DT 04EF001C Rx 8  4E 4D 24 3B B0 EA DA 98 
    325      2069.997 DT 04EF001C Rx 8  E9 4F 96 01 17 C8 68 82 
    326      2080.096 DT 04EF001C Rx 8  D1 52 47 DC 2F F5 B9 7F 
    327      2090.200 DT 04EF001C Rx 8  FE 54 59 A2 00 93 A7 61 
    328      2100.311 DT 04EF001C Rx 8  BF 57 02 A9 41 B0 FC 4A 
    329      2110.414 DT 04EF001C Rx 8  7F 5A AC A4 80 5D 53 A7 
    330      2120.533 DT 04EF001C Rx 8  3F 5D D6 A3 C0 5A 29 A0 
    331      2130.656 DT 04EF001C Rx 8  01 40 01 4E FE 67 FE 6D 
    332      2140.744 DT 04EF001C Rx 8  C2 42 D4 54 3D 05 2B 17 
    333      2150.863 DT 04EF001C Rx 8  80 45 AC 43 7F 22 53 20 
    334      2160.985 DT 04EF001C Rx 8  41 48 03 46 BE 2F FC 25 
    335      2171.088 DT 04EF001C Rx 8  01 4B 59 45 FE EC A6 E6 
    336      2181.187 DT 04EF001C Rx 8  C2 4D AC 5B 3D CA 53 D8 
    337      2191.315 DT 04EF001C Rx 8  81 50 05 5E 7E D7 FA DD 
    338      2201.414 DT 04EF001C Rx 8  41 53 DB 5D BE D4 24 DE 
    339      2211.529 DT 04EF001C Rx 8  03 56 B3 48 FC F1 4C EB 
    340      2221.660 DT 04EF001C Rx 8  50 59 9A DF AF FE 65 7C 
    341      2231.763 DT 04EF001C Rx 8  03 5C E3 42 FC 9B 1C 81 
    342      2241.871 DT 04EF001C Rx 8  A9 5E 5C 10 56 99 A3 D3 
    343      2251.990 DT 04EF001C Rx 8  8E 41 82 37 8E 41 82 33 
    344      2262.088 DT 04EF001C Rx 8  45 44 67 6A 45 44 67 6E 
    345      2272.207 DT 04EF001C Rx 8  EC 46 DB 20 EC 66 DB 04 
    346      2282.322 DT 04EF001C Rx 8  CF 49 81 37 CF 09 81 73 
    347      2292.422 DT 04EF001C Rx 8  FE 4B A1 BD FE 0B A1 F9 
    348      2302.521 DT 04EF001C Rx 8  C3 4E B5 50 C3 0E B5 14 
    349      2312.640 DT 04EF001C Rx 8  81 51 0D 5F 81 31 0D 3B 
    350      2322.747 DT 04EF001C Rx 8  42 54 E0 42 42 F4 E0 E6 
    351      2332.866 DT 04EF001C Rx 8  02 57 BA 41 02 F7 BA E5 
    352      2342.974 DT 04EF001C Rx 8  C2 59 0C 4F C2 D9 0C CB 
    353      2353.092 DT 04EF001C Rx 8  81 5C 65 52 81 FC 65 F6 
    354      2363.203 DT 04EF001C Rx 8  3F 5F C6 A1 3F DF C6 25 
    355      2364.243 DT 09F8021C Rx 8  0D FC 7E 58 04 00 FF FF 
    356      2365.215 DT 09F8011C Rx 8  60 6D 26 18 A6 6B 5B C1 
    357      2366.251 DT 19FA031C Rx 8  0D D2 5A 00 8F 00 64 00 
    358      2367.251 DT 0DF0101C Rx 8  0D F0 3C 4F 50 A6 24 21 
    359      2368.275 DT 18FEE81C Rx 8  E8 40 00 00 20 64 80 7E 
    360      2369.351 DT 19FA041C Rx 8  C0 AB 0D FF 0E 05 52 35 
    361      2370.343 DT 19FA041C Rx 8  C1 4C 4F A0 0F FF FF FF 
    362      2371.342 DT 19FA041C Rx 8  C2 FF FF 0B 75 12 C0 2B 
    363      2372.370 DT 19FA041C Rx 8  C3 F0 0A FF FF FF FF FF 
    364      2373.318 DT 04EF001C Rx 8  A5 42 B0 6C A5 02 B0 28 
    365      2374.390 DT 19FA041C Rx 8  C4 0C 75 12 26 7F A0 0F 
    366      2375.394 DT 19FA041C Rx 8  C5 FF FF FF FF FF 0D 85 
    367      2376.418 DT 19FA041C Rx 8  C6 07 80 57 F0 0A FF FF 
    368      2377.422 DT 19FA041C Rx 8  C7 FF FF FF 0F 85 07 1C 
    369      2378.430 DT 19FA041C Rx 8  C8 70 1C 0C FF FF FF FF 
    370      2379.430 DT 19FA041C Rx 8  C9 FF 12 AC 0D D6 B5 04 
    371      2380.449 DT 19FA041C Rx 8  CA 10 FF FF FF FF FF 14 
    372      2381.445 DT 19FA041C Rx 8  CB 3B 24 8C 23 10 0E FF 
    373      2382.477 DT 19FA041C Rx 8  CC FF FF FF FF 15 21 20 
    374      2383.421 DT 04EF001C Rx 8  6D 45 46 2B 6D 05 46 6F 
    375      2384.505 DT 19FA041C Rx 8  CD EA 24 3C 0F FF FF FF 
    376      2385.498 DT 19FA041C Rx 8  CE FF FF 17 AF 00 4A 92 
    377      2386.530 DT 19FA041C Rx 8  CF 00 00 FF FF FF FF FF 
    378      2387.518 DT 19FA041C Rx 8  D0 19 B6 1C C2 97 04 10 
    379      2388.542 DT 19FA041C Rx 8  D1 FF FF FF FF FF 1A C9 
    380      2389.553 DT 19FA041C Rx 8  D2 04 1E DC 98 08 FF FF 
    381      2390.565 DT 19FA041C Rx 8  D3 FF FF FF 1D 04 29 04 
    382      2391.577 DT 19FA041C Rx 8  D4 D8 68 10 FF FF FF FF 
    383      2392.573 DT 19FA041C Rx 8  D5 FF 2C B6 1C FC 85 68 
    384      2393.541 DT 04EF001C Rx 8  3C 48 7D AE 3C 68 7D 8A 
    385      2394.019 ST          Rx    00 00 00 08
    386      2394.412 ST          Rx    00 04 00 08
    387      2394.959 ST          Rx    00 00 00 08
    388      2394.987 DT 19FA041C Rx 8  D6 10 FF FF FF FF FF 30 
    389      2396.623 DT 19FA041C Rx 8  D7 A9 1A 30 8E A0 0F FF 
    390      2397.643 DT 19FA041C Rx 8  D8 FF FF FF FF FF FF FF 
    391      2403.654 DT 04EF001C Rx 8  42 4A 10 5C BD AD EF BF 
    392      2413.753 DT 04EF001C Rx 8  01 4D 69 43 FE AA 96 A0 
    393      2423.872 DT 04EF001C Rx 8  2B 50 AA 0E D4 97 55 CD 
    394      2433.987 DT 04EF001C Rx 8  10 53 88 D5 EF B4 77 36 
    395      2444.095 DT 04EF001C Rx 8  C5 55 6B 7B C5 55 6B 7F 
    396      2454.202 DT 04EF001C Rx 8  6A 58 A9 0E 95 BF 56 ED 
    397      2464.321 DT 04EF001C Rx 8  50 5B 8A DD 50 5B 8A D9 
    398      2474.432 DT 04EF001C Rx 8  07 5E F7 60 07 5E F7 64 
    399      2481.648 DT 18FF1080 Rx 8  00 00 00 FF FF FF FD 00 
    400      2482.640 DT 18FF1180 Rx 8  02 FF FA FF FF FF 00 FF 
    401      2484.544 DT 04EF001C Rx 8  A9 40 AC 0E A9 60 AC 2A 
    402      2494.644 DT 04EF001C Rx 8  03 43 1B 5D 03 03 1B 19 
    403      2504.747 DT 04EF001C Rx 8  C3 45 ED 5B C3 65 ED 7F 
    404      2514.878 DT 04EF001C Rx 8  7E 48 3D BE 7E 48 3D BA 
    405      2524.965 DT 04EF001C Rx 8  43 4B 19 55 43 4B 19 51 
    406      2535.093 DT 04EF001C Rx 8  01 4E 71 40 FE A9 8E A3 
    407      2545.199 DT 04EF001C Rx 8  C0 50 46 56 C0 50 46 52 
    408      2555.302 DT 04EF001C Rx 8  81 53 1D 5D 7E 94 E2 9E 
    409      2565.417 DT 04EF001C Rx 8  3F 56 8E A8 C0 91 71 6B 
    410      2575.540 DT 04EF001C Rx 8  FF 58 38 A6 00 FF C7 05 
    411      2579.648 DT 18FF1080 Rx 8  00 00 00 FF FF FF FD 00 
    412      2580.637 DT 18FF1180 Rx 8  02 FF FA FF FF FF 00 FF 
    413      2581.629 DT 18FF1380 Rx 8  04 00 00 00 3F C0 40 00 
    414      2585.626 DT 04EF001C Rx 8  C3 5B 1D 45 3C DC E2 C6 
    415      2595.756 DT 04EF001C Rx 8  7F 5E 8C A0 80 19 73 E3 
    416      2600.320 DT 18EEFF00 Rx 8  C8 2C 42 0E 00 00 00 51 
    417      2605.128 DT 18EAFF00 Rx 3  00 EE 00 
    418      2605.892 DT 04EF001C Rx 8  3F 41 36 BF C0 66 C9 9C 
    419      2606.900 DT 18EEFF1C Rx 8  02 04 45 0E 00 00 00 42 
    420      2610.308 ST          Rx    00 00 00 00
    421      2610.336 DT 18EEFF00 Rx 8  C8 2C 4A 0E 00 00 00 51 
    422      2616.007 DT 04EF001C Rx 8  FE 43 E1 B5 01 44 1E B6 
    423      2619.639 DT 18E80080 Rx 8  01 FF FF FF FF 00 EE 00 
    424      2626.099 DT 04EF001C Rx 8  50 47 6A C1 AF 60 95 E2 
    425      2636.210 DT 04EF001C Rx 8  FA 49 B5 9F 05 0E 4A DC 
    426      2646.321 DT 04EF001C Rx 8  AD 4C C8 22 52 2B 37 41 
    427      2649.133 DT 19F10D13 Rx 8  00 4B 01 4D 01 00 01 80 
    428      2656.432 DT 04EF001C Rx 8  8C 4F F0 29 73 28 0F 4A 
    429      2666.531 DT 04EF001C Rx 8  3A 52 AB 84 C5 35 54 E7 
    430      2676.646 DT 04EF001C Rx 8  EB 54 4C 0A 14 D3 B3 89 
    431      2680.639 DT 18FF1080 Rx 8  00 00 00 FF FF FF FD 00 
    432      2681.631 DT 18FF1180 Rx 8  02 FF FA FF FF FF 00 FF 
    433      2686.748 DT 04EF001C Rx 8  A9 57 14 19 56 D0 EB 9A 
    434      2696.870 DT 04EF001C Rx 8  FF 59 30 A7 00 3E CF C4 
    435      2706.969 DT 04EF001C Rx 8  BE 5C 5B AA 41 DB A4 29 
    436      2717.092 DT 04EF001C Rx 8  81 5F 7D 51 7E D8 82 D2 
    437      2727.191 DT 04EF001C Rx 8  41 42 53 4C BE E5 AC EF 
    438      2737.303 DT 04EF001C Rx 8  FD 44 DA AA 02 C3 25 29 
    439      2747.429 DT 04EF001C Rx 8  C1 47 FF 49 3E E0 00 EA 
    440      2749.133 DT 19F10D13 Rx 8  01 4B 01 4D 01 00 01 80 
    441      2757.532 DT 04EF001C Rx 8  80 4A D4 4C 7F 8D 2B 8F 
    442      2767.651 DT 04EF001C Rx 8  3E 4D 57 BB C1 EA A8 18 
    443      2777.758 DT 04EF001C Rx 8  FF 4F 80 B1 00 C8 7F 32 
    444      2780.626 DT 18FF1080 Rx 8  00 00 00 FF FF FF FD 00 
    445      2781.619 DT 18FF1180 Rx 8  02 FF FA FF FF FF 00 FF 
    446      2782.627 DT 18FF1380 Rx 8  04 00 00 00 3F C0 40 00 
    447      2787.855 DT 04EF001C Rx 8  BF 52 2A AC 40 15 D5 EF 
    448      2797.974 DT 04EF001C Rx 8  7E 55 D5 A3 81 12 2A E0 
    449      2808.085 DT 04EF001C Rx 8  42 58 80 4E BD 1F 7F 0D 
    450      2818.188 DT 04EF001C Rx 8  67 5B BC 65 98 7C 43 46 
    451      2828.319 DT 04EF001C Rx 8  4F 5E BD 20 B0 19 42 63 
    452      2838.447 DT 04EF001C Rx 8  0B 41 03 1F F4 26 FC 7C 
    453      2848.529 DT 04EF001C Rx 8  AD 43 B0 2D 52 C4 4F AE 
    454      2849.133 DT 19F10D13 Rx 8  02 4B 01 4D 01 00 01 80 
    455      2858.648 DT 04EF001C Rx 8  8E 46 BA 30 71 E1 45 93 
    456      2867.779 DT 09F8021C Rx 8  0E FC 7E 58 03 00 FF FF 
    457      2868.767 DT 04EF001C Rx 8  9F 49 D3 B7 60 8E 2C 74 
    458      2869.771 DT 09F8011C Rx 8  5C 6D 26 18 92 6B 5B C1 
    459      2870.802 DT 19FA031C Rx 8  0E D2 5A 00 8F 00 64 00 
    460      2871.806 DT 0DF0101C Rx 8  0E F0 3C 4F 60 CD 24 21 
    461      2872.838 DT 18FEE81C Rx 8  E8 40 00 00 20 64 82 7E 
    462      2873.922 DT 19FA041C Rx 8  E0 AB 0E FF 0E 05 52 35 
    463      2874.913 DT 19FA041C Rx 8  E1 4C 4F A0 0F FF FF FF 
    464      2875.901 DT 19FA041C Rx 8  E2 FF FF 0B 75 12 C0 2B 
    465      2876.937 DT 19FA041C Rx 8  E3 F0 0A FF FF FF FF FF 
    466      2877.929 DT 19FA041C Rx 8  E4 0C 75 12 26 7F 04 10 
    467      2878.872 DT 04EF001C Rx 8  CC 4C AA 2A 33 EB 55 89 
    468      2879.976 DT 19FA041C Rx 8  E5 FF FF FF FF FF 0D 85 
    469      2880.540 DT 18FFDC00 Rx 8  40 14 01 00 00 58 78 19 
    470      2881.129 DT 18FF1080 Rx 8  00 00 00 FF FF FF FD 00 
    471      2881.697 DT 19FA041C Rx 8  E6 07 80 57 F0 0A FF FF 
    472      2882.613 DT 18FF1180 Rx 8  02 FF FA FF FF FF 00 FF 
    473      2883.185 DT 19FA041C Rx 8  E7 FF FF FF 0F 85 07 1C 
    474      2884.001 DT 19FA041C Rx 8  E8 70 80 0C FF FF FF FF 
    475      2884.997 DT 19FA041C Rx 8  E9 FF 12 AC 0D D6 B5 04 
    476      2885.574 DT 0CF00400 Rx 8  FF 7D 7D 00 00 00 FF FF 
    477      2886.150 DT 18FFDC00 Rx 8  41 00 00 00 00 2C FF DC 
    478      2886.722 DT 19FA041C Rx 8  EA 10 FF FF FF FF FF 14 
    479      2888.014 DT 19FA041C Rx 8  EB 3B 24 8C 23 10 0E FF 
    480      2888.982 DT 04EF001C Rx 8  FA 4E 8D 98 05 29 72 FB 
    481      2890.057 DT 19FA041C Rx 8  EC FF FF FF FF 15 21 20 
    482      2890.654 DT 09F20000 Rx 8  00 00 00 FF FF FF FF FF 
    483      2891.222 DT 18FFDC00 Rx 8  42 FF FF 9F D3 22 00 FF 
    484      2891.790 DT 19FA041C Rx 8  ED EA 24 3C 0F FF FF FF 
    485      2893.077 DT 19FA041C Rx 8  EE FF FF 17 AF 00 4A 92 
    486      2894.113 DT 19FA041C Rx 8  EF 00 00 FF FF FF FF FF 
    487      2895.101 DT 19FA041C Rx 8  F0 19 B6 1C C2 97 04 10 
    488      2895.673 DT 09F20100 Rx 8  40 16 00 05 00 FF FF 12 
    489      2896.249 DT 19FA041C Rx 8  F1 FF FF FF FF FF 1A C9 
    490      2897.133 DT 19FA041C Rx 8  F2 04 1E DC 34 08 FF FF 
    491      2898.145 DT 19FA041C Rx 8  F3 FF FF FF 1D 04 29 04 
    492      2899.084 DT 04EF001C Rx 8  B1 51 3C DF 4E 36 C3 BC 
    493      2900.172 DT 19FA041C Rx 8  F4 D8 CC 10 FF FF FF FF 
    494      2900.740 DT 09F20100 Rx 8  41 75 B1 04 00 00 9F D3 
    495      2901.320 DT 18FEE500 Rx 8  87 31 00 00 FF FF FF FF 
    496      2901.868 DT 19FA041C Rx 8  F5 FF 2C B6 1C FC 85 68 
    497      2903.200 DT 19FA041C Rx 8  F6 10 FF FF FF FF FF 30 
    498      2904.196 DT 19FA041C Rx 8  F7 A9 1A 30 8E A0 0F FF 
    499      2905.223 DT 19FA041C Rx 8  F8 FF FF FF FF FF FF FF 
    500      2905.799 DT 09F20100 Rx 8  42 22 00 FF FF FF FF 00 
    501      2906.375 DT 0CF00400 Rx 8  FF 7D 7D 00 00 00 FF FF 
    502      2906.952 DT 18FEEE00 Rx 8  42 FF FF FF FF FF 40 FF 
    503      2909.195 DT 04EF001C Rx 8  F5 53 6A FD 0A 34 95 9E 
    504      2910.327 DT 09F20100 Rx 8  43 01 00 FF FF FF FF FF 
    505      2910.907 DT 18FEEF00 Rx 8  FF FF FF 00 FF FF FF FF 
    506      2915.327 DT 18FEF200 Rx 8  00 00 FF FF FF FF 4B FF 
    507      2919.307 DT 04EF001C Rx 8  80 56 34 50 7F 31 CB 33 
    508      2920.315 DT 18FEF700 Rx 8  FF FF 1A 01 F0 00 F0 00 
    509      2925.315 DT 0CF00400 Rx 8  FF 7D 7D 00 00 00 FF FF 
    510      2925.867 DT 0CEF1100 Rx 8  79 85 75 AD 9E 2F A0 96 
    511      2929.411 DT 04EF001C Rx 8  41 59 8B 57 BE DE 74 D4 
    512      2930.319 DT 18FFDC00 Rx 8  60 14 01 00 00 58 78 19 
    513      2930.899 DT 0CEF0100 Rx 8  B0 20 00 00 00 63 5C 00 
    514      2935.320 DT 18FFDC00 Rx 8  61 00 00 00 00 2C FF DC 
    515      2935.900 DT 0CF00300 Rx 8  DF 00 4F FF 00 FF FF FF 
    516      2939.535 DT 04EF001C Rx 8  00 5C E0 5A FF 9B 1F 99 
    517      2940.299 DT 18FFDC00 Rx 8  62 FF FF 9F D3 22 00 FF 
    518      2940.891 DT 0CEF1700 Rx 8  00 00 00 00 00 00 00 00 
    519      2945.319 DT 0CF00400 Rx 8  FF 7D 7D 00 00 00 FF FF 
    520      2945.911 DT 18FEFC00 Rx 8  FF DC FF FF FF FF FF FF 
    521      2949.139 DT 19F10D13 Rx 8  03 4B 01 4D 01 00 01 80 
    522      2949.691 DT 04EF001C Rx 8  C1 5E 37 50 3E B9 C8 B3 
    523      2950.331 DT 0CEF0100 Rx 8  B0 20 00 00 00 63 5C 00 
    524      2950.903 DT 18FEF600 Rx 8  FF FF 42 2A FF FF FF FF 
    525      2955.319 DT 18FEF100 Rx 8  FF 00 00 F0 FF C7 1F FF 
    526      2959.755 DT 04EF001C Rx 8  80 41 8C 47 80 41 8C 43 
    527      2965.314 DT 0CF00400 Rx 8  FF 7D 7D 00 00 00 FF FF 
    528      2969.874 DT 04EF001C Rx 8  3E 44 1F B2 3E 44 1F B6 
    529      2970.454 DT 0CEF0100 Rx 8  B0 20 00 00 00 63 5C 00 
    530      2975.290 DT 0CEF1100 Rx 8  84 BD 8D 0A 9E A4 C7 DC 
    531      2979.977 DT 04EF001C Rx 8  00 47 38 41 00 47 38 45 
    532      2980.549 DT 18FFDC00 Rx 8  80 14 01 00 00 58 78 19 
    533      2981.634 DT 18FF1080 Rx 8  00 00 00 FF FF FF FD 00 
    534      2982.626 DT 18FF1180 Rx 8  02 FF FA FF FF FF 00 FF 
    535      2983.614 DT 18FF1380 Rx 8  04 00 00 00 3F C0 40 00 
    536      2985.207 DT 18FFDC00 Rx 8  81 00 00 00 00 24 FF DC 
    537      2985.787 DT 0CF00300 Rx 8  DF 00 4F FF 00 FF FF FF 
    538      2986.363 DT 0CF00400 Rx 8  FF 7D 7D 00 00 00 FF FF 
    539      2989.983 DT 04EF001C Rx 8  C1 49 8F 47 3E AE 70 A4 
    540      2990.579 DT 09F20000 Rx 8  00 00 00 FF FF FF FF FF 
    541      2991.159 DT 0CEF0100 Rx 8  B0 20 00 00 00 63 5C 00 
    542      2991.731 DT 18FFDC00 Rx 8  82 FF FF 9F D3 22 00 FF 
    543      3000.098 DT 04EF001C Rx 8  7E 4C 1D BA 81 8B E2 79 
    544      3005.210 DT 0CF00400 Rx 8  FF 7D 7D 00 00 00 FF FF 
    545      3010.225 DT 0CEF0100 Rx 8  B0 20 00 00 00 63 5C 00 
    546      3010.793 DT 04EF001C Rx 8  3E 4F 47 B9 C1 E8 B8 1A 
    547      3015.225 DT 18FEF200 Rx 8  00 00 FF FF FF FF 4B FF 
    548      3020.325 DT 04EF001C Rx 8  8E 52 1A 24 71 F5 E5 87 
    549      3025.212 DT 0CF00400 Rx 8  FF 7D 7D 00 00 00 FF FF 
    550      3025.760 DT 0CEF1100 Rx 8  C0 B6 06 28 EF E5 1D 54 
    551      3030.212 DT 18FFDC00 Rx 8  A0 14 01 00 00 58 77 19 
    552      3030.768 DT 04EF001C Rx 8  28 55 81 13 D7 92 7E D0 
    553      3031.348 DT 0CEF0100 Rx 8  B0 20 00 00 00 63 5C 00 
    554      3035.204 DT 18FFDC00 Rx 8  A1 00 00 00 00 24 FF DC 
    555      3035.784 DT 0CF00300 Rx 8  DF 00 4F FF 00 FF FF FF 
    556      3040.193 DT 18FFDC00 Rx 8  A2 FF FF 9F D3 22 00 FF 
    557      3040.745 DT 04EF001C Rx 8  0E 58 CE 2E F1 9F 31 ED 
    558      3045.209 DT 0CF00400 Rx 8  FF 7D 7D 00 00 00 FF FF 
    559      3049.029 DT 19F10D13 Rx 8  04 4A 01 4D 01 00 01 81 
    560      3050.225 DT 0CEF0100 Rx 8  B0 20 00 00 00 63 5C 00 
    561      3050.777 DT 04EF001C Rx 8  CD 5A 1B 34 32 FD E4 97 
    562      3055.212 DT 18FEF100 Rx 8  FF 00 00 F0 FF C7 1F FF 
    563      3060.760 DT 04EF001C Rx 8  67 5D 8C 63 98 DA 73 E0 
    564      3065.208 DT 0CF00400 Rx 8  FF 7D 7D 00 00 00 FF FF 
    565      3070.224 DT 0CEF0100 Rx 8  B0 20 00 00 00 63 5C 00 
    566      3070.920 DT 04EF001C Rx 8  4C 40 4E 26 B3 27 B1 45 
    567      3075.180 DT 0CEF1100 Rx 8  10 A3 DC AD B5 34 E3 87 
    568      3080.203 DT 18FFDC00 Rx 8  C0 14 01 00 00 58 77 19 
    569      3081.015 DT 04EF001C Rx 8  0E 43 16 35 F1 24 E9 56 
    570      3082.520 DT 18FF1080 Rx 8  00 00 00 FF FF FF FD 00 
    571      3083.512 DT 18FF1180 Rx 8  02 FF FA FF FF FF 00 FF 
    572      3085.200 DT 18FFDC00 Rx 8  C1 00 00 00 00 24 FF DC 
    573      3085.780 DT 0CF00300 Rx 8  DF 00 4F FF 00 FF FF FF 
    574      3086.356 DT 0CF00400 Rx 8  FF 7D 7D 00 00 00 FF FF 
    575      3090.193 DT 18FFDC00 Rx 8  C2 FF FF 9F D3 22 00 FF 
    576      3090.790 DT 09F20000 Rx 8  00 00 00 FF FF FF FF FF 
    577      3091.345 DT 04EF001C Rx 8  3E 45 17 B3 C1 22 E8 D0 
    578      3091.926 DT 0CEF0100 Rx 8  B0 20 00 00 00 63 5C 00 
    579      3101.217 DT 04EF001C Rx 8  FD 47 C2 A9 02 00 3D EA 
    580      3105.208 DT 0CF00400 Rx 8  FF 7D 7D 00 00 00 FF FF 
    581      3110.220 DT 0CEF0100 Rx 8  B0 20 00 00 00 63 5C 00 
    582      3111.332 DT 04EF001C Rx 8  C0 4A 96 4C 3F 2D 69 2F 
    583      3115.220 DT 18FEF200 Rx 8  00 00 FF FF FF FF 4B FF 
    584      3121.431 DT 04EF001C Rx 8  80 4D EC 4B 7F CA 13 C8 
    585      3125.207 DT 0CF00400 Rx 8  FF 7D 7D 00 00 00 FF FF 
    586      3125.751 DT 0CEF1100 Rx 8  57 A7 EF 54 67 71 DC D4 
    587      3130.203 DT 18FFDC00 Rx 8  E0 14 01 00 00 58 77 19 
    588      3130.783 DT 0CEF0100 Rx 8  B0 20 00 00 00 63 5C 00 
    589      3131.575 DT 04EF001C Rx 8  64 50 E7 76 9B 37 18 15 
    590      3135.207 DT 18FFDC00 Rx 8  E1 00 00 00 00 24 FF DC 
    591      3135.787 DT 0CF00300 Rx 8  DF 00 4F FF 00 FF FF FF 
    592      3140.192 DT 18FFDC00 Rx 8  E2 FF FF 9F D3 22 00 FF 
    593      3141.668 DT 04EF001C Rx 8  25 53 BC 7D DA 34 43 1E 
    594      3145.207 DT 0CF00400 Rx 8  FF 7D 7D 00 00 00 FF FF 
    595      3149.027 DT 19F10D13 Rx 8  05 4B 01 4D 01 00 01 80 
    596      3150.219 DT 0CEF0100 Rx 8  B0 20 00 00 00 63 5C 00 
    597      3151.775 DT 04EF001C Rx 8  E3 55 4C 4B 1C 12 B3 08 
    598      3155.211 DT 18FEF100 Rx 8  FF 00 00 F0 FF C7 1F FF 
    599      3161.870 DT 04EF001C Rx 8  7E 58 BD AE 81 7F 42 8D 
    600      3165.206 DT 0CF00400 Rx 8  FF 7D 7D 00 00 00 FF FF 
    601      3170.218 DT 0CEF0100 Rx 8  B0 20 00 00 00 63 5C 00 
    602      3171.970 DT 04EF001C Rx 8  72 5B A9 CD 8D 5C 56 CE 
    603      3175.182 DT 0CEF1100 Rx 8  7C D1 D4 D2 DC 70 5B D1 
    604      3180.206 DT 18FFDC00 Rx 8  00 14 01 00 00 58 77 19 
    605      3182.089 DT 04EF001C Rx 8  35 5E C4 F0 CA 59 3B F3 
    606      3182.678 DT 18FF1080 Rx 8  00 00 00 FF FF FF FD 00 
    607      3183.514 DT 18FF1180 Rx 8  02 FF FA FF FF FF 00 FF 
    608      3184.522 DT 18FF1380 Rx 8  04 00 00 00 3F C0 40 00 
    609      3185.210 DT 18FFDC00 Rx 8  01 00 00 00 00 24 FF DC 
    610      3185.790 DT 0CF00300 Rx 8  DF 00 4F FF 00 FF FF FF 
    611      3186.366 DT 0CF00400 Rx 8  FF 7D 7D 00 00 00 FF FF 
    612      3190.202 DT 18FFDC00 Rx 8  02 FF FF 9F D3 22 00 FF 
    613      3190.799 DT 09F20000 Rx 8  00 00 00 FF FF FF FF FF 
    614      3191.379 DT 0CEF0100 Rx 8  B0 20 00 00 00 63 5C 00 
    615      3192.223 DT 04EF001C Rx 8  F5 40 F2 EE 0A 47 0D ED 
    616      3202.314 DT 04EF001C Rx 8  82 43 9E 55 7C A4 60 B6 
    617      3205.206 DT 0CF00400 Rx 8  FF 7D 7D 00 00 00 FF FF 
    618      3210.217 DT 0CEF0100 Rx 8  B0 20 00 00 00 63 5C 00 
    619      3212.425 DT 04EF001C Rx 8  76 46 45 F0 89 41 BA F3 
    620      3215.205 DT 18FEF200 Rx 8  00 00 FF FF FF FF 4A FF 
    621      3222.544 DT 04EF001C Rx 8  8E 49 C2 3F 71 4E 3D 3C 
    622      3225.204 DT 0CF00400 Rx 8  FF 7D 7D 00 00 00 FF FF 
    623      3225.768 DT 0CEF1100 Rx 8  3F D5 E6 0B BB 26 F8 2A 
    624      3230.200 DT 18FFDC00 Rx 8  20 14 01 00 00 58 77 19 
    625      3230.780 DT 0CEF0100 Rx 8  B0 20 00 00 00 63 5C 00 
    626      3232.656 DT 04EF001C Rx 8  BC 4C D9 AA 43 6B 26 89 
    627      3235.204 DT 18FFDC00 Rx 8  21 00 00 00 00 2C FF DC 
    628      3235.784 DT 0CF00300 Rx 8  DF 00 4F FF 00 FF FF FF 
    629      3240.187 DT 18FFDC00 Rx 8  22 FF FF 9F D3 22 00 FF 
    630      3242.752 DT 04EF001C Rx 8  1E 4F 66 B9 E1 68 99 9A 
    631      3245.204 DT 0CF00400 Rx 8  FF 7D 7D 00 00 00 FF FF 
    632      3249.036 DT 19F10D13 Rx 8  06 4B 01 4D 01 00 01 80 
    633      3250.216 DT 0CEF0100 Rx 8  B0 20 00 00 00 63 5C 00 
    634      3252.884 DT 04EF001C Rx 8  CE 51 40 27 31 76 BF 04 
    635      3255.208 DT 18FEF100 Rx 8  FF 00 00 F0 FF C7 1F FF 
    636      3262.987 DT 04EF001C Rx 8  8E 54 2A 22 71 13 D5 61 
    637      3265.203 DT 0CF00400 Rx 8  FF 7D 7D 00 00 00 FF FF 
    638      3270.215 DT 0CEF0100 Rx 8  B0 20 00 00 00 63 5C 00 
    639      3273.094 DT 04EF001C Rx 8  29 57 90 19 D6 70 6F 3A 
    640      3275.182 DT 0CEF1100 Rx 8  E0 C7 C7 37 ED EB 25 58 
    641      3280.194 DT 18FFDC00 Rx 8  40 14 01 00 00 58 77 19 
    642      3282.531 DT 18FF1080 Rx 8  00 00 00 FF FF FF FD 00 
    643      3283.223 DT 04EF001C Rx 8  0C 5A DC 3C F3 7D 23 1F 
    644      3283.799 DT 18FF1180 Rx 8  02 FF FA FF FF FF 00 FF 
    645      3285.195 DT 18FFDC00 Rx 8  41 00 00 00 00 2C FF DC 
    646      3285.775 DT 0CF00300 Rx 8  DF 00 4F FF 00 FF FF FF 
    647      3286.351 DT 0CF00400 Rx 8  FF 7D 7D 00 00 00 FF FF 
    648      3290.191 DT 18FFDC00 Rx 8  42 FF FF 9F D3 22 00 FF 
    649      3290.787 DT 09F20000 Rx 8  00 00 00 FF FF FF FF FF 
    650      3291.367 DT 0CEF0100 Rx 8  B0 20 00 00 00 63 5C 00 
    651      3293.303 DT 04EF001C Rx 8  75 5C 96 F2 8A 1B 69 B1 
    652      3303.434 DT 04EF001C Rx 8  FE 5E 09 A8 01 19 F6 EB 
    653      3305.202 DT 0CF00400 Rx 8  FF 7D 7D 00 00 00 FF FF 
    654      3310.214 DT 0CEF0100 Rx 8  B0 20 00 00 00 63 5C 00 
    655      3313.546 DT 04EF001C Rx 8  C1 41 CF 4F 3E 26 30 2C 
    656      3315.210 DT 18FEF200 Rx 8  00 00 FF FF FF FF 4B FF 
    657      3323.645 DT 04EF001C Rx 8  7D 44 5E AA 82 23 A1 C9 
    658      3325.197 DT 0CF00400 Rx 8  FF 7D 7D 00 00 00 FF FF 
    659      3325.758 DT 0CEF1100 Rx 8  9F FB 3B 01 F1 DF 9A 76 
    660      3330.193 DT 18FFDC00 Rx 8  60 14 01 00 00 58 77 19 
    661      3330.773 DT 0CEF0100 Rx 8  B0 20 00 00 00 63 5C 00 
    662      3333.765 DT 04EF001C Rx 8  41 47 7B 49 BE 20 84 2A 
    663      3335.201 DT 18FFDC00 Rx 8  61 00 00 00 00 2C FF DC 
    664      3335.781 DT 0CF00300 Rx 8  DF 00 4F FF 00 FF FF FF 
    665      3340.181 DT 18FFDC00 Rx 8  62 FF FF 9F D3 22 00 FF 
    666      3343.877 DT 04EF001C Rx 8  00 4A 50 4C FF 2D AF 2F 
    667      3345.202 DT 0CF00400 Rx 8  FF 7D 7D 00 00 00 FF FF 
    668      3349.030 DT 19F10D13 Rx 8  07 4B 01 4D 01 00 01 80 
    669      3350.214 DT 0CEF0100 Rx 8  B0 20 00 00 00 63 5C 00 
    670      3353.981 DT 04EF001C Rx 8  C1 4C A7 42 3E 2B 58 21 
    671      3355.201 DT 18FEF100 Rx 8  FF 00 00 F0 FF C7 1F FF 
    672      3364.113 DT 04EF001C Rx 8  81 4F FD 41 7E 08 02 02 
    673      3365.205 DT 0CF00400 Rx 8  FF 7D 7D 00 00 00 FF FF 
    674      3366.572 DT 18EEFF9B Rx 8  6D AA EF 10 00 82 78 C0 
    675      3370.212 DT 0CEF0100 Rx 8  B0 20 00 00 00 63 5C 00 
    676      3374.204 DT 04EF001C Rx 8  40 52 D2 54 BF 55 2D 57 
    677      3375.180 DT 0CEF1100 Rx 8  54 F5 FF 9A 9D 38 13 D2 
    678      3375.756 DT 09F8021C Rx 8  0F FC 7E 58 06 00 FF FF 
    679      3377.240 DT 09F8011C Rx 8  54 6D 26 18 74 6B 5B C1 
    680      3378.275 DT 19FA031C Rx 8  0F D2 5A 00 8F 00 64 00 
    681      3379.275 DT 0DF0101C Rx 8  0F F0 3C 4F 60 CD 24 21 
    682      3380.195 DT 18FFDC00 Rx 8  80 14 01 00 00 58 77 19 
    683      3380.755 DT 18FEE81C Rx 8  E8 40 00 00 20 64 84 7E 
    684      3382.379 DT 19FA041C Rx 8  00 AB 0F FF 0E 05 52 35 
    685      3383.383 DT 19FA041C Rx 8  01 4C 4F A0 0F FF FF FF 
    686      3383.971 DT 18FF1080 Rx 8  00 00 00 FF FF FF FD 00 
    687      3384.523 DT 04EF001C Rx 8  AE 55 03 23 51 52 FC 20 
    688      3385.196 DT 18FFDC00 Rx 8  81 00 00 00 00 2C FF DC 
    689      3385.776 DT 0CF00300 Rx 8  DF 00 4F FF 00 FF FF FF 
    690      3386.352 DT 0CF00400 Rx 8  FF 7D 7D 00 00 00 FF FF 
    691      3386.928 DT 18FF1180 Rx 8  02 FF FA FF FF FF 00 FF 
    692      3387.488 DT 19FA041C Rx 8  02 FF FF 0B 75 12 C0 2B 
    693      3388.444 DT 19FA041C Rx 8  03 F0 0A FF FF FF FF FF 
    694      3389.024 DT 18FF1380 Rx 8  04 00 00 00 3F C0 40 00 
    695      3389.588 DT 19FA041C Rx 8  04 0C 75 12 26 7F 04 10 
    696      3390.192 DT 18FFDC00 Rx 8  82 FF FF 9F D3 22 00 FF 
    697      3390.788 DT 09F20000 Rx 8  00 00 00 FF FF FF FF FF 
    698      3391.368 DT 0CEF0100 Rx 8  B0 20 00 00 00 63 5C 00 
    699      3391.948 DT 19FA041C Rx 8  05 FF FF FF FF FF 0D 85 
    700      3393.484 DT 19FA041C Rx 8  06 07 80 57 8C 0A FF FF 
    701      3394.432 DT 04EF001C Rx 8  74 58 B7 FE 8A 9F 49 3D 
    702      3395.520 DT 19FA041C Rx 8  07 FF FF FF 0F 85 07 1C 
    703      3396.528 DT 19FA041C Rx 8  08 70 80 0C FF FF FF FF 
    704      3397.520 DT 19FA041C Rx 8  09 FF 12 AC 0D D6 B5 A0 
    705      3398.556 DT 19FA041C Rx 8  0A 0F FF FF FF FF FF 14 
    706      3399.544 DT 19FA041C Rx 8  0B 3B 24 8C 23 74 0E FF 
    707      3400.567 DT 19FA041C Rx 8  0C FF FF FF FF 15 21 20 
    708      3401.575 DT 19FA041C Rx 8  0D EA 24 3C 0F FF FF FF 
    709      3402.583 DT 19FA041C Rx 8  0E FF FF 17 AF 00 4A 92 
    710      3403.611 DT 19FA041C Rx 8  0F 00 00 FF FF FF FF FF 
    711      3404.554 DT 04EF001C Rx 8  24 5B FD 7D DA FC 03 DE 
    712      3405.203 DT 0CF00400 Rx 8  FF 7D 7D 00 00 00 FF FF 
    713      3405.763 DT 19FA041C Rx 8  10 19 B6 1C C2 97 04 10 
    714      3406.654 DT 19FA041C Rx 8  11 FF FF FF FF FF 1A C9 
    715      3407.650 DT 19FA041C Rx 8  12 04 1E DC 34 08 FF FF 
    716      3408.654 DT 19FA041C Rx 8  13 FF FF FF 1D 04 29 04 
    717      3409.662 DT 19FA041C Rx 8  14 D8 CC 10 FF FF FF FF 
    718      3410.250 DT 0CEF0100 Rx 8  B0 20 00 00 00 63 5C 00 
    719      3410.830 DT 18FEEF00 Rx 8  FF FF FF 00 FF FF FF FF 
    720      3411.386 DT 19FA041C Rx 8  15 FF 2C B6 1C FC 85 04 
    721      3412.697 DT 19FA041C Rx 8  16 10 FF FF FF FF FF 30 
    722      3413.701 DT 19FA041C Rx 8  17 A9 1A 30 8E A0 0F FF 
    723      3414.665 DT 04EF001C Rx 8  F8 5D 17 9B 06 FA E9 38 
    724      3415.257 DT 18FEF200 Rx 8  00 00 FF FF FF FF 4B FF 
    725      3415.845 DT 19FA041C Rx 8  18 FF FF FF FF FF FF FF 
    726      3424.784 DT 04EF001C Rx 8  81 40 85 4E 7F C7 7B CD 
    727      3425.328 DT 0CEF1100 Rx 8  32 EC 6D 2C 7A 30 0D 6C 
    728      3425.904 DT 0CF00400 Rx 8  FF 7D 7D 00 00 00 FF FF 
    729      3430.200 DT 18FFDC00 Rx 8  A0 14 01 00 00 58 77 19 
    730      3430.780 DT 0CEF0100 Rx 8  B0 20 00 00 00 63 5C 00 
    731      3434.883 DT 04EF001C Rx 8  28 43 31 05 D6 24 CF 66 
    732      3435.463 DT 0CF00300 Rx 8  DF 00 4F FF 00 FF FF FF 
    733      3436.039 DT 18FFDC00 Rx 8  A1 00 00 00 00 2C FF DC 
    734      3440.175 DT 18FFDC00 Rx 8  A2 FF FF 9F D3 22 00 FF 
    735      3440.767 DT 0CEF1700 Rx 8  00 00 00 00 00 00 00 00 
    736      3445.002 DT 04EF001C Rx 8  0E 46 3E 30 F0 21 C0 53 
    737      3445.578 DT 0CF00400 Rx 8  FF 7D 7D 00 00 00 FF FF 
    738      3449.035 DT 19F10D13 Rx 8  08 4B 01 4E 01 00 01 80 
    739      3450.208 DT 0CEF0100 Rx 8  B0 20 00 00 00 63 5C 00 
    740      3450.780 DT 18FEF600 Rx 8  FF FF 42 2A FF FF FF FF 
    741      3455.107 DT 04EF001C Rx 8  BD 48 F8 A6 43 0F 06 E5 
    742      3455.679 DT 18FEF100 Rx 8  FF 00 00 F0 FF C7 1F FF 
    743      3465.195 DT 0CF00400 Rx 8  FF 7D 7D 00 00 00 FF FF 
    744      3465.743 DT 04EF001C Rx 8  6A 4B 31 1D 94 2C CF 7E 
    745      3470.207 DT 0CEF0100 Rx 8  B0 20 00 00 00 63 5C 00 
    746      3475.175 DT 0CEF1100 Rx 8  85 9E 55 4B EE 2F 5C 10 
    747      3475.715 DT 04EF001C Rx 8  4F 4E 3D 30 B1 C9 C3 B3 
    748      3480.186 DT 18FFDC00 Rx 8  C0 14 01 00 00 58 77 19 
    749      3483.519 DT 18FF1080 Rx 8  00 00 00 FF FF FF FD 00 
    750      3484.507 DT 18FF1180 Rx 8  02 FF FA FF FF FF 00 FF 
    751      3485.191 DT 18FFDC00 Rx 8  C1 00 00 00 00 2C FF DC 
    752      3485.759 DT 04EF001C Rx 8  FE 50 79 A6 00 F7 87 05 
    753      3486.340 DT 0CF00300 Rx 8  DF 00 4F FF 00 FF FF FF 
    754      3486.915 DT 0CF00400 Rx 8  FF 7D 7D 00 00 00 FF FF 
    755      3490.179 DT 18FFDC00 Rx 8  C2 FF FF 9F D3 22 00 FF 
    756      3490.775 DT 09F20000 Rx 8  00 00 00 FF FF FF FF FF 
    757      3491.355 DT 0CEF0100 Rx 8  B0 20 00 00 00 63 5C 00 
    758      3495.535 DT 04EF001C Rx 8  3F 53 A6 AD C1 94 58 6E 
    759      3505.192 DT 0CF00400 Rx 8  FF 7D 7D 00 00 00 FF FF 
    760      3505.748 DT 04EF001C Rx 8  FD 55 52 BB 03 92 AC 78 
    761      3510.204 DT 0CEF0100 Rx 8  B0 20 00 00 00 63 5C 00 
    762      3515.203 DT 18FEF200 Rx 8  00 00 FF FF FF FF 4B FF 
    763      3515.791 DT 04EF001C Rx 8  BF 58 7A A6 41 FF 84 05 
    764      3525.191 DT 0CF00400 Rx 8  FF 7D 7D 00 00 00 FF FF 
    765      3525.731 DT 0CEF1100 Rx 8  CA 92 24 F0 98 60 34 61 
    766      3526.291 DT 04EF001C Rx 8  7D 5B A6 B5 83 FC 58 16 
    767      3530.187 DT 18FFDC00 Rx 8  E0 14 01 00 00 58 77 19 
    768      3530.767 DT 0CEF0100 Rx 8  B0 20 00 00 00 63 5C 00 
    769      3535.187 DT 18FFDC00 Rx 8  E1 00 00 00 00 2C FF DC 
    770      3535.767 DT 0CF00300 Rx 8  DF 00 4F FF 00 FF FF FF 
    771      3536.323 DT 04EF001C Rx 8  3E 5E CF A8 C0 D9 31 2B 
    772      3540.175 DT 18FFDC00 Rx 8  E2 FF FF 9F D3 22 00 FF 
    773      3545.191 DT 0CF00400 Rx 8  FF 7D 7D 00 00 00 FF FF 
    774      3546.122 DT 04EF001C Rx 8  00 41 08 47 FE E6 F6 E4 
    775      3549.030 DT 19F10D13 Rx 8  09 4B 01 4E 01 00 01 80 
    776      3549.602 DT 19F21139 Rx 8  00 00 00 FF 14 05 00 00 
    777      3550.206 DT 0CEF0100 Rx 8  B0 20 00 00 00 63 5C 00 
    778      3555.195 DT 18FEF100 Rx 8  FF 00 00 F0 FF C7 1F FF 
    779      3556.223 DT 04EF001C Rx 8  BE 43 A3 B5 40 84 5D 76 
    780      3565.191 DT 0CF00400 Rx 8  FF 7D 7D 00 00 00 FF FF 
    781      3566.351 DT 04EF001C Rx 8  80 46 B4 40 7E 81 4A 83 
    782      3570.202 DT 0CEF0100 Rx 8  B0 20 00 00 00 63 5C 00 
    783      3575.166 DT 0CEF1100 Rx 8  19 8C 66 AF D6 B5 2A D0 
    784      3576.442 DT 04EF001C Rx 8  66 49 2D 7F 98 8E D3 BC 
    785      3580.186 DT 18FFDC00 Rx 8  00 14 01 00 00 58 77 19 
    786      3584.506 DT 18FF1080 Rx 8  00 00 00 FF FF FF FD 00 
    787      3585.190 DT 18FFDC00 Rx 8  01 00 00 00 00 2C FF DC 
    788      3585.770 DT 0CF00300 Rx 8  DF 00 4F FF 00 FF FF FF 
    789      3586.346 DT 0CF00400 Rx 8  FF 7D 7D 00 00 00 FF FF 
    790      3586.890 DT 04EF001C Rx 8  23 4C 42 52 DD EB BC F1 
    791      3587.467 DT 18FF1180 Rx 8  02 FF FA FF FF FF 00 FF 
    792      3588.507 DT 18FF1380 Rx 8  04 00 00 00 3F C0 40 00 
    793      3590.187 DT 18FFDC00 Rx 8  02 FF FF 9F D3 22 00 FF 
    794      3590.783 DT 09F20000 Rx 8  00 00 00 FF FF FF FF FF 
    795      3591.363 DT 0CEF0100 Rx 8  B0 20 00 00 00 63 5C 00 
    796      3596.647 DT 04EF001C Rx 8  BF 4E CA B0 41 C9 34 33 
    797      3605.191 DT 0CF00400 Rx 8  FF 7D 7D 00 00 00 FF FF 
    798      3605.768 DT 18FECA00 Rx 8  44 FF 00 00 00 00 FF FF 
    799      3606.796 DT 04EF001C Rx 8  A3 51 2E 4F 5D 36 D0 2C 
    800      3610.199 DT 0CEF0100 Rx 8  B0 20 00 00 00 63 5C 00 
    801      3615.191 DT 18FEF200 Rx 8  00 00 FF FF FF FF 4A FF 
    802      3616.887 DT 04EF001C Rx 8  12 55 BA C3 EC 12 44 80 
    803      3625.187 DT 0CF00400 Rx 8  FF 7D 7D 00 00 00 FF FF 
    804      3625.739 DT 0CEF1100 Rx 8  52 80 16 34 AB E8 D3 F9 
    805      3627.015 DT 04EF001C Rx 8  EF 57 50 29 11 10 AE 6A 
    806      3630.187 DT 18FFDC00 Rx 8  20 14 01 00 00 58 77 19 
    807      3630.767 DT 0CEF0100 Rx 8  B0 20 00 00 00 63 5C 00 
    808      3635.190 DT 18FFDC00 Rx 8  21 00 00 00 00 2C FF DC 
    809      3635.771 DT 0CF00300 Rx 8  DF 00 4F FF 00 FF FF FF 
    810      3637.135 DT 04EF001C Rx 8  AB 5A 7E 04 55 7D 80 27 
    811      3640.170 DT 18FFDC00 Rx 8  22 FF FF 9F D3 22 00 FF 
    812      3645.186 DT 0CF00400 Rx 8  FF 7D 7D 00 00 00 FF FF 
    813      3647.218 DT 04EF001C Rx 8  29 5D C0 13 D7 1A 3E 50 
    814      3649.034 DT 19F10D13 Rx 8  0A 4B 01 4E 01 00 01 80 
    815      3649.606 DT 19F21139 Rx 8  00 00 00 FF 78 05 00 00 
    816      3650.202 DT 0CEF0100 Rx 8  B0 20 00 00 00 63 5C 00 
    817      3655.191 DT 18FEF100 Rx 8  FF 00 00 F0 FF C7 1F FF 
    818      3657.327 DT 04EF001C Rx 8  E2 5F 1D 49 1C 18 E3 0A 
    819      3665.186 DT 0CF00400 Rx 8  FF 7D 7D 00 00 00 FF FF 
    820      3667.430 DT 04EF001C Rx 8  C4 42 D2 64 3A 65 2C 47 
    821      3670.198 DT 0CEF0100 Rx 8  B0 20 00 00 00 63 5C 00 
    822      3675.166 DT 0CEF1100 Rx 8  BD B2 3A 81 B9 41 20 A0 
    823      3677.549 DT 04EF001C Rx 8  6A 45 41 13 94 22 BF 70 
    824      3680.181 DT 18FFDC00 Rx 8  40 14 01 00 00 58 77 19 
    825      3684.506 DT 18FF1080 Rx 8  00 00 00 FF FF FF FD 00 
    826      3685.182 DT 18FFDC00 Rx 8  41 00 00 00 00 2C FF DC 
    827      3685.762 DT 0CF00300 Rx 8  DF 00 4F FF 00 FF FF FF 
    828      3686.338 DT 0CF00400 Rx 8  FF 7D 7D 00 00 00 FF FF 
    829      3686.914 DT 18FF1180 Rx 8  02 FF FA FF FF FF 00 FF 
    830      3687.670 DT 04EF001C Rx 8  12 48 52 DE EC 0F AC 9D 
    831      3690.174 DT 18FFDC00 Rx 8  42 FF FF 9F D3 22 00 FF 
    832      3690.770 DT 09F20000 Rx 8  00 00 00 FF FF FF FF FF 
    833      3691.350 DT 0CEF0100 Rx 8  B0 20 00 00 00 63 5C 00 
    834      3697.769 DT 04EF001C Rx 8  3E 4A 6F BC C0 2D 91 DF 
    835      3705.186 DT 0CF00400 Rx 8  FF 7D 7D 00 00 00 FF FF 
    836      3707.882 DT 04EF001C Rx 8  01 4D 69 43 FF 2A 97 20 
    837      3710.198 DT 0CEF0100 Rx 8  B0 20 00 00 00 63 5C 00 
    838      3715.189 DT 18FEF200 Rx 8  00 00 FF FF FF FF 4A FF 
    839      3717.997 DT 04EF001C Rx 8  C1 4F BF 41 3F E8 41 E2 
    840      3725.185 DT 0CF00400 Rx 8  FF 7D 7D 00 00 00 FF FF 
    841      3725.745 DT 0CEF1100 Rx 8  FA B6 09 78 6B 04 1F F3 
    842      3728.089 DT 04EF001C Rx 8  B3 52 26 CC 4D B5 D8 2F 
    843      3730.177 DT 18FFDC00 Rx 8  60 14 01 00 00 58 77 19 
    844      3730.757 DT 0CEF0100 Rx 8  B0 20 00 00 00 63 5C 00 
    845      3735.185 DT 18FFDC00 Rx 8  61 00 00 00 00 2C FF DC 
    846      3735.765 DT 0CF00300 Rx 8  DF 00 4F FF 00 FF FF FF 
    847      3738.201 DT 04EF001C Rx 8  76 55 DD E3 89 52 22 E0 
    848      3740.165 DT 18FFDC00 Rx 8  62 FF FF 9F D3 22 00 FF 
    849      3745.184 DT 0CF00400 Rx 8  FF 7D 7D 00 00 00 FF FF 
    850      3748.336 DT 04EF001C Rx 8  00 58 C0 5E FF 7F 3F 7D 
    851      3749.040 DT 19F10D13 Rx 8  0B 4C 01 4E 01 00 01 7F 
    852      3749.612 DT 19F21139 Rx 8  00 00 00 FF DC 05 00 00 
    853      3750.200 DT 0CEF0100 Rx 8  B0 20 00 00 00 63 5C 00 
    854      3755.187 DT 18FEF100 Rx 8  FF 00 00 F0 FF C7 1F FF 
    855      3758.432 DT 04EF001C Rx 8  C1 5A 17 54 3E 1D E8 17 
    856      3765.184 DT 0CF00400 Rx 8  FF 7D 7D 00 00 00 FF FF 
    857      3768.540 DT 04EF001C Rx 8  7F 5D 94 A3 80 5A 6B A0 
    858      3770.196 DT 0CEF0100 Rx 8  B0 20 00 00 00 63 5C 00 
    859      3775.168 DT 0CEF1100 Rx 8  29 A0 0B 25 37 D3 11 D0 
    860      3778.663 DT 04EF001C Rx 8  3E 40 3F B6 C1 47 C0 B5 
    861      3780.175 DT 18FFDC00 Rx 8  80 14 01 00 00 58 77 19 
    862      3785.175 DT 18FFDC00 Rx 8  81 00 00 00 00 2C FF DC 
    863      3785.755 DT 0CF00300 Rx 8  DF 00 4F FF 00 FF FF FF 
    864      3786.331 DT 0CF00400 Rx 8  FF 7D 7D 00 00 00 FF FF 
    865      3786.920 DT 18FF1080 Rx 8  00 00 00 FF FF FF FD 00 
    866      3788.488 DT 18FF1180 Rx 8  02 FF FA FF FF FF 00 FF 
    867      3789.036 DT 04EF001C Rx 8  34 43 2D E5 CB 64 D2 C6 
    868      3789.617 DT 18FF1380 Rx 8  04 00 00 00 3F C0 40 00 
    869      3790.221 DT 09F20000 Rx 8  00 00 00 FF FF FF FF FF 
    870      3790.801 DT 0CEF0100 Rx 8  B0 20 00 00 00 63 5C 00 
    871      3791.373 DT 18FFDC00 Rx 8  82 FF FF 9F D3 22 00 FF 
    872      3798.872 DT 04EF001C Rx 8  C1 45 EF 4B 3E 62 10 68 
    873      3805.180 DT 0CF00400 Rx 8  FF 7D 7D 00 00 00 FF FF 
    874      3808.997 DT 04EF001C Rx 8  7E 48 3D BE 81 4F C2 BD 
    875      3810.193 DT 0CEF0100 Rx 8  B0 20 00 00 00 63 5C 00 
    876      3815.192 DT 18FEF200 Rx 8  00 00 FF FF FF FF 4B FF 
    877      3819.108 DT 04EF001C Rx 8  A8 4B F5 0D 56 AC 0B EE 
    878      3825.180 DT 0CF00400 Rx 8  FF 7D 7D 00 00 00 FF FF 
    879      3825.724 DT 0CEF1100 Rx 8  63 A5 73 F4 50 95 70 6B 
    880      3829.208 DT 04EF001C Rx 8  6A 4E 19 18 95 49 E6 1B 
    881      3830.188 DT 18FFDC00 Rx 8  A0 14 01 00 00 58 77 19 
    882      3830.768 DT 0CEF0100 Rx 8  B0 20 00 00 00 63 5C 00 
    883      3835.180 DT 18FFDC00 Rx 8  A1 00 00 00 00 2C FF DC 
    884      3835.760 DT 0CF00300 Rx 8  DF 00 4F FF 00 FF FF FF 
    885      3839.315 DT 04EF001C Rx 8  4C 51 C6 37 B3 16 39 74 
    886      3840.163 DT 18FFDC00 Rx 8  A2 FF FF 9F D3 22 00 FF 
    887      3845.179 DT 0CF00400 Rx 8  FF 7D 7D 00 00 00 FF FF 
    888      3849.039 DT 19F10D13 Rx 8  0C 4C 01 4E 01 00 01 7F 
    889      3849.591 DT 04EF001C Rx 8  EB 53 74 0D 14 14 8B 4E 
    890      3850.167 DT 19F21139 Rx 8  00 00 00 FF 40 06 00 00 
    891      3850.747 DT 0CEF0100 Rx 8  B0 20 00 00 00 63 5C 00 
    892      3855.183 DT 18FEF100 Rx 8  FF 00 00 F0 FF C7 1F FF 
    893      3859.544 DT 04EF001C Rx 8  A8 56 1D 10 57 11 E2 53 
    894      3865.179 DT 0CF00400 Rx 8  FF 7D 7D 00 00 00 FF FF 
    895      3869.659 DT 04EF001C Rx 8  8F 59 43 27 70 3E BC 44 
    896      3870.239 DT 0CEF0100 Rx 8  B0 20 00 00 00 63 5C 00 
    897      3875.155 DT 0CEF1100 Rx 8  57 D3 4F 4A 2C 6D 3E 91 
    898      3879.766 DT 04EF001C Rx 8  28 5C C9 1A D7 3B 36 79 
    899      3880.330 DT 18FFDC00 Rx 8  C0 14 01 00 00 58 77 19 
    900      3885.174 DT 18FFDC00 Rx 8  C1 00 00 00 00 2C FF DC 
    901      3885.754 DT 0CF00300 Rx 8  DF 00 4F FF 00 FF FF FF 
    902      3886.330 DT 09F8021C Rx 8  10 FC 7E 58 04 00 FF FF 
    903      3886.906 DT 0CF00400 Rx 8  FF 7D 7D 00 00 00 FF FF 
    904      3887.495 DT 18FF1080 Rx 8  00 00 00 FF FF FF FD 00 
    905      3888.042 DT 09F8011C Rx 8  4E 6D 26 18 5E 6B 5B C1 
    906      3888.619 DT 18FF1180 Rx 8  02 FF FA FF FF FF 00 FF 
    907      3889.175 DT 19FA031C Rx 8  10 D2 5A 00 8F 00 64 00 
    908      3889.871 DT 04EF001C Rx 8  CD 5E 3B 30 32 19 C4 73 
    909      3890.467 DT 09F20000 Rx 8  00 00 00 FF FF FF FF FF 
    910      3891.047 DT 0CEF0100 Rx 8  B0 20 00 00 00 63 5C 00 
    911      3891.595 DT 0DF0101C Rx 8  10 F0 3C 4F 70 F4 24 21 
    912      3892.159 DT 18FFDC00 Rx 8  C2 FF FF 9F D3 22 00 FF 
    913      3892.947 DT 18FEE81C Rx 8  E8 40 00 00 20 64 86 7E 
    914      3893.999 DT 19FA041C Rx 8  20 AB 10 FF 0E 05 52 35 
    915      3895.007 DT 19FA041C Rx 8  21 4C 4F A0 0F FF FF FF 
    916      3895.579 DT 09F20100 Rx 8  60 16 00 05 00 FF FF 16 
    917      3896.143 DT 19FA041C Rx 8  22 FF FF 0B 75 12 C0 2B 
    918      3897.035 DT 19FA041C Rx 8  23 F0 0A FF FF FF FF FF 
    919      3898.023 DT 19FA041C Rx 8  24 0C 75 12 26 7F 04 10 
    920      3899.042 DT 19FA041C Rx 8  25 FF FF FF FF FF 0D 85 
    921      3899.982 DT 04EF001C Rx 8  E4 41 EB 67 1B 46 14 64 
    922      3900.542 DT 09F20100 Rx 8  61 75 AC 04 00 00 9F D3 
    923      3901.110 DT 19FA041C Rx 8  26 07 80 57 28 0A FF FF 
    924      3902.082 DT 19FA041C Rx 8  27 FF FF FF 0F 85 07 1C 
    925      3903.089 DT 19FA041C Rx 8  28 70 80 0C FF FF FF FF 
    926      3904.085 DT 19FA041C Rx 8  29 FF 12 AC 0D D6 B5 A0 
    927      3905.125 DT 19FA041C Rx 8  2A 0F FF FF FF FF FF 14 
    928      3905.697 DT 09F20100 Rx 8  62 22 00 FF FF FF FF 00 
    929      3906.273 DT 0CF00400 Rx 8  FF 7D 7D 00 00 00 FF FF 
    930      3906.849 DT 18FEEE00 Rx 8  42 FF FF FF FF FF 40 FF 
    931      3907.401 DT 19FA041C Rx 8  2B 3B 24 8C 23 74 0E FF 
    932      3908.161 DT 19FA041C Rx 8  2C FF FF FF FF 15 21 20 
    933      3909.153 DT 19FA041C Rx 8  2D EA 24 A0 0F FF FF FF 
    934      3910.085 DT 04EF001C Rx 8  AE 44 8B 32 50 A3 75 D1 
    935      3910.665 DT 09F20100 Rx 8  63 01 00 FF FF FF FF FF 
    936      3911.245 DT 0CEF0100 Rx 8  B0 20 00 00 00 63 5C 00 
    937      3911.825 DT 18FEEF00 Rx 8  FF FF FF 00 FF FF FF FF 
    938      3912.389 DT 19FA041C Rx 8  2E FF FF 17 AF 00 4A 92 
    939      3913.233 DT 19FA041C Rx 8  2F 00 00 FF FF FF FF FF 
    940      3914.197 DT 19FA041C Rx 8  30 19 B6 1C C2 97 04 10 
    941      3915.193 DT 18FEF200 Rx 8  00 00 FF FF FF FF 4B FF 
    942      3915.773 DT 19FA041C Rx 8  31 FF FF FF FF FF 1A C9 
    943      3917.245 DT 19FA041C Rx 8  32 04 1E DC D0 07 FF FF 
    944      3918.253 DT 19FA041C Rx 8  33 FF FF FF 1D 04 29 04 
    945      3919.268 DT 19FA041C Rx 8  34 D8 68 10 FF FF FF FF 
    946      3920.164 DT 18FEF700 Rx 8  FF FF 1A 01 EF 00 EF 00 
    947      3920.717 DT 04EF001C Rx 8  69 47 52 09 97 80 AC CA 
    948      3922.288 DT 19FA041C Rx 8  35 FF 2C B6 1C FC 85 68 
    949      3923.316 DT 19FA041C Rx 8  36 10 FF FF FF FF FF 30 
    950      3924.308 DT 19FA041C Rx 8  37 A9 1A 30 8E A0 0F FF 
    951      3925.180 DT 0CF00400 Rx 8  FF 7D 7D 00 00 00 FF FF 
    952      3925.728 DT 0CEF1100 Rx 8  0B CA D2 AC FB 9E F7 28 
    953      3926.316 DT 19FA041C Rx 8  38 FF FF FF FF FF FF FF 
    954      3930.172 DT 18FFDC00 Rx 8  E0 14 01 00 00 58 77 19 
    955      3930.720 DT 04EF001C Rx 8  81 49 CD 47 7F 8E 33 84 
    956      3931.300 DT 0CEF0100 Rx 8  B0 20 00 00 00 63 5C 00 
    957      3935.172 DT 18FFDC00 Rx 8  E1 00 00 00 00 2C FF DC 
    958      3935.751 DT 0CF00300 Rx 8  DF 00 4F FF 00 FF FF FF 
    959      3940.159 DT 18FFDC00 Rx 8  E2 FF FF 9F D3 22 00 FF 
    960      3940.715 DT 04EF001C Rx 8  3F 4C 5E B2 C1 AB A0 51 
    961      3941.307 DT 0CEF1700 Rx 8  00 00 00 00 00 00 00 00 
    962      3945.175 DT 0CF00400 Rx 8  FF 7D 7D 00 00 00 FF FF 
    963      3945.767 DT 18FEFC00 Rx 8  FF DC FF FF FF FF FF FF 
    964      3949.039 DT 19F10D13 Rx 8  0D 4C 01 4E 01 00 01 7F 
    965      3949.611 DT 19F21139 Rx 8  00 00 00 FF A4 06 00 00 
    966      3950.199 DT 0CEF0100 Rx 8  B0 20 00 00 00 63 5C 00 
    967      3950.755 DT 04EF001C Rx 8  FF 4E 88 B0 01 A9 76 53 
    968      3951.327 DT 18FEF600 Rx 8  FF FF 42 2A FF FF FF FF 
    969      3955.179 DT 18FEF100 Rx 8  FF 00 00 F0 FF C7 1F FF 
    970      3960.642 DT 04EF001C Rx 8  BE 51 33 A7 40 B6 CD 44 
    971      3965.175 DT 0CF00400 Rx 8  FF 7D 7D 00 00 00 FF FF 
    972      3970.187 DT 0CEF0100 Rx 8  B0 20 00 00 00 63 5C 00 
    973      3970.771 DT 04EF001C Rx 8  7E 54 DD A2 80 93 23 61 
    974      3975.159 DT 0CEF1100 Rx 8  3F C1 46 0E 22 39 04 E7 
    975      3980.171 DT 18FFDC00 Rx 8  00 14 01 00 00 58 77 19 
    976      3980.923 DT 04EF001C Rx 8  3E 57 87 A1 C0 F0 79 02 
    977      3985.275 DT 18FFDC00 Rx 8  01 00 00 00 00 24 FF DC 
    978      3985.855 DT 0CF00300 Rx 8  DF 00 4F FF 00 FF FF FF 
    979      3986.431 DT 0CF00400 Rx 8  FF 7D 7D 00 00 00 FF FF 
    980      3987.019 DT 18FF1080 Rx 8  00 00 00 FF FF FF FD 00 
    981      3988.591 DT 18FF1180 Rx 8  02 FF FA FF FF FF 00 00 
    982      3989.596 DT 18FF1380 Rx 8  04 00 00 00 3F C0 40 00 
    983      3990.272 DT 18FFDC00 Rx 8  02 FF FF 9F D3 22 00 FF 
    984      3990.868 DT 09F20000 Rx 8  00 00 00 FF FF FF FF FF 
    985      3991.424 DT 04EF001C Rx 8  FD 59 32 B7 03 FE CC 14 
    986      3992.004 DT 0CEF0100 Rx 8  B0 20 00 00 00 63 5C 00 
    987      4001.191 DT 04EF001C Rx 8  BE 5C 5B AA 40 3B A5 C9 
    988      4005.271 DT 0CF00400 Rx 8  FF 7D 7D 00 00 00 FF FF 
    989      4010.283 DT 0CEF0100 Rx 8  B0 20 00 00 00 63 5C 00 
    990      4011.323 DT 04EF001C Rx 8  7D 5F 86 B1 83 38 78 D2 
    991      4015.284 DT 18FEF200 Rx 8  00 00 FF FF FF FF 4B FF 
    992      4021.435 DT 04EF001C Rx 8  AB 42 BE 1C 55 C5 40 9F 
    993      4025.271 DT 0CF00400 Rx 8  FF 7D 7D 00 00 00 FF FF 
    994      4025.819 DT 0CEF1100 Rx 8  FE C5 50 47 50 D1 77 31 
    995      4030.271 DT 18FFDC00 Rx 8  20 14 01 00 00 58 77 19 
    996      4030.851 DT 0CEF0100 Rx 8  B0 20 00 00 00 63 5C 00 
    997      4031.595 DT 04EF001C Rx 8  B4 45 99 E3 4A C2 67 60 
    998      4035.271 DT 18FFDC00 Rx 8  21 00 00 00 00 24 FF DC 
    999      4035.851 DT 0CF00300 Rx 8  DF 00 4F FF 00 FF FF FF 
   1000      4040.255 DT 18FFDC00 Rx 8  22 FF FF 9F D3 22 00 FF 
   1001      4041.691 DT 04EF001C Rx 8  50 48 12 CE AE EF EC 6D 
   1002      4045.271 DT 0CF00400 Rx 8  FF 7D 7D 00 00 00 FF FF 
   1003      4049.139 DT 19F10D13 Rx 8  0E 4C 01 4E 01 00 01 7F 
   1004      4049.707 DT 19F21139 Rx 8  00 00 00 FF 08 07 00 00 
   1005      4050.295 DT 0CEF0100 Rx 8  B0 20 00 00 00 63 5C 00 
   1006      4051.783 DT 04EF001C Rx 8  36 4B 6F FD C8 AC 91 1E 
   1007      4055.274 DT 18FEF100 Rx 8  FF 00 00 F0 FF C7 1F FF 
   1008      4061.862 DT 04EF001C Rx 8  CC 4D A2 2B 32 8A 5C E8 
   1009      4065.271 DT 0CF00400 Rx 8  FF 7D 7D 00 00 00 FF FF 
   1010      4070.283 DT 0CEF0100 Rx 8  B0 20 00 00 00 63 5C 00 
   1011      4071.986 DT 04EF001C Rx 8  C7 50 41 6E 39 F7 BF CD 
   1012      4075.250 DT 0CEF1100 Rx 8  8F F7 5F 82 E4 E3 7E DC 
   1013      4080.262 DT 18FFDC00 Rx 8  40 14 01 00 00 58 77 19 
   1014      4082.082 DT 04EF001C Rx 8  86 53 1A 65 78 94 E4 A6 
   1015      4085.266 DT 18FFDC00 Rx 8  41 00 00 00 00 24 FF DC 
   1016      4085.846 DT 0CF00300 Rx 8  DF 00 4F FF 00 FF FF FF 
   1017      4086.422 DT 0CF00400 Rx 8  FF 7D 7D 00 00 00 FF FF 
   1018      4087.011 DT 18FF1080 Rx 8  00 00 00 FF FF FF FD 00 
   1019      4088.579 DT 18FF1180 Rx 8  02 FF FA FF FF FF 00 FF 
   1020      4090.259 DT 18FFDC00 Rx 8  42 FF FF 9F D3 22 00 FF 
   1021      4090.855 DT 09F20000 Rx 8  00 00 00 FF FF FF FF FF 
   1022      4091.435 DT 0CEF0100 Rx 8  B0 20 00 00 00 63 5C 00 
   1023      4092.211 DT 04EF001C Rx 8  B2 55 1F C3 4C B2 E1 20 
   1024      4102.313 DT 04EF001C Rx 8  3F 58 FE A6 C1 BF 00 45 
   1025      4105.269 DT 0CF00400 Rx 8  FF 7D 7D 00 00 00 FF FF 
   1026      4110.281 DT 0CEF0100 Rx 8  B0 20 00 00 00 63 5C 00 
   1027      4112.422 DT 04EF001C Rx 8  34 5B ED FD CB 5C 12 FE 
   1028      4115.282 DT 18FEF200 Rx 8  00 00 FF FF FF FF 4B FF 
   1029      4122.525 DT 04EF001C Rx 8  C1 5D 2F 53 3E 5A D0 50 
   1030      4125.269 DT 0CF00400 Rx 8  FF 7D 7D 00 00 00 FF FF 
   1031      4125.813 DT 0CEF1100 Rx 8  5E EB 8D 4D 10 33 CD 3D 
   1032      4130.261 DT 18FFDC00 Rx 8  60 14 01 00 00 58 77 19 
   1033      4130.841 DT 0CEF0100 Rx 8  B0 20 00 00 00 63 5C 00 
   1034      4132.633 DT 04EF001C Rx 8  EA 40 ED 16 15 47 12 15 
   1035      4135.265 DT 18FFDC00 Rx 8  61 00 00 00 00 24 FF DC 
   1036      4135.845 DT 0CF00300 Rx 8  DF 00 4F FF 00 FF FF FF 
   1037      4140.249 DT 18FFDC00 Rx 8  62 FF FF 9F D3 22 00 FF 
   1038      4142.744 DT 04EF001C Rx 8  74 43 6F E5 8B 44 90 E6 
   1039      4145.269 DT 0CF00400 Rx 8  FF 7D 7D 00 00 00 FF FF 
   1040      4149.140 DT 19F10D13 Rx 8  0F 4C 01 4E 01 00 01 7F 
   1041      4149.708 DT 19F21139 Rx 8  00 00 00 FF 6C 07 00 00 
   1042      4150.296 DT 0CEF0100 Rx 8  B0 20 00 00 00 63 5C 00 
   1043      4152.860 DT 04EF001C Rx 8  32 46 03 D0 CC A1 FD 33 
   1044      4155.272 DT 18FEF100 Rx 8  FF 00 00 F0 FF C7 1F FF 
   1045      4162.972 DT 04EF001C Rx 8  BF 48 FA B6 41 8F 04 75 
   1046      4165.268 DT 0CF00400 Rx 8  FF 7D 7D 00 00 00 FF FF 
   1047      4170.280 DT 0CEF0100 Rx 8  B0 20 00 00 00 63 5C 00 
   1048      4173.080 DT 04EF001C Rx 8  7D 4B 26 A5 83 8C D8 66 
   1049      4175.252 DT 0CEF1100 Rx 8  17 E5 6D 46 DD 70 41 14 
   1050      4180.259 DT 18FFDC00 Rx 8  80 14 01 00 00 58 77 19 
   1051      4183.195 DT 04EF001C Rx 8  3E 4E 4F B8 C0 89 B1 7B 
   1052      4185.259 DT 18FFDC00 Rx 8  81 00 00 00 00 24 FF DC 
   1053      4185.839 DT 0CF00300 Rx 8  DF 00 4F FF 00 FF FF FF 
   1054      4186.415 DT 0CF00400 Rx 8  FF 7D 7D 00 00 00 FF FF 
   1055      4187.584 DT 18FF1080 Rx 8  00 00 00 FF FF FF FD 00 
   1056      4188.576 DT 18FF1180 Rx 8  02 FF FA FF FF FF 00 FF 
   1057      4189.584 DT 18FF1380 Rx 8  04 00 00 00 3F C0 40 00 
   1058      4190.260 DT 18FFDC00 Rx 8  82 FF FF 9F D3 22 00 FF 
   1059      4190.856 DT 09F20000 Rx 8  00 00 00 FF FF FF FF FF 
   1060      4191.436 DT 0CEF0100 Rx 8  B0 20 00 00 00 63 5C 00 
   1061      4193.296 DT 04EF001C Rx 8  32 51 BB C7 CC D6 45 44 
   1062      4203.419 DT 04EF001C Rx 8  BE 53 23 A5 40 14 DD E6 
   1063      4205.263 DT 0CF00400 Rx 8  FF 7D 7D 00 00 00 FF FF 
   1064      4210.279 DT 0CEF0100 Rx 8  B0 20 00 00 00 63 5C 00 
   1065      4213.523 DT 04EF001C Rx 8  80 56 34 50 7E 11 CA 13 
   1066      4215.275 DT 18FEF200 Rx 8  00 00 FF FF FF FF 4B FF 
   1067      4223.666 DT 04EF001C Rx 8  CE 59 00 2F 30 3E FE 4C 
   1068      4225.262 DT 0CF00400 Rx 8  FF 7D 7D 00 00 00 FF FF 
   1069      4225.807 DT 0CEF1100 Rx 8  B6 99 A0 12 E7 5F 10 9A 
   1070      4230.266 DT 18FFDC00 Rx 8  A0 14 01 00 00 58 77 19 
   1071      4230.846 DT 0CEF0100 Rx 8  B0 20 00 00 00 63 5C 00 
   1072      4233.746 DT 04EF001C Rx 8  6A 5C 89 0A 94 DB 77 89 
   1073      4235.258 DT 18FFDC00 Rx 8  A1 00 00 00 00 24 FF DC 
   1074      4235.838 DT 0CF00300 Rx 8  DF 00 4F FF 00 FF FF FF 
   1075      4240.246 DT 18FFDC00 Rx 8  A2 FF FF 9F D3 22 00 FF 
   1076      4243.874 DT 04EF001C Rx 8  28 5F D1 19 D6 38 2F 7A 
   1077      4245.266 DT 0CF00400 Rx 8  FF 7D 7D 00 00 00 FF FF 
   1078      4249.142 DT 19F10D13 Rx 8  10 4B 01 4E 01 00 01 80 
   1079      4249.714 DT 19F21139 Rx 8  00 00 00 FF D0 07 00 00 
   1080      4250.302 DT 0CEF0100 Rx 8  B0 20 00 00 00 63 5C 00 
   1081      4253.981 DT 04EF001C Rx 8  0B 42 1B 1C F5 25 E5 7F 
   1082      4255.269 DT 18FEF100 Rx 8  FF 00 00 F0 FF C7 1F FF 
   1083      4264.089 DT 04EF001C Rx 8  A9 44 8C 0A 57 23 72 69 
   1084      4265.265 DT 0CF00400 Rx 8  FF 7D 7D 00 00 00 FF FF 
   1085      4270.277 DT 0CEF0100 Rx 8  B0 20 00 00 00 63 5C 00 
   1086      4274.201 DT 04EF001C Rx 8  6A 47 51 11 94 C0 AF 92 
   1087      4275.237 DT 0CEF1100 Rx 8  E7 8B A6 DE 13 2D 13 7D 
   1088      4280.257 DT 18FFDC00 Rx 8  C0 14 01 00 00 58 77 19 
   1089      4284.312 DT 04EF001C Rx 8  4E 4A 1C 3C B0 CD E2 BF 
   1090      4285.260 DT 18FFDC00 Rx 8  C1 00 00 00 00 24 FF DC 
   1091      4285.840 DT 0CF00300 Rx 8  DF 00 4F FF 00 FF FF FF 
   1092      4286.416 DT 0CF00400 Rx 8  FF 7D 7D 00 00 00 FF FF 
   1093      4287.585 DT 18FF1080 Rx 8  00 00 00 FF FF FF FD 00 
   1094      4288.577 DT 18FF1180 Rx 8  02 FF FA FF FF FF 00 FF 
   1095      4290.245 DT 18FFDC00 Rx 8  C2 FF FF 9F D3 22 00 FF 
   1096      4290.841 DT 09F20000 Rx 8  00 00 00 FF FF FF FF FF 
   1097      4291.421 DT 0CEF0100 Rx 8  B0 20 00 00 00 63 5C 00 
   1098      4294.421 DT 04EF001C Rx 8  7E 4C 1D BA 80 EB E3 19 
   1099      4304.528 DT 04EF001C Rx 8  41 4F 3B 41 BF 88 C5 82 
   1100      4305.264 DT 0CF00400 Rx 8  FF 7D 7D 00 00 00 FF FF 
   1101      4310.272 DT 0CEF0100 Rx 8  B0 20 00 00 00 63 5C 00 
   1102      4314.636 DT 04EF001C Rx 8  FE 51 71 A7 00 96 8F 64 
   1103      4315.276 DT 18FEF200 Rx 8  00 00 FF FF FF FF 4B FF 
   1104      4324.752 DT 04EF001C Rx 8  BE 54 1B A2 40 93 E5 61 
   1105      4325.304 DT 0CEF1100 Rx 8  26 8F B0 97 61 C5 60 AB 
   1106      4325.880 DT 0CF00400 Rx 8  FF 7D 7D 00 00 00 FF FF 
   1107      4330.255 DT 18FFDC00 Rx 8  E0 14 01 00 00 58 77 19 
   1108      4330.836 DT 0CEF0100 Rx 8  B0 20 00 00 00 63 5C 00 
   1109      4334.863 DT 04EF001C Rx 8  7D 57 C6 B9 83 90 38 7A 
   1110      4335.443 DT 0CF00300 Rx 8  DF 00 4F FF 00 FF FF FF 
   1111      4336.019 DT 18FFDC00 Rx 8  E1 00 00 00 00 24 FF DC 
   1112      4340.243 DT 18FFDC00 Rx 8  E2 FF FF 9F D3 22 00 FF 
   1113      4344.975 DT 04EF001C Rx 8  3E 5A EF AC C0 FD 11 0F 
   1114      4345.551 DT 0CF00400 Rx 8  FF 7D 7D 00 00 00 FF FF 
   1115      4349.139 DT 19F10D13 Rx 8  11 4B 01 4E 01 00 01 80 
   1116      4349.711 DT 19F21139 Rx 8  00 00 00 FF 34 08 00 00 
   1117      4350.299 DT 0CEF0100 Rx 8  B0 20 00 00 00 63 5C 00 
   1118      4355.083 DT 04EF001C Rx 8  FF 5C 18 A2 01 DB E6 21 
   1119      4355.655 DT 18FEF100 Rx 8  FF 00 00 F0 FF C7 1F FF 
   1120      4365.195 DT 04EF001C Rx 8  BE 5F 43 A9 40 38 BD CA 
   1121      4365.771 DT 0CF00400 Rx 8  FF 7D 7D 00 00 00 FF FF 
   1122      4370.270 DT 0CEF0100 Rx 8  B0 20 00 00 00 63 5C 00 
   1123      4375.230 DT 0CEF1100 Rx 8  5A BC F4 7A D4 EE E2 0E 
   1124      4375.782 DT 04EF001C Rx 8  7E 42 6D B4 80 25 93 D7 
   1125      4380.258 DT 18FFDC00 Rx 8  00 14 01 00 00 58 77 19 
   1126      4385.258 DT 18FFDC00 Rx 8  01 00 00 00 00 24 FF DC 
   1127      4385.814 DT 04EF001C Rx 8  3F 45 16 BB C1 22 E8 D8 
   1128      4386.394 DT 0CF00300 Rx 8  DF 00 4F FF 00 FF FF FF 
   1129      4386.970 DT 0CF00400 Rx 8  FF 7D 7D 00 00 00 FF FF 
   1130      4388.578 DT 18FF1080 Rx 8  00 00 00 FF FF FF FD 00 
   1131      4389.570 DT 18FF1180 Rx 8  02 FF FA FF FF FF 00 FF 
   1132      4390.258 DT 18FFDC00 Rx 8  02 FF FF 9F D3 22 00 FF 
   1133      4390.854 DT 09F20000 Rx 8  00 00 00 FF FF FF FF FF 
   1134      4391.434 DT 0CEF0100 Rx 8  B0 20 00 00 00 63 5C 00 
   1135      4392.015 DT 18FF1380 Rx 8  04 00 00 00 3F C0 40 00 
   1136      4395.535 DT 04EF001C Rx 8  FD 47 C2 A9 03 C0 3C 2A 
   1137      4396.566 DT 09F8021C Rx 8  11 FC 7E 58 03 00 FF FF 
   1138      4397.546 DT 09F8011C Rx 8  44 6D 26 18 38 6B 5B C1 
   1139      4398.574 DT 19FA031C Rx 8  11 D2 5A 00 8F 00 64 00 
   1140      4399.578 DT 0DF0101C Rx 8  11 F0 3C 4F 70 F4 24 21 
   1141      4400.605 DT 18FEE81C Rx 8  E8 40 00 00 20 64 88 7E 
   1142      4401.673 DT 19FA041C Rx 8  40 AB 11 FF 0E 05 52 35 
   1143      4402.685 DT 19FA041C Rx 8  41 4C 4F A0 0F FF FF FF 
   1144      4403.673 DT 19FA041C Rx 8  42 FF FF 0B 75 12 C0 2B 
   1145      4404.704 DT 19FA041C Rx 8  43 F0 0A FF FF FF FF FF 
   1146      4405.288 DT 0CF00400 Rx 8  FF 7D 7D 00 00 00 FF FF 
   1147      4405.840 DT 04EF001C Rx 8  65 4B 3E 65 9B 0C C0 26 
   1148      4406.736 DT 19FA041C Rx 8  44 0C 75 12 26 7F 04 10 
   1149      4407.728 DT 19FA041C Rx 8  45 FF FF FF FF FF 0D 85 
   1150      4408.748 DT 19FA041C Rx 8  46 07 80 57 C4 09 FF FF 
   1151      4409.752 DT 19FA041C Rx 8  47 FF FF FF 0F 85 07 1C 
   1152      4410.332 DT 0CEF0100 Rx 8  B0 20 00 00 00 63 5C 00 
   1153      4410.912 DT 18FEEF00 Rx 8  FF FF FF 00 FF FF FF FF 
   1154      4411.488 DT 19FA041C Rx 8  48 70 1C 0C FF FF FF FF 
   1155      4412.769 DT 19FA041C Rx 8  49 FF 12 AC 0D D6 B5 A0 
   1156      4413.804 DT 19FA041C Rx 8  4A 0F FF FF FF FF FF 14 
   1157      4414.792 DT 19FA041C Rx 8  4B 3B 24 8C 23 74 0E FF 
   1158      4415.376 DT 18FEF200 Rx 8  00 00 FF FF FF FF 4B FF 
   1159      4415.916 DT 04EF001C Rx 8  A4 4E D1 68 5A 69 2F 4B 
   1160      4416.872 DT 19FA041C Rx 8  4C FF FF FF FF 15 21 20 
   1161      4417.855 DT 19FA041C Rx 8  4D EA 24 A0 0F FF FF FF 
   1162      4418.871 DT 19FA041C Rx 8  4E FF FF 17 AF 00 4A 92 
   1163      4419.887 DT 19FA041C Rx 8  4F 00 00 FF FF FF FF FF 
   1164      4420.875 DT 19FA041C Rx 8  50 19 B6 1C C2 97 04 10 
   1165      4421.911 DT 19FA041C Rx 8  51 FF FF FF FF FF 1A C9 
   1166      4422.915 DT 19FA041C Rx 8  52 04 1E DC D0 07 FF FF 
   1167      4423.922 DT 19FA041C Rx 8  53 FF FF FF 1D 04 29 04 
   1168      4424.942 DT 19FA041C Rx 8  54 D8 68 10 FF FF FF FF 
   1169      4425.498 DT 0CEF1100 Rx 8  93 B0 A0 71 02 0C C6 FA 
   1170      4426.050 DT 04EF001C Rx 8  79 51 F2 9F 87 76 0C BC 
   1171      4426.626 DT 0CF00400 Rx 8  FF 7D 7D 00 00 00 FF FF 
   1172      4427.182 DT 19FA041C Rx 8  55 FF 2C B6 1C FC 85 68 
   1173      4427.990 DT 19FA041C Rx 8  56 10 FF FF FF FF FF 30 
   1174      4428.962 DT 19FA041C Rx 8  57 A9 1A 30 8E A0 0F FF 
   1175      4429.990 DT 19FA041C Rx 8  58 FF FF FF FF FF FF FF 
   1176      4430.570 DT 0CEF0100 Rx 8  B0 20 00 00 00 63 5C 00 
   1177      4431.134 DT 18FFDC00 Rx 8  20 14 01 00 00 58 77 19 
   1178      4435.253 DT 18FFDC00 Rx 8  21 00 00 00 00 24 FF DC 
   1179      4435.833 DT 0CF00300 Rx 8  DF 00 4F FF 00 FF FF FF 
   1180      4436.389 DT 04EF001C Rx 8  6B 53 F0 0D 95 54 0E 0E 
   1181      4440.241 DT 18FFDC00 Rx 8  22 FF FF 9F D3 22 00 FF 
   1182      4440.833 DT 0CEF1700 Rx 8  00 00 00 00 00 00 00 00 
   1183      4445.257 DT 0CF00400 Rx 8  FF 7D 7D 00 00 00 FF FF 
   1184      4446.121 DT 04EF001C Rx 8  4F 56 FD 28 B1 71 03 0B 
   1185      4449.137 DT 19F10D13 Rx 8  12 4B 01 4E 01 00 01 80 
   1186      4449.709 DT 19F21139 Rx 8  00 00 00 FF 98 08 00 00 
   1187      4450.297 DT 0CEF0100 Rx 8  B0 20 00 00 00 63 5C 00 
   1188      4450.869 DT 18FEF600 Rx 8  FF FF 42 2A FF FF FF FF 
   1189      4455.260 DT 18FEF100 Rx 8  FF 00 00 F0 FF C7 1F FF 
   1190      4456.228 DT 04EF001C Rx 8  0E 59 C6 2F F0 1E 38 6C 
   1191      4465.257 DT 0CF00400 Rx 8  FF 7D 7D 00 00 00 FF FF 
   1192      4466.333 DT 04EF001C Rx 8  AA 5B 77 0D 54 1C 89 4E 
   1193      4470.269 DT 0CEF0100 Rx 8  B0 20 00 00 00 63 5C 00 
   1194      4475.233 DT 0CEF1100 Rx 8  C2 A2 A6 BD F6 7E C5 1D 
   1195      4476.441 DT 04EF001C Rx 8  B6 5E 43 E8 48 D9 BD 6B 
   1196      4480.249 DT 18FFDC00 Rx 8  40 14 01 00 00 58 77 19 
   1197      4485.253 DT 18FFDC00 Rx 8  41 00 00 00 00 24 FF DC 
   1198      4485.833 DT 0CF00300 Rx 8  DF 00 4F FF 00 FF FF FF 
   1199      4486.409 DT 0CF00400 Rx 8  FF 7D 7D 00 00 00 FF FF 
   1200      4486.961 DT 04EF001C Rx 8  E4 40 E3 66 1A E7 1D C5 
   1201      4488.577 DT 18FF1080 Rx 8  00 00 00 FF FF FF FD 00 
   1202      4489.569 DT 18FF1180 Rx 8  02 FF FA FF FF FF 00 FF 
   1203      4490.245 DT 18FFDC00 Rx 8  42 FF FF 9F D3 22 00 FF 
   1204      4490.841 DT 09F20000 Rx 8  00 00 00 FF FF FF FF FF 
   1205      4491.421 DT 0CEF0100 Rx 8  B0 20 00 00 00 63 5C 00 
   1206      4496.641 DT 04EF001C Rx 8  7F 43 64 BD 81 84 9A 7E 
   1207      4505.253 DT 0CF00400 Rx 8  FF 7D 7D 00 00 00 FF FF 
   1208      4506.764 DT 04EF001C Rx 8  65 46 56 68 9A 41 A9 6B 
   1209      4510.264 DT 0CEF0100 Rx 8  B0 20 00 00 00 63 5C 00 
   1210      4515.257 DT 18FEF200 Rx 8  00 00 FF FF FF FF 4A FF 
   1211      4516.857 DT 04EF001C Rx 8  5A 49 10 9F A5 4E EF 9C 
   1212      4525.252 DT 0CF00400 Rx 8  FF 7D 7D 00 00 00 FF FF 
   1213      4525.796 DT 0CEF1100 Rx 8  3B A6 BF 34 34 E9 45 48 
   1214      4526.984 DT 04EF001C Rx 8  2E 4C 4F 3A D0 AB B1 D9 
   1215      4530.248 DT 18FFDC00 Rx 8  60 14 01 00 00 58 77 19 
   1216      4530.828 DT 0CEF0100 Rx 8  B0 20 00 00 00 63 5C 00 
   1217      4535.252 DT 18FFDC00 Rx 8  61 00 00 00 00 24 FF DC 
   1218      4535.832 DT 0CF00300 Rx 8  DF 00 4F FF 00 FF FF FF 
   1219      4537.096 DT 04EF001C Rx 8  DC 4E AA A8 23 49 55 AB 
   1220      4540.232 DT 18FFDC00 Rx 8  62 FF FF 9F D3 22 00 FF 
   1221      4545.251 DT 0CF00400 Rx 8  FF 7D 7D 00 00 00 FF FF 
   1222      4547.195 DT 04EF001C Rx 8  73 51 F8 CF 8D B6 06 2C 
   1223      4549.143 DT 19F10D13 Rx 8  13 4B 01 4E 01 00 01 80 
   1224      4549.723 DT 19F21139 Rx 8  00 00 00 FF FC 08 00 00 
   1225      4550.311 DT 0CEF0100 Rx 8  B0 20 00 00 00 63 5C 00 
   1226      4555.255 DT 18FEF100 Rx 8  FF 00 00 F0 FF C7 1F FF 
   1227      4557.299 DT 04EF001C Rx 8  33 54 92 CA CD 93 6C 09 
   1228      4565.251 DT 0CF00400 Rx 8  FF 7D 7D 00 00 00 FF FF 
   1229      4567.423 DT 04EF001C Rx 8  F6 56 41 E0 08 91 BF 23 
   1230      4570.263 DT 0CEF0100 Rx 8  B0 20 00 00 00 63 5C 00 
   1231      4575.219 DT 0CEF1100 Rx 8  8A D0 A6 E2 28 7A 71 F1 
   1232      4577.526 DT 04EF001C Rx 8  B3 59 7E C7 4D 9E 80 04 
   1233      4580.242 DT 18FFDC00 Rx 8  80 14 01 00 00 58 77 19 
   1234      4585.242 DT 18FFDC00 Rx 8  81 00 00 00 00 24 FF DC 
   1235      4585.822 DT 0CF00300 Rx 8  DF 00 4F FF 00 FF FF FF 
   1236      4586.398 DT 0CF00400 Rx 8  FF 7D 7D 00 00 00 FF FF 
   1237      4587.654 DT 04EF001C Rx 8  D2 5C 34 CA 2C 9B CA 09 
   1238      4589.579 DT 18FF1080 Rx 8  00 00 00 FF FF FF FD 00 
   1239      4590.247 DT 18FFDC00 Rx 8  82 FF FF 9F D3 22 00 FF 
   1240      4590.843 DT 09F20000 Rx 8  00 00 00 FF FF FF FF FF 
   1241      4591.423 DT 0CEF0100 Rx 8  B0 20 00 00 00 63 5C 00 
   1242      4591.999 DT 18FF1180 Rx 8  02 FF FA FF FF FF 00 FF 
   1243      4593.576 DT 18FF1380 Rx 8  04 00 00 00 3F C0 40 00 
   1244      4597.759 DT 04EF001C Rx 8  FD 5E 0A B0 03 D9 F4 33 
   1245      4605.251 DT 0CF00400 Rx 8  FF 7D 7D 00 00 00 FF FF 
   1246      4605.827 DT 18FECA00 Rx 8  44 FF 00 00 00 00 FF FF 
   1247      4607.870 DT 04EF001C Rx 8  F3 41 FC DF 0D C6 02 5C 
   1248      4610.262 DT 0CEF0100 Rx 8  B0 20 00 00 00 63 5C 00 
   1249      4615.259 DT 18FEF200 Rx 8  00 00 FF FF FF FF 4B FF 
   1250      4617.987 DT 04EF001C Rx 8  0E 45 26 33 F0 22 D8 50 
   1251      4625.250 DT 0CF00400 Rx 8  FF 7D 7D 00 00 00 FF FF 
   1252      4625.794 DT 0CEF1100 Rx 8  43 D4 B2 EB 58 80 90 37 
   1253      4628.106 DT 04EF001C Rx 8  06 48 46 7E F8 2F B8 1D 
   1254      4630.250 DT 18FFDC00 Rx 8  A0 14 01 00 00 58 77 19 
   1255      4630.830 DT 0CEF0100 Rx 8  B0 20 00 00 00 63 5C 00 
   1256      4635.242 DT 18FFDC00 Rx 8  A1 00 00 00 00 24 FF DC 
   1257      4635.822 DT 0CF00300 Rx 8  DF 00 4F FF 00 FF FF FF 
   1258      4638.202 DT 04EF001C Rx 8  9F 4A CB B4 61 CD 35 37 
   1259      4640.230 DT 18FFDC00 Rx 8  A2 FF FF 9F D3 22 00 FF 
   1260      4645.246 DT 0CF00400 Rx 8  FF 7D 7D 00 00 00 FF FF 
   1261      4648.306 DT 04EF001C Rx 8  4D 4D 27 23 B3 CA D9 A0 
   1262      4649.138 DT 19F10D13 Rx 8  14 4C 01 4E 01 00 01 7F 
   1263      4649.710 DT 19F21139 Rx 8  00 00 00 FF 60 09 00 00 
   1264      4650.298 DT 0CEF0100 Rx 8  B0 20 00 00 00 63 5C 00 
   1265      4655.250 DT 18FEF100 Rx 8  FF 00 00 F0 FF C7 1F FF 
   1266      4658.418 DT 04EF001C Rx 8  0F 50 8F 2E F1 97 71 ED 
   1267      4665.246 DT 0CF00400 Rx 8  FF 7D 7D 00 00 00 FF FF 
   1268      4668.530 DT 04EF001C Rx 8  A8 52 3D 14 56 B5 C3 F7 
   1269      4670.258 DT 0CEF0100 Rx 8  B0 20 00 00 00 63 5C 00 
   1270      4675.218 DT 0CEF1100 Rx 8  12 C6 B4 27 AC F2 93 D0 
   1271      4678.642 DT 04EF001C Rx 8  8B 55 27 0B 75 B2 D9 E8 
   1272      4680.242 DT 18FFDC00 Rx 8  C0 14 01 00 00 58 77 19 
   1273      4685.237 DT 18FFDC00 Rx 8  C1 00 00 00 00 24 FF DC 
   1274      4685.818 DT 0CF00300 Rx 8  DF 00 4F FF 00 FF FF FF 
   1275      4686.394 DT 0CF00400 Rx 8  FF 7D 7D 00 00 00 FF FF 
   1276      4688.745 DT 04EF001C Rx 8  F2 57 4D C1 0C B0 B3 22 
   1277      4689.578 DT 18FF1080 Rx 8  00 00 00 FF FF FF FD 00 
   1278      4690.234 DT 18FFDC00 Rx 8  C2 FF FF 9F D3 22 00 FF 
   1279      4690.830 DT 09F20000 Rx 8  00 00 00 FF FF FF FF FF 
   1280      4691.410 DT 0CEF0100 Rx 8  B0 20 00 00 00 63 5C 00 
   1281      4691.986 DT 18FF1180 Rx 8  02 FF FA FF FF FF 00 FF 
   1282      4698.858 DT 04EF001C Rx 8  7E 5A AD AC 80 9D 53 6F 
   1283      4705.245 DT 0CF00400 Rx 8  FF 7D 7D 00 00 00 FF FF 
   1284      4708.973 DT 04EF001C Rx 8  41 5D AB 53 BF 9A 55 90 
   1285      4710.257 DT 0CEF0100 Rx 8  B0 20 00 00 00 63 5C 00 
   1286      4715.258 DT 18FEF200 Rx 8  00 00 FF FF FF FF 4B FF 
   1287      4719.093 DT 04EF001C Rx 8  02 40 02 56 FC 87 FC 95 
   1288      4725.245 DT 0CF00400 Rx 8  FF 7D 7D 00 00 00 FF FF 
   1289      4725.793 DT 0CEF1100 Rx 8  EB FA 6D A1 1A 70 B8 2B 
   1290      4729.189 DT 04EF001C Rx 8  BE 42 AB B4 40 E5 55 17 
   1291      4730.245 DT 18FFDC00 Rx 8  E0 14 01 00 00 58 77 19 
   1292      4730.825 DT 0CEF0100 Rx 8  B0 20 00 00 00 63 5C 00 
   1293      4735.245 DT 18FFDC00 Rx 8  E1 00 00 00 00 24 FF DC 
   1294      4735.825 DT 0CF00300 Rx 8  DF 00 4F FF 00 FF FF FF 
   1295      4739.296 DT 04EF001C Rx 8  82 45 AE 53 7C E2 50 F0 
   1296      4740.232 DT 18FFDC00 Rx 8  E2 FF FF 9F D3 22 00 FF 
   1297      4745.244 DT 0CF00400 Rx 8  FF 7D 7D 00 00 00 FF FF 
   1298      4749.140 DT 19F10D13 Rx 8  15 4B 01 4E 01 00 01 80 
   1299      4749.708 DT 04EF001C Rx 8  3E 48 7F BE C0 EF 81 1D 
   1300      4750.288 DT 19F21139 Rx 8  00 00 00 FF C4 09 00 00 
   1301      4750.868 DT 0CEF0100 Rx 8  B0 20 00 00 00 63 5C 00 
   1302      4755.247 DT 18FEF100 Rx 8  FF 00 00 F0 FF C7 1F FF 
   1303      4759.527 DT 04EF001C Rx 8  FE 4A A9 BC 00 ED 57 1F 
   1304      4765.244 DT 0CF00400 Rx 8  FF 7D 7D 00 00 00 FF FF 
   1305      4769.631 DT 04EF001C Rx 8  C0 4D AE 4B 3E EA 50 E8 
   1306      4770.263 DT 0CEF0100 Rx 8  B0 20 00 00 00 63 5C 00 
   1307      4775.219 DT 0CEF1100 Rx 8  A4 EA FC 1D ED 39 E4 55 
   1308      4779.751 DT 04EF001C Rx 8  7F 50 FC AE 81 D7 02 2D 
   1309      4780.319 DT 18FFDC00 Rx 8  00 14 01 00 00 58 77 19 
   1310      4785.243 DT 18FFDC00 Rx 8  01 00 00 00 00 24 FF DC 
   1311      4785.823 DT 0CF00300 Rx 8  DF 00 4F FF 00 FF FF FF 
   1312      4786.399 DT 0CF00400 Rx 8  FF 7D 7D 00 00 00 FF FF 
   1313      4789.863 DT 04EF001C Rx 8  41 53 DB 5D BF 34 25 3E 
   1314      4790.459 DT 09F20000 Rx 8  00 00 00 FF FF FF FF FF 
   1315      4791.039 DT 0CEF0100 Rx 8  B0 20 00 00 00 63 5C 00 
   1316      4791.627 DT 18FF1080 Rx 8  00 00 00 FF FF FF FD 00 
   1317      4792.203 DT 18FFDC00 Rx 8  02 FF FF 9F D3 22 00 FF 
   1318      4792.780 DT 18FF1180 Rx 8  02 FF FA FF FF FF 00 FF 
   1319      4793.572 DT 18FF1380 Rx 8  04 00 00 00 3F C0 40 00 
   1320      4799.963 DT 04EF001C Rx 8  FF 55 50 AB 01 32 AE C8 
   1321      4805.239 DT 0CF00400 Rx 8  FF 7D 7D 00 00 00 FF FF 
   1322      4810.079 DT 04EF001C Rx 8  BE 58 7B AE 40 3F 85 CD 
   1323      4810.659 DT 0CEF0100 Rx 8  B0 20 00 00 00 63 5C 00 
   1324      4815.252 DT 18FEF200 Rx 8  00 00 FF FF FF FF 4B FF 
   1325      4820.195 DT 04EF001C Rx 8  EB 5B 34 05 15 3C CA 66 
   1326      4825.239 DT 0CF00400 Rx 8  FF 7D 7D 00 00 00 FF FF 
   1327      4825.791 DT 0CEF1100 Rx 8  7E F5 F4 4A 17 E6 ED 04 
   1328      4830.239 DT 18FFDC00 Rx 8  20 14 01 00 00 58 77 19 
   1329      4830.783 DT 04EF001C Rx 8  CF 5E 39 20 31 D9 C7 A3 
   1330      4831.363 DT 0CEF0100 Rx 8  B0 20 00 00 00 63 5C 00 
   1331      4835.238 DT 18FFDC00 Rx 8  21 00 00 00 00 24 FF DC 
   1332      4835.819 DT 0CF00300 Rx 8  DF 00 4F FF 00 FF FF FF 
   1333      4840.226 DT 18FFDC00 Rx 8  22 FF FF 9F D3 22 00 FF 
   1334      4840.774 DT 04EF001C Rx 8  6A 41 61 17 94 A6 9F F4 
   1335      4845.242 DT 0CF00400 Rx 8  FF 7D 7D 00 00 00 FF FF 
   1336      4849.142 DT 19F10D13 Rx 8  16 48 01 4E 01 00 01 82 
   1337      4849.714 DT 19F21139 Rx 8  00 00 00 FF 28 0A 00 00 
   1338      4850.302 DT 0CEF0100 Rx 8  B0 20 00 00 00 63 5C 00 
   1339      4850.858 DT 04EF001C Rx 8  2B 44 0A 1A D5 A3 F4 F9 
   1340      4855.246 DT 18FEF100 Rx 8  FF 00 00 F0 FF C7 1F FF 
   1341      4860.653 DT 04EF001C Rx 8  0B 47 33 19 F4 40 CC 1A 
   1342      4865.242 DT 0CF00400 Rx 8  FF 7D 7D 00 00 00 FF FF 
   1343      4870.254 DT 0CEF0100 Rx 8  B0 20 00 00 00 63 5C 00 
   1344      4870.794 DT 04EF001C Rx 8  A8 49 E5 0F 57 0E 1A 4C 
   1345      4875.214 DT 0CEF1100 Rx 8  2C E4 2A 5E E5 92 1E 13 
   1346      4880.234 DT 18FFDC00 Rx 8  40 14 01 00 00 58 77 19 
   1347      4880.906 DT 04EF001C Rx 8  6A 4C 09 1A 95 0B F6 59 
   1348      4885.234 DT 18FFDC00 Rx 8  41 00 00 00 00 24 FF DC 
   1349      4885.814 DT 0CF00300 Rx 8  DF 00 4F FF 00 FF FF FF 
   1350      4886.389 DT 0CF00400 Rx 8  FF 7D 7D 00 00 00 FF FF 
   1351      4890.229 DT 18FFDC00 Rx 8  42 FF FF 9F D3 22 00 FF 
   1352      4890.825 DT 09F20000 Rx 8  00 00 00 FF FF FF FF FF 
   1353      4891.385 DT 04EF001C Rx 8  C1 4E B7 40 3E 29 48 23 
   1354      4891.965 DT 0CEF0100 Rx 8  B0 20 00 00 00 63 5C 00 
   1355      4892.554 DT 18FF1080 Rx 8  00 00 00 FF FF FF FD 00 
   1356      4893.562 DT 18FF1180 Rx 8  02 FF FA FF FF FF 00 FF 
   1357      4895.250 DT 09F20100 Rx 8  80 16 00 05 00 FF FF 17 
   1358      4900.106 DT 09F8021C Rx 8  12 FC 7E 58 00 00 FF FF 
   1359      4900.674 DT 09F20100 Rx 8  81 75 A8 04 00 00 9F D3 
   1360      4901.218 DT 04EF001C Rx 8  CA 51 44 07 35 36 BB 64 
   1361      4901.798 DT 18FEE500 Rx 8  87 31 00 00 FF FF FF FF 
   1362      4902.350 DT 09F8011C Rx 8  3A 6D 26 18 16 6B 5B C1 
   1363      4903.142 DT 19FA031C Rx 8  12 D2 5A 00 8F 00 64 00 
   1364      4904.133 DT 0DF0101C Rx 8  12 F0 3C 4F 80 1B 25 21 
   1365      4905.149 DT 18FEE81C Rx 8  E8 40 00 00 20 64 8A 7E 
   1366      4905.733 DT 09F20100 Rx 8  82 22 00 FF FF FF FF 00 
   1367      4906.309 DT 0CF00400 Rx 8  FF 7D 7D 00 00 00 FF FF 
   1368      4906.885 DT 18FEEE00 Rx 8  42 FF FF FF FF FF 40 FF 
   1369      4907.437 DT 19FA041C Rx 8  60 AB 12 FF 0E 05 52 35 
   1370      4908.249 DT 19FA041C Rx 8  61 4C 4F A0 0F FF FF FF 
   1371      4909.237 DT 19FA041C Rx 8  62 FF FF 0B 75 12 C0 2B 
   1372      4910.249 DT 09F20100 Rx 8  83 01 00 FF FF FF FF FF 
   1373      4910.829 DT 0CEF0100 Rx 8  B0 20 00 00 00 63 5C 00 
   1374      4911.408 DT 18FEEF00 Rx 8  FF FF FF 00 FF FF FF FF 
   1375      4912.240 DT 04EF001C Rx 8  E5 54 42 7A 1A 13 BD 39 
   1376      4913.297 DT 19FA041C Rx 8  63 F0 0A FF FF FF FF FF 
   1377      4914.289 DT 19FA041C Rx 8  64 0C 75 12 26 7F 04 10 
   1378      4915.253 DT 18FEF200 Rx 8  00 00 FF FF FF FF 4B FF 
   1379      4915.829 DT 19FA041C Rx 8  65 FF FF FF FF FF 0D 85 
   1380      4917.325 DT 19FA041C Rx 8  66 07 80 57 28 0A FF FF 
   1381      4918.340 DT 19FA041C Rx 8  67 FF FF FF 0F 85 07 1C 
   1382      4919.352 DT 19FA041C Rx 8  68 70 80 0C FF FF FF FF 
   1383      4920.232 DT 18FEF700 Rx 8  FF FF 1A 01 EE 00 EE 00 
   1384      4920.792 DT 19FA041C Rx 8  69 FF 12 AC 0D D6 B5 A0 
   1385      4922.324 DT 04EF001C Rx 8  BA 57 07 81 45 10 F8 C2 
   1386      4923.396 DT 19FA041C Rx 8  69 FF 12 AC 0D D6 B5 A0 
   1387      4924.415 DT 19FA041C Rx 8  6A 0F FF FF FF FF FF 14 
   1388      4925.239 DT 0CF00400 Rx 8  FF 7D 7D 00 00 00 FF FF 
   1389      4925.775 DT 0CEF1100 Rx 8  9B 9E 52 3B 69 94 87 AD 
   1390      4926.323 DT 19FA041C Rx 8  6B 3B 24 8C 23 74 0E FF 
   1391      4927.439 DT 19FA041C Rx 8  6C FF FF FF FF 15 21 20 
   1392      4928.443 DT 19FA041C Rx 8  6D EA 24 A0 0F FF FF FF 
   1393      4929.451 DT 19FA041C Rx 8  6E FF FF 17 AF 00 4A 92 
   1394      4930.235 DT 18FFDC00 Rx 8  60 14 01 00 00 58 77 19 
   1395      4930.815 DT 0CEF0100 Rx 8  B0 20 00 00 00 63 5C 00 
   1396      4931.399 DT 19FA041C Rx 8  6F 00 00 FF FF FF FF FF 
   1397      4932.435 DT 04EF001C Rx 8  8C 5A 58 3C 73 1D A7 7F 
   1398      4933.522 DT 19FA041C Rx 8  6F 00 00 FF FF FF FF FF 
   1399      4934.506 DT 19FA041C Rx 8  70 19 B6 1C C2 97 04 10 
   1400      4935.238 DT 18FFDC00 Rx 8  61 00 00 00 00 24 FF DC 
   1401      4935.818 DT 0CF00300 Rx 8  DF 00 4F FF 00 FF FF FF 
   1402      4936.398 DT 19FA041C Rx 8  71 FF FF FF FF FF 1A C9 
   1403      4937.554 DT 19FA041C Rx 8  72 04 1E DC 34 08 FF FF 
   1404      4938.562 DT 19FA041C Rx 8  73 FF FF FF 1D 04 29 04 
   1405      4939.569 DT 19FA041C Rx 8  74 D8 68 10 FF FF FF FF 
   1406      4940.222 DT 18FFDC00 Rx 8  62 FF FF 9F D3 22 00 FF 
   1407      4940.813 DT 0CEF1700 Rx 8  00 00 00 00 00 00 00 00 
   1408      4941.362 DT 19FA041C Rx 8  75 FF 2C B6 1C FC 85 68 
   1409      4942.533 DT 04EF001C Rx 8  61 5D 8A 53 9E 1A 75 10 
   1410      4943.605 DT 19FA041C Rx 8  75 FF 2C B6 1C FC 85 68 
   1411      4944.629 DT 19FA041C Rx 8  76 10 FF FF FF FF FF 30 
   1412      4945.241 DT 0CF00400 Rx 8  FF 7D 7D 00 00 00 FF FF 
   1413      4945.833 DT 18FEFC00 Rx 8  FF DC FF FF FF FF FF FF 
   1414      4946.385 DT 19FA041C Rx 8  77 A9 1A 30 8E A0 0F FF 
   1415      4947.657 DT 19FA041C Rx 8  78 FF FF FF FF FF FF FF 
   1416      4949.137 DT 19F10D13 Rx 8  17 43 01 4E 01 00 01 85 
   1417      4949.705 DT 19F21139 Rx 8  00 00 00 FF 8C 0A 00 00 
   1418      4950.293 DT 0CEF0100 Rx 8  B0 20 00 00 00 63 5C 00 
   1419      4950.865 DT 18FEF600 Rx 8  FF FF 42 2A FF FF FF FF 
   1420      4951.685 DT 04EF001C Rx 8  63 5F 98 41 9C 78 67 62 
   1421      4955.241 DT 18FEF100 Rx 8  FF 00 00 F0 FF C7 1F FF 
   1422      4961.752 DT 04EF001C Rx 8  FE 41 F1 B7 01 66 0E 94 
   1423      4965.237 DT 0CF00400 Rx 8  FF 7D 7D 00 00 00 FF FF 
   1424      4970.248 DT 0CEF0100 Rx 8  B0 20 00 00 00 63 5C 00 
   1425      4971.852 DT 04EF001C Rx 8  1B 45 33 9B E4 62 CC B8 
   1426      4975.200 DT 0CEF1100 Rx 8  C8 8A E4 66 90 E3 2C A3 
   1427      4980.228 DT 18FFDC00 Rx 8  80 14 01 00 00 58 76 19 
   1428      4981.964 DT 04EF001C Rx 8  B2 47 8F D1 4C A0 71 32 
   1429      4985.262 DT 18FFDC00 Rx 8  81 00 00 00 00 24 FF DC 
   1430      4985.842 DT 0CF00300 Rx 8  DF 00 4F FF 00 FF FF FF 
   1431      4986.418 DT 0CF00400 Rx 8  FF 7D 7D 00 00 00 FF FF 
   1432      4990.262 DT 18FFDC00 Rx 8  82 FF FF 9F D3 22 00 FF 
   1433      4990.858 DT 09F20000 Rx 8  00 00 00 FF FF FF FF FF 
   1434      4991.438 DT 0CEF0100 Rx 8  B0 20 00 00 00 63 5C 00 
   1435      4992.027 DT 18FF1080 Rx 8  00 00 00 FF FF FF FD 00 
   1436      4992.575 DT 04EF001C Rx 8  73 4A 20 D4 8D ED DE 77 
   1437      4993.587 DT 18FF1180 Rx 8  02 FF FA FF FF FF 00 FF 
   1438      4994.596 DT 18FF1380 Rx 8  04 00 00 00 3F C0 40 00 
   1439      5002.223 DT 04EF001C Rx 8  02 4D 6A 5B FC EA 94 F8 
   1440      5005.267 DT 0CF00400 Rx 8  FF 7D 7D 00 00 00 FF FF 
   1441      5010.278 DT 0CEF0100 Rx 8  B0 20 00 00 00 63 5C 00 
   1442      5012.334 DT 04EF001C Rx 8  F4 4F 8B E9 0A 28 75 8A 
   1443      5015.278 DT 18FEF200 Rx 8  00 00 FF FF FF FF 4B FF 
   1444      5022.465 DT 04EF001C Rx 8  E9 52 7E 1C 17 15 80 5F 
   1445      5025.265 DT 0CF00400 Rx 8  FF 7D 7D 00 00 00 FF FF 
   1446      5025.805 DT 0CEF1100 Rx 8  F6 89 32 16 67 D1 74 9A 
   1447      5030.269 DT 18FFDC00 Rx 8  A0 14 01 00 00 58 77 19 
   1448      5030.849 DT 0CEF0100 Rx 8  B0 20 00 00 00 63 5C 00 
   1449      5032.561 DT 04EF001C Rx 8  65 56 D6 78 9B 71 28 5B 
   1450      5035.262 DT 18FFDC00 Rx 8  A1 00 00 00 00 24 FF DC 
   1451      5035.842 DT 0CF00300 Rx 8  DF 00 4F FF 00 FF FF FF 
   1452      5040.245 DT 18FFDC00 Rx 8  A2 FF FF 9F D3 22 00 FF 
   1453      5042.685 DT 04EF001C Rx 8  B9 58 7C 96 47 7F 82 B5 
   1454      5045.265 DT 0CF00400 Rx 8  FF 7D 7D 00 00 00 FF FF 
   1455      5049.177 DT 19F10D13 Rx 8  18 3B 01 4E 01 00 01 8A 
   1456      5049.749 DT 19F21139 Rx 8  00 00 00 FF F0 0A 00 00 
   1457      5050.329 DT 0CEF0100 Rx 8  B0 20 00 00 00 63 5C 00 
   1458      5052.789 DT 04EF001C Rx 8  5F 5B 85 A5 A1 7C 7B 86 
   1459      5055.269 DT 18FEF100 Rx 8  FF 00 00 F0 FF C7 1F FF 
   1460      5062.908 DT 04EF001C Rx 8  0D 5E FD 30 F3 59 03 33 
   1461      5065.264 DT 0CF00400 Rx 8  FF 7D 7D 00 00 00 FF FF 
   1462      5070.276 DT 0CEF0100 Rx 8  B0 20 00 00 00 63 5C 00 
   1463      5073.016 DT 04EF001C Rx 8  C0 40 C6 46 3E 47 38 45 
   1464      5075.240 DT 0CEF1100 Rx 8  07 BB 19 D3 F2 C3 5C 7E 
   1465      5080.260 DT 18FFDC00 Rx 8  C0 14 01 00 00 58 77 19 
   1466      5083.131 DT 04EF001C Rx 8  67 43 7C 7D 99 44 82 7E 
   1467      5085.256 DT 18FFDC00 Rx 8  C1 00 00 00 00 24 FF DC 
   1468      5085.836 DT 0CF00300 Rx 8  DF 00 4F FF 00 FF FF FF 
   1469      5086.412 DT 0CF00400 Rx 8  FF 7D 7D 00 00 00 FF FF 
   1470      5090.248 DT 18FFDC00 Rx 8  C2 FF FF 9F D3 22 00 FF 
   1471      5090.844 DT 09F20000 Rx 8  00 00 00 FF FF FF FF FF 
   1472      5091.424 DT 0CEF0100 Rx 8  B0 20 00 00 00 63 5C 00 
   1473      5092.013 DT 18FF1080 Rx 8  00 00 00 FF FF FF FD 00 
   1474      5093.217 DT 04EF001C Rx 8  F3 45 DC DB 0D 42 22 D8 
   1475      5093.794 DT 18FF1180 Rx 8  02 FF FA FF FF FF 00 FF 
   1476      5103.349 DT 04EF001C Rx 8  7E 48 3D BE 80 6F C3 9D 
   1477      5105.264 DT 0CF00400 Rx 8  FF 7D 7D 00 00 00 FF FF 
   1478      5110.276 DT 0CEF0100 Rx 8  B0 20 00 00 00 63 5C 00 
   1479      5113.456 DT 04EF001C Rx 8  3E 4B 67 BD C0 4C 99 BE 
   1480      5115.276 DT 18FEF200 Rx 8  00 00 FF FF FF FF 4B FF 
   1481      5123.559 DT 04EF001C Rx 8  FE 4D 91 BB 00 4A 6F B8 
   1482      5125.263 DT 0CF00400 Rx 8  FF 7D 7D 00 00 00 FF FF 
   1483      5125.815 DT 0CEF1100 Rx 8  46 BF 2B 9A 1F 0A 03 51 
   1484      5130.255 DT 18FFDC00 Rx 8  E0 14 01 00 00 58 77 19 
   1485      5130.835 DT 0CEF0100 Rx 8  B0 20 00 00 00 63 5C 00 
   1486      5133.671 DT 04EF001C Rx 8  BE 50 3B A6 40 77 C5 85 
   1487      5135.264 DT 18FFDC00 Rx 8  E1 00 00 00 00 24 FF DC 
   1488      5135.844 DT 0CF00300 Rx 8  DF 00 4F FF 00 FF FF FF 
   1489      5140.247 DT 18FFDC00 Rx 8  E2 FF FF 9F D3 22 00 FF 
   1490      5143.775 DT 04EF001C Rx 8  80 53 1C 55 7E 14 E2 16 
   1491      5145.263 DT 0CF00400 Rx 8  FF 7D 7D 00 00 00 FF FF 
   1492      5149.171 DT 19F10D13 Rx 8  19 31 01 4E 01 00 01 91 
   1493      5149.739 DT 19F21139 Rx 8  00 00 00 FF 54 0B 00 00 
   1494      5150.327 DT 0CEF0100 Rx 8  B0 20 00 00 00 63 5C 00 
   1495      5153.906 DT 04EF001C Rx 8  3E 56 8F A0 C0 71 71 83 
   1496      5155.266 DT 18FEF100 Rx 8  FF 00 00 F0 FF C7 1F FF 
   1497      5164.006 DT 04EF001C Rx 8  FD 58 3A B6 03 7F C4 95 
   1498      5165.262 DT 0CF00400 Rx 8  FF 7D 7D 00 00 00 FF FF 
   1499      5170.273 DT 0CEF0100 Rx 8  B0 20 00 00 00 63 5C 00 
   1500      5174.117 DT 04EF001C Rx 8  C1 5B 1F 55 3F 7C E1 76 
   1501      5175.225 DT 0CEF1100 Rx 8  98 AE D2 EE CF 45 0A 57 
   1502      5180.257 DT 18FFDC00 Rx 8  00 14 01 00 00 58 77 19 
   1503      5184.222 DT 04EF001C Rx 8  7D 5E 8E B0 83 59 70 B3 
   1504      5185.266 DT 18FFDC00 Rx 8  01 00 00 00 00 24 FF DC 
   1505      5185.846 DT 0CF00300 Rx 8  DF 00 4F FF 00 FF FF FF 
   1506      5186.422 DT 0CF00400 Rx 8  FF 7D 7D 00 00 00 FF FF 
   1507      5190.258 DT 18FFDC00 Rx 8  02 FF FF 9F D3 22 00 FF 
   1508      5190.854 DT 09F20000 Rx 8  00 00 00 FF FF FF FF FF 
   1509      5191.434 DT 0CEF0100 Rx 8  B0 20 00 00 00 63 5C 00 
   1510      5192.598 DT 18FF1080 Rx 8  00 00 00 FF FF FF FD 00 
   1511      5193.591 DT 18FF1180 Rx 8  02 FF FA FF FF FF 00 FF 
   1512      5194.343 DT 04EF001C Rx 8  3F 41 36 BF C1 46 C8 BC 
   1513      5194.923 DT 18FF1380 Rx 8  04 00 00 00 3F C0 40 00 
   1514      5204.458 DT 04EF001C Rx 8  FE 43 E1 B5 00 44 1F B6 
   1515      5205.263 DT 0CF00400 Rx 8  FF 7D 7D 00 00 00 FF FF 
   1516      5210.270 DT 0CEF0100 Rx 8  B0 20 00 00 00 63 5C 00 
   1517      5214.562 DT 04EF001C Rx 8  BE 46 8B B0 40 41 75 B3 
   1518      5215.274 DT 18FEF200 Rx 8  00 00 FF FF FF FF 4B FF 
   1519      5224.677 DT 04EF001C Rx 8  0C 4A 5C 2C F2 4D A2 2F 
   1520      5225.265 DT 0CF00400 Rx 8  FF 7D 7D 00 00 00 FF FF 
   1521      5225.809 DT 0CEF1100 Rx 8  DE AD 19 5E 92 83 E9 39 
   1522      5230.257 DT 18FFDC00 Rx 8  20 14 01 00 00 58 76 19 
   1523      5230.837 DT 0CEF0100 Rx 8  B0 20 00 00 00 63 5C 00 
   1524      5234.785 DT 04EF001C Rx 8  CC 4C AA 2A 32 4B 54 29 
   1525      5235.365 DT 0CF00300 Rx 8  DF 00 4F FF 00 FF FF FF 
   1526      5235.941 DT 18FFDC00 Rx 8  21 00 00 00 00 24 FF DC 
   1527      5240.245 DT 18FFDC00 Rx 8  22 FF FF 9F D3 22 00 FF 
   1528      5244.901 DT 04EF001C Rx 8  69 4F 12 01 97 68 EC 22 
   1529      5245.477 DT 0CF00400 Rx 8  FF 7D 7D 00 00 00 FF FF 
   1530      5249.169 DT 19F10D13 Rx 8  1A 27 01 4E 01 00 01 97 
   1531      5249.741 DT 19F21139 Rx 8  00 00 00 FF B8 0B 00 00 
   1532      5250.321 DT 0CEF0100 Rx 8  B0 20 00 00 00 63 5C 00 
   1533      5255.012 DT 04EF001C Rx 8  4D 52 DF 3C B3 15 21 7F 
