;$FILEVERSION=2.0
;$STARTTIME=45853.6717973495
;$COLUMNS=N,O,T,I,d,l,D
;
;   Start time: 7/15/2025 16:07:23.291.0
;   Generated by PCAN-View v5.3.0.942
;   Message   Time    Type ID     Rx/Tx
;   Number    Offset  |    [hex]  |  Data Length
;   |         [ms]    |    |      |  |  Data [hex] ...
;   |         |       |    |      |  |  |
;---+-- ------+------ +- --+----- +- +- +- +- -- -- -- -- -- -- --
      1     55589.180 DT 04EF001C Rx 8  B7 43 A3 DD 41 04 5C BE 
      2     55589.764 DT 0CF00300 Rx 8  DF 00 0F FF 00 FF FF FF 
      3     55592.076 DT 0CEF0017 Rx 8  81 04 00 00 00 00 FF FF 
      4     55593.620 DT 18FFDC00 Rx 8  22 FF FF AF D6 22 00 FF 
      5     55594.200 DT 0CEF1700 Rx 8  01 84 00 00 00 00 FF FF 
      6     55598.640 DT 0CF00400 Rx 8  FF 7D 80 10 13 00 FF FF 
      7     55599.184 DT 04EF001C Rx 8  78 46 42 A0 8E 21 BD E3 
      8     55599.756 DT 18E8FF00 Rx 8  02 FF FF FF FF 00 EF 00 
      9     55603.624 DT 0CEF0100 Rx 8  A0 20 02 66 00 27 99 22 
     10     55604.196 DT 18FEF600 Rx 8  FF FF 53 10 FF FF FF FF 
     11     55608.623 DT 18FEF100 Rx 8  FF 90 04 F0 FF C7 1F FF 
     12     55609.175 DT 04EF001C Rx 8  38 49 78 AF CE 2E 87 EC 
     13     55615.448 DT 18FF1080 Rx 8  00 00 00 FF FF FF FC 00 
     14     55616.428 DT 18FF1180 Rx 8  FD 02 F5 02 FF FF 00 FF 
     15     55617.420 DT 18FF1380 Rx 8  00 00 00 00 3F C0 C0 06 
     16     55618.248 DT 09F8021C Rx 8  6E FC 1C 86 83 00 FF FF 
     17     55618.816 DT 0CF00400 Rx 8  FF 7D 80 C8 12 00 FF FF 
     18     55619.360 DT 04EF001C Rx 8  44 4C 2F 4A B2 6B D0 49 
     19     55620.264 DT 09F8011C Rx 8  B8 AA 26 18 4E 66 53 C1 
     20     55621.264 DT 19FA031C Rx 8  6E D2 8F 00 D2 00 A2 00 
     21     55622.279 DT 0DF0101C Rx 8  6E F0 3C 4F 20 F3 80 2F 
     22     55623.295 DT 18FEE81C Rx 8  5D 62 C0 04 22 64 62 81 
     23     55623.859 DT 0CEF0100 Rx 8  A0 20 02 5F 00 27 99 22 
     24     55624.419 DT 19FA041C Rx 8  C0 AB 6E FF 0E 01 4E 0C 
     25     55625.395 DT 19FA041C Rx 8  C1 04 D8 68 10 FF FF FF 
     26     55626.371 DT 19FA041C Rx 8  C2 FF FF 02 65 1D B6 CB 
     27     55627.399 DT 19FA041C Rx 8  C3 68 10 FF FF FF FF FF 
     28     55628.398 DT 19FA041C Rx 8  C4 08 D6 06 A2 AD 80 0C 
     29     55628.950 DT 0CEF1100 Rx 8  37 F5 4B C0 E4 40 48 51 
     30     55629.510 DT 04EF001C Rx 8  74 4F 06 C9 83 88 F8 2A 
     31     55630.458 DT 19FA041C Rx 8  C5 FF FF FF FF FF 0A 04 
     32     55631.426 DT 19FA041C Rx 8  C6 29 0E 38 F8 11 FF FF 
     33     55632.162 DT 18FF1CF3 Rx 8  00 00 00 00 00 00 00 00 
     34     55632.730 DT 19FA041C Rx 8  C7 FF FF FF 0C 6B 03 DA 
     35     55633.465 DT 19FA041C Rx 8  C8 2F 00 00 FF FF FF FF 
     36     55634.018 DT 18FFDC00 Rx 8  40 14 01 52 02 93 8D 53 
     37     55634.582 DT 19FA041C Rx 8  C9 FF 17 FD 0C 76 48 00 
     38     55635.517 DT 19FA041C Rx 8  CA 00 FF FF FF FF FF 18 
     39     55636.501 DT 19FA041C Rx 8  CB 6B 03 FA 19 DC 05 FF 
     40     55637.513 DT 19FA041C Rx 8  CC FF FF FF FF 19 78 05 
     41     55638.061 DT 19F10D13 Rx 8  B6 0C 01 4B 02 67 00 A8 
     42     55638.629 DT 19FA041C Rx 8  CD BA 45 00 00 FF FF FF 
     43     55639.213 DT 0CF00300 Rx 8  DF 00 0F FF 00 FF FF FF 
     44     55639.769 DT 04EF001C Rx 8  B3 52 2F EC 44 15 D1 8F 
     45     55640.337 DT 0CF00400 Rx 8  FF 7D 80 88 12 00 FF FF 
     46     55640.901 DT 18FFDC00 Rx 8  41 D5 02 AD 00 A0 FF DB 
     47     55641.465 DT 19F21139 Rx 8  00 00 00 FF A8 64 0C 00 
     48     55642.029 DT 19FA041C Rx 8  CE FF FF 1B BC 02 20 99 
     49     55643.593 DT 19FA041C Rx 8  CF 00 00 FF FF FF FF FF 
     50     55644.185 DT 09F20000 Rx 8  00 40 09 FF FF FF FF FF 
     51     55644.749 DT 0CEF0100 Rx 8  A0 20 02 55 00 27 99 22 
     52     55645.314 DT 18FFDC00 Rx 8  42 FF FF AF D6 22 00 FF 
     53     55645.865 DT 19FA041C Rx 8  D0 1C 72 1F 36 74 AC 0D 
     54     55646.665 DT 19FA041C Rx 8  D1 FF FF FF FF FF 1F AC 
     55     55647.629 DT 19FA041C Rx 8  D2 0D 84 80 A0 0F FF FF 
     56     55648.637 DT 19FA041C Rx 8  D3 FF FF FF 20 45 33 1A 
     57     55649.580 DT 04EF001C Rx 8  78 55 DA B3 8F 32 24 F0 
     58     55650.680 DT 19FA041C Rx 8  D4 04 94 11 FF FF FF FF 
     59     55651.672 DT 19FA041C Rx 8  D5 FF 2C B6 1C FC 85 CC 
     60     55652.688 DT 19FA041C Rx 8  D6 10 FF FF FF FF FF 30 
     61     55653.683 DT 19FA041C Rx 8  D7 A9 1A 30 8E 3C 0F FF 
     62     55654.707 DT 19FA041C Rx 8  D8 FF FF FF FF FF FF FF 
     63     55658.619 DT 0CF00400 Rx 8  FF 7D 80 90 12 00 FF FF 
     64     55659.711 DT 04EF001C Rx 8  86 57 33 41 71 90 CD A2 
     65     55663.635 DT 0CEF0100 Rx 8  A0 20 02 50 00 28 99 22 
     66     55668.631 DT 18FEF200 Rx 8  33 00 FF FF FF FF 15 FF 
     67     55669.815 DT 04EF001C Rx 8  69 5A B3 34 9E 9D 4D D7 
     68     55678.619 DT 0CF00400 Rx 8  FF 7D 80 B8 12 00 FF FF 
     69     55679.171 DT 0CEF1100 Rx 8  16 E9 A2 8F 27 57 FE 0E 
     70     55679.959 DT 04EF001C Rx 8  0A 5D EB 2B FC 7A 14 28 
     71     55683.626 DT 18FFDC00 Rx 8  60 14 01 58 02 93 8B 54 
     72     55684.190 DT 0CEF0100 Rx 8  A0 20 02 54 00 28 99 22 
     73     55687.458 DT 18FF1C17 Rx 8  00 00 00 00 00 00 00 00 
     74     55688.626 DT 18FFDC00 Rx 8  61 D5 02 B2 00 A0 FF DB 
     75     55689.210 DT 0CF00300 Rx 8  DF 00 0F FF 00 FF FF FF 
     76     55690.066 DT 04EF001C Rx 8  ED 5F 1B 11 1B 58 E4 32 
     77     55693.582 DT 18FFDC00 Rx 8  62 FF FF AF D6 22 00 FF 
     78     55698.614 DT 0CF00400 Rx 8  FF 7D 80 A8 12 00 FF FF 
     79     55700.149 DT 04EF001C Rx 8  A8 42 B4 24 5E 25 4B 67 
     80     55703.602 DT 0CEF0100 Rx 8  A0 20 02 56 00 28 99 22 
     81     55708.598 DT 18FEF100 Rx 8  FF 90 04 F0 FF C7 1F FF 
     82     55710.234 DT 04EF001C Rx 8  13 45 32 FB E5 42 CD D8 
     83     55716.450 DT 18FF1080 Rx 8  00 00 00 FF FF FF FC 00 
     84     55717.410 DT 18FF1180 Rx 8  FD 02 F5 02 FF FF 00 FF 
     85     55718.594 DT 0CF00400 Rx 8  FF 7D 80 B8 12 00 FF FF 
     86     55720.346 DT 04EF001C Rx 8  AC 47 98 01 5A 40 67 22 
     87     55723.646 DT 0CEF0100 Rx 8  A0 20 02 55 00 28 99 22 
     88     55728.606 DT 0CEF1100 Rx 8  A2 9E F2 31 38 CF D3 EF 
     89     55730.446 DT 04EF001C Rx 8  6C 4A 36 0C 9A 2D C9 4F 
     90     55732.086 DT 18FF1CF3 Rx 8  00 00 00 00 00 00 00 00 
     91     55733.614 DT 18FFDC00 Rx 8  80 14 01 5B 02 93 8D 53 
     92     55737.814 DT 19F10D13 Rx 8  B7 0C 01 4B 02 67 00 A8 
     93     55738.622 DT 18FFDC00 Rx 8  81 D5 02 B4 00 A0 FF DB 
     94     55739.206 DT 0CF00300 Rx 8  DF 00 0F FF 00 FF FF FF 
     95     55739.778 DT 0CF00400 Rx 8  FF 7D 80 E0 12 00 FF FF 
     96     55740.338 DT 19F21139 Rx 8  00 00 00 FF 0C 65 0C 00 
     97     55740.886 DT 04EF001C Rx 8  55 4D 36 C3 A3 6A C9 C0 
     98     55743.622 DT 18FFDC00 Rx 8  82 FF FF AF D6 22 00 FF 
     99     55744.214 DT 09F20000 Rx 8  00 74 09 FF FF FF FF FF 
    100     55744.774 DT 0CEF0100 Rx 8  A0 20 02 59 00 28 99 22 
    101     55750.681 DT 04EF001C Rx 8  B7 4F C3 D1 41 48 3C F2 
    102     55758.621 DT 0CF00400 Rx 8  FF 7D 80 10 13 00 FF FF 
    103     55759.205 DT 18FECA00 Rx 8  00 FF 00 00 00 00 FF FF 
    104     55760.793 DT 04EF001C Rx 8  0D 53 9C 1D FB F4 63 9E 
    105     55763.629 DT 0CEF0100 Rx 8  A0 20 02 5E 00 28 99 22 
    106     55768.618 DT 18FEF200 Rx 8  36 00 FF FF FF FF 10 FF 
    107     55770.889 DT 04EF001C Rx 8  6B 55 C9 2B 9D D2 36 88 
    108     55778.589 DT 0CF00400 Rx 8  FF 7D 80 28 13 00 FF FF 
    109     55779.125 DT 0CEF1100 Rx 8  94 ED A6 1E 85 E9 2B 9A 
    110     55781.005 DT 04EF001C Rx 8  65 58 AF 56 93 DF 50 F5 
    111     55783.593 DT 18FFDC00 Rx 8  A0 14 01 65 02 93 8C 53 
    112     55784.157 DT 0CEF0100 Rx 8  A0 20 02 63 00 28 99 22 
    113     55788.585 DT 18FFDC00 Rx 8  A1 D5 02 B7 00 A0 FF DB 
    114     55789.169 DT 0CF00300 Rx 8  DF 00 0F FF 00 FF FF FF 
    115     55791.128 DT 04EF001C Rx 8  24 5B F4 5D D2 DC 0B FE 
    116     55793.592 DT 18FFDC00 Rx 8  A2 FF FF AF D6 22 00 FF 
    117     55798.588 DT 0CF00400 Rx 8  FF 7D 80 10 13 00 FF FF 
    118     55801.224 DT 04EF001C Rx 8  78 5D 9A BB 8E FA 65 38 
    119     55803.592 DT 0CEF0100 Rx 8  A0 20 02 64 00 28 99 22 
    120     55808.588 DT 18FEF100 Rx 8  FF 90 04 F0 FF C7 1F FF 
    121     55811.364 DT 04EF001C Rx 8  37 40 3F DE C1 C7 C0 7D 
    122     55816.448 DT 18FF1080 Rx 8  00 00 00 FF FF FF FC 00 
    123     55817.412 DT 18FF1180 Rx 8  FD 02 F5 02 FF FF 00 FF 
    124     55818.424 DT 18FF1380 Rx 8  00 00 00 00 3F C0 C0 06 
    125     55818.993 DT 0CF00400 Rx 8  FF 7D 80 F0 12 00 FF FF 
    126     55821.444 DT 04EF001C Rx 8  2D 43 3D 0D DB C4 C2 AE 
    127     55823.604 DT 0CEF0100 Rx 8  A0 20 02 60 00 27 99 22 
    128     55828.573 DT 0CEF1100 Rx 8  24 92 B7 82 89 7A 5F E1 
    129     55831.561 DT 04EF001C Rx 8  B8 45 9C A3 4E 02 63 C0 
    130     55832.145 DT 18FF1CF3 Rx 8  00 00 00 00 00 00 00 00 
    131     55833.577 DT 18FFDC00 Rx 8  C0 14 01 5D 02 93 8B 53 
    132     55837.813 DT 19F10D13 Rx 8  B8 0B 01 4B 02 67 00 A9 
    133     55838.577 DT 18FFDC00 Rx 8  C1 D5 02 B3 00 A0 FF DB 
    134     55839.161 DT 0CF00300 Rx 8  DF 00 0F FF 00 FF FF FF 
    135     55839.729 DT 0CF00400 Rx 8  FF 7D 80 E8 12 00 FF FF 
    136     55840.293 DT 19F21139 Rx 8  00 00 00 FF 70 65 0C 00 
    137     55841.669 DT 04EF001C Rx 8  51 49 12 E7 A6 AE EC 24 
    138     55843.605 DT 18FFDC00 Rx 8  C2 FF FF AF D6 22 00 FF 
    139     55844.193 DT 09F20000 Rx 8  00 70 09 FF FF FF FF FF 
    140     55844.753 DT 0CEF0100 Rx 8  A0 20 02 5D 00 27 99 22 
    141     55851.788 DT 04EF001C Rx 8  C5 4B 92 55 32 BC 6C 96 
    142     55858.612 DT 0CF00400 Rx 8  FF 7D 80 E0 12 00 FF FF 
    143     55861.920 DT 04EF001C Rx 8  87 4E FA 40 71 59 05 63 
    144     55863.620 DT 0CEF0100 Rx 8  A0 20 02 5C 00 28 99 22 
    145     55868.644 DT 18FEF200 Rx 8  34 00 FF FF FF FF 10 FF 
    146     55872.003 DT 04EF001C Rx 8  21 51 A1 6F D7 46 5E 4C 
    147     55878.607 DT 0CF00400 Rx 8  FF 7D 80 E8 12 00 FF FF 
    148     55879.155 DT 0CEF1100 Rx 8  7B 88 F2 BC 52 94 BE F8 
    149     55882.135 DT 04EF001C Rx 8  06 54 AF 52 F0 23 50 11 
    150     55883.611 DT 18FFDC00 Rx 8  E0 14 01 5C 02 93 8D 54 
    151     55884.171 DT 0CEF0100 Rx 8  A0 20 02 5C 00 28 99 22 
    152     55886.200 DT 18FF1C17 Rx 8  00 00 00 00 00 00 00 00 
    153     55888.592 DT 18FFDC00 Rx 8  E1 D5 02 B2 00 A0 FF DB 
    154     55889.176 DT 0CF00300 Rx 8  DF 00 0F FF 00 FF FF FF 
    155     55892.251 DT 04EF001C Rx 8  C5 56 7A 48 33 E1 85 CB 
    156     55893.615 DT 18FFDC00 Rx 8  E2 FF FF AF D6 22 00 FF 
    157     55898.611 DT 0CF00400 Rx 8  FF 7D 80 C0 12 00 FF FF 
    158     55899.607 DT 15FD069B Rx 8  38 3C 74 FF FF FF FF FF 
    159     55902.347 DT 04EF001C Rx 8  62 59 A0 7F 94 EE 5F FC 
    160     55903.623 DT 0CEF0100 Rx 8  A0 20 02 5B 00 27 99 22 
    161     55908.611 DT 18FEF100 Rx 8  FF 90 04 F0 FF C7 1F FF 
    162     55912.442 DT 04EF001C Rx 8  B8 5B 6C AD 4E AC 93 6E 
    163     55917.446 DT 18FF1080 Rx 8  00 00 00 FF FF FF FC 00 
    164     55918.407 DT 18FF1180 Rx 8  FD 02 F5 02 FF FF 00 FF 
    165     55918.975 DT 0CF00400 Rx 8  FF 7D 80 C8 12 00 FF FF 
    166     55922.558 DT 04EF001C Rx 8  77 5E 8D D0 81 C9 72 73 
    167     55923.622 DT 0CEF0100 Rx 8  A0 20 02 58 00 27 99 22 
    168     55928.586 DT 0CEF1100 Rx 8  88 B8 49 E9 C3 82 36 BC 
    169     55932.090 DT 18FF1CF3 Rx 8  00 00 00 00 00 00 00 00 
    170     55932.682 DT 04EF001C Rx 8  37 41 37 CF C1 D6 C8 6C 
    171     55933.606 DT 18FFDC00 Rx 8  00 14 01 5B 02 93 8C 53 
    172     55937.806 DT 19F10D13 Rx 8  B9 0B 01 4B 02 67 00 A9 
    173     55938.610 DT 18FFDC00 Rx 8  01 D6 02 B2 00 A0 FF DB 
    174     55939.194 DT 0CF00300 Rx 8  DF 00 0F FF 00 FF FF FF 
    175     55939.766 DT 0CF00400 Rx 8  FF 7D 80 E0 12 00 FF FF 
    176     55940.330 DT 19F21139 Rx 8  00 00 00 FF D4 65 0C 00 
    177     55942.798 DT 04EF001C Rx 8  F7 43 E1 CD 01 F4 1E 4E 
    178     55943.634 DT 18FFDC00 Rx 8  02 FF FF AF D6 22 00 FF 
    179     55944.226 DT 09F20000 Rx 8  00 74 09 FF FF FF FF FF 
    180     55944.786 DT 0CEF0100 Rx 8  A0 20 02 5A 00 27 99 22 
    181     55952.894 DT 04EF001C Rx 8  B7 46 8B C8 41 F1 74 4B 
    182     55958.598 DT 0CF00400 Rx 8  FF 7D 80 00 13 00 FF FF 
    183     55963.005 DT 04EF001C Rx 8  79 49 3B B7 8F FE C4 34 
    184     55963.598 DT 0CEF0100 Rx 8  A0 20 02 5D 00 27 99 22 
    185     55968.613 DT 18FEF200 Rx 8  35 00 FF FF FF FF 10 FF 
    186     55973.129 DT 04EF001C Rx 8  37 4C 5F C2 C1 BB A0 01 
    187     55978.581 DT 0CF00400 Rx 8  FF 7D 80 18 13 00 FF FF 
    188     55979.129 DT 0CEF1100 Rx 8  EE 83 4B 56 56 03 E3 9E 
    189     55983.232 DT 04EF001C Rx 8  F9 4E 87 B0 0F B9 78 73 
    190     55983.792 DT 0CEF0100 Rx 8  A0 20 02 61 00 27 99 22 
    191     55984.352 DT 18FFDC00 Rx 8  20 14 01 62 02 93 8D 53 
    192     55988.584 DT 18FFDC00 Rx 8  21 D6 02 B3 00 A0 FF DB 
    193     55989.168 DT 0CF00300 Rx 8  DF 00 0F FF 00 FF FF FF 
    194     55993.347 DT 04EF001C Rx 8  B7 51 33 DF BE 41 33 FB 
    195     55993.919 DT 18FFDC00 Rx 8  22 FF FF AF D6 22 00 FF 
    196     55998.579 DT 0CF00400 Rx 8  FF 7D 80 D0 12 00 FF FF 
    197     56003.447 DT 04EF001C Rx 8  79 54 D3 AA 70 24 D3 EE 
    198     56004.015 DT 0CEF0100 Rx 8  A0 20 02 60 00 27 99 22 
    199     56008.584 DT 18FEF100 Rx 8  FF 91 04 F0 FF C7 1F FF 
    200     56013.563 DT 04EF001C Rx 8  37 57 87 D9 3E 27 87 9D 
    201     56017.428 DT 18FF1080 Rx 8  00 00 00 FF FF FF FC 00 
    202     56018.408 DT 18FF1180 Rx 8  FD 02 F5 02 FF FF 00 FF 
    203     56018.976 DT 0CF00400 Rx 8  FF 7D 80 98 12 00 FF FF 
    204     56019.561 DT 18FF1380 Rx 8  00 00 00 00 3F C0 C0 06 
    205     56023.589 DT 0CEF0100 Rx 8  A0 20 02 57 00 27 99 22 
    206     56024.153 DT 04EF001C Rx 8  F8 59 3E AF F1 49 3E 8B 
    207     56028.569 DT 0CEF1100 Rx 8  19 B3 F1 23 C6 1C 22 D2 
    208     56033.473 DT 18FFDC00 Rx 8  40 14 01 53 02 93 8B 54 
    209     56034.017 DT 04EF001C Rx 8  B7 5C 5B D2 41 CB A4 71 
    210     56037.709 DT 19F10D13 Rx 8  BA 0B 01 4B 02 67 00 A9 
    211     56038.469 DT 18FFDC00 Rx 8  41 D6 02 AE 00 A0 FF DB 
    212     56039.053 DT 0CF00300 Rx 8  DF 00 0F FF 00 FF FF FF 
    213     56039.621 DT 0CF00400 Rx 8  FF 7D 80 98 12 00 FF FF 
    214     56040.189 DT 19F21139 Rx 8  00 00 00 FF 38 66 0C 00 
    215     56043.509 DT 18FFDC00 Rx 8  42 FF FF AF D6 22 00 FF 
    216     56044.065 DT 04EF001C Rx 8  07 40 0E 4E F1 37 F1 0D 
    217     56044.657 DT 09F20000 Rx 8  00 50 09 FF FF FF FF FF 
    218     56045.217 DT 0CEF0100 Rx 8  A0 20 02 53 00 27 99 22 
    219     56048.516 DT 09F20100 Rx 8  C0 16 00 37 09 FF FF 5C 
    220     56051.988 DT 0CEA1C00 Rx 8  00 EE 00 00 00 00 00 00 
    221     56052.964 DT 18EEFF1C Rx 8  02 04 45 0E 00 00 00 42 
    222     56053.533 DT 09F20100 Rx 8  C1 86 78 05 19 00 AF D6 
    223     56054.081 DT 04EF001C Rx 8  28 43 38 35 DE F4 C7 B6 
    224     56054.653 DT 18FEE500 Rx 8  8C 31 00 00 FF FF FF FF 
    225     56058.505 DT 0CF00400 Rx 8  FF 7D 80 A0 12 00 FF FF 
    226     56059.077 DT 09F20100 Rx 8  C2 22 00 FF FF FF FF 00 
    227     56059.657 DT 18FEEE00 Rx 8  6F FF FF FF FF FF 4D FF 
    228     56063.529 DT 09F20100 Rx 8  C3 00 00 FF FF FF FF FF 
    229     56064.077 DT 04EF001C Rx 8  61 45 43 7B 97 D2 BC D8 
    230     56064.637 DT 0CEF0100 Rx 8  A0 20 02 53 00 28 99 22 
    231     56065.217 DT 18FEEF00 Rx 8  FF FF FF 3A FF FF FF FF 
    232     56068.537 DT 18FEF200 Rx 8  33 00 FF FF FF FF 13 FF 
    233     56071.994 DT 18FF1CF3 Rx 8  00 00 00 00 00 00 00 00 
    234     56073.498 DT 18FEF700 Rx 8  FF FF 1A 01 18 01 19 01 
    235     56074.182 DT 04EF001C Rx 8  45 48 0E 56 B3 FF F1 D5 
    236     56078.502 DT 0CF00400 Rx 8  FF 7D 80 98 12 00 FF FF 
    237     56079.050 DT 0CEF1100 Rx 8  48 AF 07 EC A7 F6 65 9A 
    238     56083.506 DT 18FFDC00 Rx 8  60 14 01 52 02 93 8D 53 
    239     56084.070 DT 0CEF0100 Rx 8  A0 20 02 54 00 28 99 22 
    240     56084.634 DT 04EF001C Rx 8  E1 4A BF 04 17 AD 40 A7 
    241     56088.490 DT 18FFDC00 Rx 8  61 D7 02 B0 00 A0 FF DB 
    242     56089.074 DT 0CF00300 Rx 8  DF 00 0F FF 00 FF FF FF 
    243     56091.990 DT 0CEF0017 Rx 8  81 04 00 00 00 00 FF FF 
    244     56093.510 DT 18FFDC00 Rx 8  62 FF FF AF D6 22 00 FF 
    245     56094.090 DT 0CEF1700 Rx 8  01 84 00 00 00 00 FF FF 
    246     56094.638 DT 04EF001C Rx 8  A0 4D C4 0B 56 CA 3B C8 
    247     56095.630 DT 18FF1C17 Rx 8  00 00 00 00 00 00 00 00 
    248     56098.501 DT 0CF00400 Rx 8  FF 7D 80 68 12 00 FF FF 
    249     56099.074 DT 18E8FF00 Rx 8  02 FF FF FF FF 00 EF 00 
    250     56099.670 DT 18FEFC00 Rx 8  FF DB FF FF FF FF FF FF 
    251     56103.481 DT 0CEF0100 Rx 8  A0 20 02 50 00 28 99 22 
    252     56104.058 DT 18FEF600 Rx 8  FF FF 53 11 FF FF FF FF 
    253     56104.617 DT 04EF001C Rx 8  85 50 08 3E 73 D7 F7 FD 
    254     56108.485 DT 18FEF100 Rx 8  FF 92 04 F0 FF C7 1F FF 
    255     56114.569 DT 04EF001C Rx 8  B8 52 24 D4 B1 12 24 D0 
    256     56118.325 DT 18FF1080 Rx 8  00 00 00 FF FF FF FC 00 
    257     56118.897 DT 0CF00400 Rx 8  FF 7D 80 78 12 00 FF FF 
    258     56119.474 DT 18FF1180 Rx 8  FD 02 F5 02 FF FF 00 FF 
    259     56123.481 DT 0CEF0100 Rx 8  A0 20 02 4D 00 28 99 22 
    260     56124.709 DT 04EF001C Rx 8  E1 55 47 1B 17 F2 B8 F8 
    261     56125.725 DT 09F8021C Rx 8  6F FC 1C 87 83 00 FF FF 
    262     56126.709 DT 09F8011C Rx 8  70 AA 26 18 26 66 53 C1 
    263     56127.736 DT 19FA031C Rx 8  6F D2 8F 00 D2 00 A2 00 
    264     56128.460 DT 0CEF1100 Rx 8  85 A1 C2 C7 4A 9C 81 B2 
    265     56129.028 DT 0DF0101C Rx 8  6F F0 3C 4F 30 1A 81 2F 
    266     56129.776 DT 18FEE81C Rx 8  19 63 B8 04 2F 64 63 81 
    267     56130.840 DT 19FA041C Rx 8  E0 AB 6F FF 0E 01 4E 0C 
    268     56131.828 DT 19FA041C Rx 8  E1 04 D8 68 10 FF FF FF 
    269     56132.412 DT 18FF1CF3 Rx 8  00 00 00 00 00 00 00 00 
    270     56132.972 DT 19FA041C Rx 8  E2 FF FF 02 65 1D B6 CB 
    271     56133.533 DT 18FFDC00 Rx 8  80 14 01 51 02 93 8B 53 
    272     56134.108 DT 19FA041C Rx 8  E3 30 11 FF FF FF FF FF 
    273     56134.828 DT 04EF001C Rx 8  05 59 C4 37 F3 3E 3B 14 
    274     56135.880 DT 19FA041C Rx 8  E4 08 D6 06 A2 AD AC 0D 
    275     56136.892 DT 19FA041C Rx 8  E5 FF FF FF FF FF 0A 04 
    276     56137.712 DT 19F10D13 Rx 8  BB 0C 01 4B 02 67 00 A8 
    277     56138.276 DT 19FA041C Rx 8  E6 29 0E 38 F8 11 FF FF 
    278     56138.860 DT 0CF00300 Rx 8  DF 00 0F FF 00 FF FF FF 
    279     56139.428 DT 0CF00400 Rx 8  FF 7D 80 90 12 00 FF FF 
    280     56139.996 DT 18FFDC00 Rx 8  81 D7 02 B0 00 A0 FF DB 
    281     56140.560 DT 19F21139 Rx 8  00 00 00 FF 9C 66 0C 00 
    282     56141.124 DT 19FA041C Rx 8  E7 FF FF FF 0C 6B 03 DA 
    283     56141.956 DT 19FA041C Rx 8  E8 2F 00 00 FF FF FF FF 
    284     56142.951 DT 19FA041C Rx 8  E9 FF 17 FD 0C 76 48 00 
    285     56143.552 DT 09F20000 Rx 8  00 4C 09 FF FF FF FF FF 
    286     56144.111 DT 0CEF0100 Rx 8  A0 20 02 4F 00 28 99 22 
    287     56144.676 DT 18FFDC00 Rx 8  82 FF FF B0 D6 22 00 FF 
    288     56145.944 DT 04EF001C Rx 8  9C 5B 49 FD 6A 5C B6 BE 
    289     56147.015 DT 19FA041C Rx 8  EA 00 FF FF FF FF FF 18 
    290     56148.003 DT 19FA041C Rx 8  EB 6B 03 FA 19 78 05 FF 
    291     56149.023 DT 19FA041C Rx 8  EC FF FF FF FF 19 78 05 
    292     56150.038 DT 19FA041C Rx 8  ED BA 45 00 00 FF FF FF 
    293     56151.038 DT 19FA041C Rx 8  EE FF FF 1B BC 02 20 99 
    294     56152.070 DT 19FA041C Rx 8  EF 00 00 FF FF FF FF FF 
    295     56153.061 DT 19FA041C Rx 8  F0 1C 72 1F 36 74 3C 0F 
    296     56154.081 DT 19FA041C Rx 8  F1 FF FF FF FF FF 1F AC 
    297     56155.029 DT 04EF001C Rx 8  5C 5E A7 F8 AA 99 58 7B 
    298     56156.109 DT 19FA041C Rx 8  F2 0D 84 80 04 10 FF FF 
    299     56157.112 DT 19FA041C Rx 8  F3 FF FF FF 20 45 33 1A 
    300     56158.128 DT 19FA041C Rx 8  F4 04 94 11 FF FF FF FF 
    301     56158.696 DT 0CF00400 Rx 8  FF 7D 80 B0 12 00 FF FF 
    302     56159.248 DT 19FA041C Rx 8  F5 FF 2C B6 1C FC 85 CC 
    303     56160.172 DT 19FA041C Rx 8  F6 10 FF FF FF FF FF 30 
    304     56161.144 DT 19FA041C Rx 8  F7 A9 1A 30 8E 3C 0F FF 
    305     56162.171 DT 19FA041C Rx 8  F8 FF FF FF FF FF FF FF 
    306     56163.483 DT 0CEF0100 Rx 8  A0 20 02 53 00 28 99 22 
    307     56165.139 DT 04EF001C Rx 8  D4 40 DB A6 22 87 24 25 
    308     56168.503 DT 18FEF200 Rx 8  34 00 FF FF FF FF 10 FF 
    309     56175.242 DT 04EF001C Rx 8  37 43 27 BD C1 C4 D8 7E 
    310     56178.470 DT 0CF00400 Rx 8  FF 7D 80 B0 12 00 FF FF 
    311     56179.006 DT 0CEF1100 Rx 8  C5 A4 B8 C6 AF 4C 56 9D 
    312     56183.474 DT 18FFDC00 Rx 8  A0 14 01 56 02 93 8C 53 
    313     56184.038 DT 0CEF0100 Rx 8  A0 20 02 55 00 28 99 22 
    314     56185.378 DT 04EF001C Rx 8  54 46 6F A0 A2 C1 90 63 
    315     56188.466 DT 18FFDC00 Rx 8  A1 D7 02 B2 00 A0 FF DB 
    316     56189.050 DT 0CF00300 Rx 8  DF 00 0F FF 00 FF FF FF 
    317     56193.474 DT 18FFDC00 Rx 8  A2 FF FF B0 D6 22 00 FF 
    318     56195.450 DT 04EF001C Rx 8  EB 48 A5 56 E2 28 A5 72 
    319     56198.474 DT 0CF00400 Rx 8  FF 7D 80 A0 12 00 FF FF 
    320     56203.482 DT 0CEF0100 Rx 8  A0 20 02 55 00 28 99 22 
    321     56205.582 DT 04EF001C Rx 8  AB 4B FF 55 A2 2B FF 71 
    322     56208.474 DT 18FEF100 Rx 8  FF 93 04 F0 FF C7 1F FF 
    323     56215.685 DT 04EF001C Rx 8  36 4E 4E B8 3F 2E 4E 9C 
    324     56218.326 DT 18FF1080 Rx 8  00 00 00 FF FF FF FC 00 
    325     56218.894 DT 0CF00400 Rx 8  FF 7D 80 88 12 00 FF FF 
    326     56219.470 DT 18FF1180 Rx 8  FD 02 F5 02 FF FF 00 FF 
    327     56220.306 DT 18FF1380 Rx 8  00 00 00 00 3F C0 C0 06 
    328     56223.502 DT 0CEF0100 Rx 8  A0 20 02 53 00 28 99 22 
    329     56225.794 DT 04EF001C Rx 8  2C 51 AC 77 DA F6 53 94 
    330     56228.486 DT 0CEF1100 Rx 8  D1 CF 25 7F A6 BB 2B C8 
    331     56233.486 DT 18FFDC00 Rx 8  C0 14 01 50 02 93 8C 53 
    332     56235.914 DT 04EF001C Rx 8  7C 54 D6 F2 8A 93 29 71 
    333     56237.718 DT 19F10D13 Rx 8  BC 0B 01 4B 02 67 00 A9 
    334     56238.490 DT 18FFDC00 Rx 8  C1 D8 02 AF 00 A0 FF DB 
    335     56239.074 DT 0CF00300 Rx 8  DF 00 0F FF 00 FF FF FF 
    336     56239.650 DT 0CF00400 Rx 8  FF 7D 80 80 12 00 FF FF 
    337     56240.214 DT 19F21139 Rx 8  00 00 00 FF 00 67 0C 00 
    338     56243.490 DT 18FFDC00 Rx 8  C2 FF FF B0 D6 22 00 FF 
    339     56244.082 DT 09F20000 Rx 8  00 40 09 FF FF FF FF FF 
    340     56244.642 DT 0CEF0100 Rx 8  A0 20 02 50 00 28 99 22 
    341     56246.054 DT 04EF001C Rx 8  61 57 D3 19 97 90 2C 9A 
    342     56256.140 DT 04EF001C Rx 8  A1 59 65 17 A8 19 65 13 
    343     56258.505 DT 0CF00400 Rx 8  FF 7D 80 80 12 00 FF FF 
    344     56263.509 DT 0CEF0100 Rx 8  A0 20 02 4F 00 28 99 22 
    345     56266.249 DT 04EF001C Rx 8  86 5C 6B 2A 8F 7C 6B 4E 
    346     56268.485 DT 18FEF200 Rx 8  33 00 FF FF FF FF 10 FF 
    347     56271.997 DT 18FF1CF3 Rx 8  00 00 00 00 00 00 00 00 
    348     56276.368 DT 04EF001C Rx 8  41 5F B2 11 48 5F B2 55 
    349     56278.472 DT 0CF00400 Rx 8  FF 7D 80 78 12 00 FF FF 
    350     56279.008 DT 0CEF1100 Rx 8  92 C9 87 A6 4F 76 D4 47 
    351     56283.472 DT 18FFDC00 Rx 8  E0 14 01 4F 02 93 8D 53 
    352     56284.032 DT 0CEF0100 Rx 8  A0 20 02 4F 00 28 99 22 
    353     56286.484 DT 04EF001C Rx 8  1A 42 03 D4 13 E2 03 30 
    354     56288.476 DT 18FFDC00 Rx 8  E1 D8 02 AE 00 A0 FF DB 
    355     56289.060 DT 0CF00300 Rx 8  DF 00 0F FF 00 FF FF FF 
    356     56293.452 DT 18FFDC00 Rx 8  E2 FF FF B0 D6 22 00 FF 
    357     56296.579 DT 04EF001C Rx 8  C5 44 EA 2A CD 24 EB 0E 
    358     56298.483 DT 0CF00400 Rx 8  FF 7D 80 88 12 00 FF FF 
    359     56299.047 DT 0DF50B9B Rx 8  1D 66 03 00 00 00 00 FF 
    360     56303.471 DT 0CEF0100 Rx 8  A0 20 02 4F 00 28 99 22 
    361     56306.683 DT 04EF001C Rx 8  F7 46 C9 B8 FF 06 C8 BC 
    362     56308.479 DT 18FEF100 Rx 8  FF 95 04 F0 FF C7 1F FF 
    363     56316.798 DT 04EF001C Rx 8  B7 49 F3 B7 BF 09 F2 B3 
    364     56318.462 DT 0CF00400 Rx 8  FF 7D 80 88 12 00 FF FF 
    365     56319.327 DT 18FF1080 Rx 8  00 00 00 FF FF FF FC 00 
    366     56320.288 DT 18FF1180 Rx 8  FD 02 F5 02 FF FF 00 FF 
    367     56323.492 DT 0CEF0100 Rx 8  A0 20 02 50 00 28 99 22 
    368     56326.911 DT 04EF001C Rx 8  77 4C 1D B2 7F 0C 1C B6 
    369     56328.451 DT 0CEF1100 Rx 8  67 FF 8D 42 D2 6C BD E2 
    370     56331.999 DT 18FF1CF3 Rx 8  00 00 00 00 00 00 00 00 
    371     56333.459 DT 18FFDC00 Rx 8  00 14 01 52 02 93 8C 53 
    372     56337.015 DT 04EF001C Rx 8  36 4F 46 B9 3F AF 46 1D 
    373     56337.707 DT 19F10D13 Rx 8  BD 0B 01 4B 02 67 00 A9 
    374     56338.467 DT 18FFDC00 Rx 8  01 D8 02 B0 00 A0 FF DB 
    375     56339.051 DT 0CF00300 Rx 8  DF 00 0F FF 00 FF FF FF 
    376     56339.619 DT 0CF00400 Rx 8  FF 7D 80 98 12 00 FF FF 
    377     56340.179 DT 19F21139 Rx 8  00 00 00 FF 64 67 0C 00 
    378     56343.467 DT 18FFDC00 Rx 8  02 FF FF B0 D6 22 00 FF 
    379     56344.059 DT 09F20000 Rx 8  00 4C 09 FF FF FF FF FF 
    380     56344.619 DT 0CEF0100 Rx 8  A0 20 02 51 00 28 99 22 
    381     56347.127 DT 04EF001C Rx 8  2C 52 B4 64 25 C2 B4 A0 
    382     56357.246 DT 04EF001C Rx 8  B7 54 1B BA BE C4 1B 7E 
    383     56358.470 DT 0CF00400 Rx 8  FF 7D 80 B0 12 00 FF FF 
    384     56363.474 DT 0CEF0100 Rx 8  A0 20 02 53 00 28 99 22 
    385     56367.365 DT 04EF001C Rx 8  78 57 CA C1 70 27 CB E5 
    386     56368.481 DT 18FEF200 Rx 8  34 00 FF FF FF FF 10 FF 
    387     56376.025 DT 18FF1C17 Rx 8  00 00 00 00 00 00 00 00 
    388     56377.473 DT 04EF001C Rx 8  37 5A EF B4 3F 8A EE 30 
    389     56378.473 DT 0CF00400 Rx 8  FF 7D 80 C0 12 00 FF FF 
    390     56379.017 DT 0CEF1100 Rx 8  29 FC 44 B2 8D B8 CC 9C 
    391     56383.474 DT 18FFDC00 Rx 8  20 14 01 58 02 93 8B 53 
    392     56384.038 DT 0CEF0100 Rx 8  A0 20 02 56 00 28 99 22 
    393     56387.581 DT 04EF001C Rx 8  F8 5C 16 CA F0 4C 17 8E 
    394     56388.465 DT 18FFDC00 Rx 8  21 D9 02 B2 00 A0 FF DB 
    395     56389.049 DT 0CF00300 Rx 8  DF 00 0F FF 00 FF FF FF 
    396     56393.453 DT 18FFDC00 Rx 8  22 FF FF B0 D6 22 00 FF 
    397     56397.121 DT 15FD069B Rx 8  39 3C 74 FF FF FF FF FF 
    398     56397.681 DT 04EF001C Rx 8  B7 5F 43 B1 BF 6F 42 D5 
    399     56398.505 DT 0CF00400 Rx 8  FF 7D 80 90 12 00 FF FF 
    400     56403.497 DT 0CEF0100 Rx 8  A0 20 02 56 00 28 99 22 
    401     56407.788 DT 04EF001C Rx 8  77 42 6D AC 7F 72 6C C8 
    402     56408.500 DT 18FEF100 Rx 8  FF 96 04 F0 FF C7 1F FF 
    403     56417.911 DT 04EF001C Rx 8  37 45 17 AB 3F B5 16 0F 
    404     56418.487 DT 0CF00400 Rx 8  FF 7D 80 68 12 00 FF FF 
    405     56419.316 DT 18FF1080 Rx 8  00 00 00 FF FF FF FC 00 
    406     56420.296 DT 18FF1180 Rx 8  FD 02 F5 02 FF FF 00 FF 
    407     56421.304 DT 18FF1380 Rx 8  00 00 00 00 3F C0 C0 06 
    408     56423.508 DT 0CEF0100 Rx 8  A0 20 02 4F 00 28 99 22 
    409     56428.035 DT 04EF001C Rx 8  F7 47 C1 A9 FF 77 C0 CD 
    410     56428.575 DT 0CEF1100 Rx 8  F5 E7 6D 54 4B F1 75 A8 
    411     56431.999 DT 18FF1CF3 Rx 8  00 00 00 00 00 00 00 00 
    412     56433.487 DT 18FFDC00 Rx 8  40 14 01 50 02 93 8D 53 
    413     56437.727 DT 19F10D13 Rx 8  BE 0B 01 4B 02 67 00 A9 
    414     56438.275 DT 04EF001C Rx 8  21 4B 71 15 28 DB 71 D1 
    415     56438.859 DT 0CF00300 Rx 8  DF 00 0F FF 00 FF FF FF 
    416     56439.427 DT 0CF00400 Rx 8  FF 7D 80 88 12 00 FF FF 
    417     56439.991 DT 18FFDC00 Rx 8  41 DA 02 AE 00 A0 FF DB 
    418     56440.555 DT 19F21139 Rx 8  00 00 00 FF C8 67 0C 00 
    419     56443.459 DT 18FFDC00 Rx 8  42 FF FF B0 D6 22 00 FF 
    420     56444.047 DT 09F20000 Rx 8  00 48 09 FF FF FF FF FF 
    421     56444.607 DT 0CEF0100 Rx 8  A0 20 02 4E 00 28 99 22 
    422     56448.260 DT 04EF001C Rx 8  E1 4D 87 13 E8 FD 87 F7 
    423     56458.366 DT 04EF001C Rx 8  C6 50 49 36 CE 20 48 12 
    424     56458.934 DT 0CF00400 Rx 8  FF 7D 80 98 12 00 FF FF 
    425     56463.466 DT 0CEF0100 Rx 8  A0 20 02 52 00 28 99 22 
    426     56468.486 DT 18FEF200 Rx 8  33 00 FF FF FF FF 11 FF 
    427     56469.038 DT 04EF001C Rx 8  62 53 F0 15 6A 63 F1 71 
    428     56478.462 DT 0CF00400 Rx 8  FF 7D 80 78 12 00 FF FF 
    429     56479.010 DT 04EF001C Rx 8  21 56 99 38 29 56 98 5C 
    430     56479.574 DT 0CEF1100 Rx 8  AF E0 81 05 AC 13 B4 16 
    431     56483.458 DT 18FFDC00 Rx 8  60 14 01 4F 02 93 8B 53 
    432     56484.018 DT 0CEF0100 Rx 8  A0 20 02 51 00 28 99 22 
    433     56488.454 DT 18FFDC00 Rx 8  61 DA 02 AE 00 A0 FF DB 
    434     56488.998 DT 04EF001C Rx 8  06 59 C7 0F 0E 79 C6 4B 
    435     56489.582 DT 0CF00300 Rx 8  DF 00 0F FF 00 FF FF FF 
    436     56493.442 DT 18FFDC00 Rx 8  62 FF FF B0 D6 22 00 FF 
    437     56498.473 DT 0CF00400 Rx 8  FF 7D 80 90 12 00 FF FF 
    438     56499.013 DT 04EF001C Rx 8  A1 5B 75 35 A9 5B 74 51 
    439     56503.465 DT 0CEF0100 Rx 8  A0 20 02 4F 00 28 99 22 
    440     56508.462 DT 18FEF100 Rx 8  FF 98 04 F0 FF C7 1F FF 
    441     56509.034 DT 04EF001C Rx 8  F8 5D 1E FB F0 7D 1F BF 
    442     56518.482 DT 0CF00400 Rx 8  FF 7D 80 80 12 00 FF FF 
    443     56519.037 DT 04EF001C Rx 8  B6 40 BA 96 BE 00 BB B2 
    444     56520.314 DT 18FF1080 Rx 8  00 00 00 FF FF FF FC 00 
    445     56521.294 DT 18FF1180 Rx 8  FD 02 F5 02 FF FF 00 FF 
    446     56523.506 DT 0CEF0100 Rx 8  A0 20 02 51 00 28 99 22 
    447     56528.474 DT 0CEF1100 Rx 8  04 88 EE 84 8D B5 AF C1 
    448     56529.166 DT 04EF001C Rx 8  78 43 6A E5 71 E3 6A 21 
    449     56531.998 DT 0CEF0017 Rx 8  81 04 00 00 00 00 FF FF 
    450     56533.474 DT 18FFDC00 Rx 8  80 14 01 4C 02 93 8C 53 
    451     56537.718 DT 19F10D13 Rx 8  BF 0C 01 4B 02 67 00 A8 
    452     56538.474 DT 18FFDC00 Rx 8  81 DB 02 AE 00 A0 FF DB 
    453     56539.058 DT 0CF00300 Rx 8  DF 00 0F FF 00 FF FF FF 
    454     56539.618 DT 04EF001C Rx 8  36 46 0E 90 3F 46 0E F4 
    455     56540.186 DT 0CF00400 Rx 8  FF 7D 80 60 12 00 FF FF 
    456     56540.758 DT 18E8FF00 Rx 8  02 FF FF FF FF 00 EF 00 
    457     56541.322 DT 19F21139 Rx 8  00 00 00 FF 2C 68 0C 00 
    458     56543.486 DT 18FFDC00 Rx 8  82 FF FF B0 D6 22 00 FF 
    459     56544.074 DT 09F20000 Rx 8  00 30 09 FF FF FF FF FF 
    460     56544.634 DT 0CEF0100 Rx 8  A0 20 02 4E 00 28 99 22 
    461     56549.349 DT 04EF001C Rx 8  F9 48 B7 E6 F0 A8 B7 62 
    462     56552.001 DT 18FF1CF3 Rx 8  00 00 00 00 00 00 00 00 
    463     56558.453 DT 0CF00400 Rx 8  FF 7D 80 60 12 00 FF FF 
    464     56559.493 DT 04EF001C Rx 8  B6 4B E2 9D BF AB E2 19 
    465     56563.477 DT 18FEEF00 Rx 8  FF FF FF 3A FF FF FF FF 
    466     56564.037 DT 0CEF0100 Rx 8  A0 20 02 4B 00 28 99 22 
    467     56568.481 DT 18FEF200 Rx 8  33 00 FF FF FF FF 11 FF 
    468     56569.593 DT 04EF001C Rx 8  78 4E 02 E8 71 AE 02 6C 
    469     56578.457 DT 0CF00400 Rx 8  FF 7D 80 88 12 00 FF FF 
    470     56579.002 DT 0CEF1100 Rx 8  5F 96 8A 9B 54 48 D7 C9 
    471     56579.745 DT 04EF001C Rx 8  5C 51 DF D7 55 F1 DF 13 
    472     56583.457 DT 18FFDC00 Rx 8  A0 14 01 52 02 93 8B 53 
    473     56584.017 DT 0CEF0100 Rx 8  A0 20 02 4E 00 28 99 22 
    474     56588.457 DT 18FFDC00 Rx 8  A1 DB 02 B0 00 A0 FF DB 
    475     56589.041 DT 0CF00300 Rx 8  DF 00 0F FF 00 FF FF FF 
    476     56589.837 DT 04EF001C Rx 8  1C 54 B5 D2 14 34 B4 D6 
    477     56593.445 DT 18FFDC00 Rx 8  A2 FF FF B0 D6 22 00 FF 
    478     56594.025 DT 0CEF1700 Rx 8  01 84 00 00 00 00 FF FF 
    479     56598.465 DT 0CF00400 Rx 8  FF 7D 80 68 12 00 FF FF 
    480     56599.921 DT 04EF001C Rx 8  DC 56 63 D0 D4 16 62 F4 
    481     56603.461 DT 0CEF0100 Rx 8  A0 20 02 4F 00 28 99 22 
    482     56604.037 DT 18FEF600 Rx 8  FF FF 53 11 FF FF FF FF 
    483     56608.461 DT 18FEF100 Rx 8  FF 9A 04 F0 FF C7 1F FF 
    484     56610.029 DT 04EF001C Rx 8  9D 59 58 D7 94 59 58 B3 
    485     56615.872 DT 18FF1C17 Rx 8  00 00 00 00 00 00 00 00 
    486     56618.484 DT 0CF00400 Rx 8  FF 7D 80 50 12 00 FF FF 
    487     56620.124 DT 04EF001C Rx 8  93 5C 7E A2 9A BC 7E 26 
    488     56620.725 DT 18FF1080 Rx 8  00 00 00 FF FF FF FC 00 
    489     56622.289 DT 18FF1180 Rx 8  FD 02 F5 02 FF FF 00 FF 
    490     56623.301 DT 18FF1380 Rx 8  00 00 00 00 3F C0 C0 06 
    491     56623.861 DT 0CEF0100 Rx 8  A0 20 02 4B 00 28 99 22 
    492     56628.481 DT 0CEF1100 Rx 8  BC BA D5 49 FE 7D 42 53 
    493     56630.241 DT 04EF001C Rx 8  2C 5F DC 59 25 5F DC 3D 
    494     56631.277 DT 09F8021C Rx 8  70 FC 0B 88 82 00 FF FF 
    495     56632.017 DT 18FF1CF3 Rx 8  00 00 00 00 00 00 00 00 
    496     56632.561 DT 09F8011C Rx 8  42 AA 26 18 0A 66 53 C1 
    497     56633.286 DT 19FA031C Rx 8  70 D2 8F 00 D2 00 A2 00 
    498     56633.842 DT 18FFDC00 Rx 8  C0 14 01 4C 02 93 8D 53 
    499     56634.394 DT 0DF0101C Rx 8  70 F0 3C 4F 30 1A 81 2F 
    500     56635.338 DT 18FEE81C Rx 8  C8 63 B0 04 2F 64 63 81 
    501     56637.725 DT 19F10D13 Rx 8  C0 0C 01 4B 02 67 00 A8 
    502     56638.474 DT 18FFDC00 Rx 8  C1 DC 02 AE 00 A0 FF DB 
    503     56639.058 DT 0CF00300 Rx 8  DF 00 0F FF 00 FF FF FF 
    504     56639.633 DT 0CF00400 Rx 8  FF 7D 81 60 12 00 FF FF 
    505     56640.205 DT 19F21139 Rx 8  00 00 00 FF 90 68 0C 00 
    506     56640.753 DT 04EF001C Rx 8  89 42 94 6C 7F E5 6B AF 
    507     56643.485 DT 18FFDC00 Rx 8  C2 FF FF B0 D6 22 00 FF 
    508     56644.074 DT 09F20000 Rx 8  00 34 09 FF FF FF FF FF 
    509     56644.638 DT 0CEF0100 Rx 8  A0 20 02 4A 00 28 99 22 
    510     56646.538 DT 19FA041C Rx 8  00 AB 70 FF 0E 01 4E 0C 
    511     56647.533 DT 19FA041C Rx 8  01 04 D8 68 10 FF FF FF 
    512     56648.517 DT 19FA041C Rx 8  02 FF FF 02 65 1D B6 CB 
    513     56649.545 DT 19FA041C Rx 8  03 30 11 FF FF FF FF FF 
    514     56650.477 DT 04EF001C Rx 8  AE 45 8A 53 58 C2 75 B0 
    515     56651.556 DT 19FA041C Rx 8  04 08 D6 06 A2 AD 10 0E 
    516     56652.592 DT 19FA041C Rx 8  05 FF FF FF FF FF 0A 04 
    517     56653.592 DT 19FA041C Rx 8  06 29 0E 38 F8 11 FF FF 
    518     56654.591 DT 19FA041C Rx 8  07 FF FF FF 0C 6B 03 DA 
    519     56655.619 DT 19FA041C Rx 8  08 2F 00 00 FF FF FF FF 
    520     56656.611 DT 19FA041C Rx 8  09 FF 17 FD 0C 76 48 00 
    521     56657.638 DT 19FA041C Rx 8  0A 00 FF FF FF FF FF 18 
    522     56658.454 DT 0CF00400 Rx 8  FF 7D 80 60 12 00 FF FF 
    523     56659.026 DT 19FA041C Rx 8  0B 6B 03 FA 19 4C 04 FF 
    524     56659.694 DT 19FA041C Rx 8  0C FF FF FF FF 19 78 05 
    525     56660.586 DT 04EF001C Rx 8  AA 48 E6 7E A3 28 E6 7A 
    526     56661.686 DT 19FA041C Rx 8  0D BA 45 00 00 FF FF FF 
    527     56662.681 DT 19FA041C Rx 8  0E FF FF 1B BC 02 20 99 
    528     56663.461 DT 0CEF0100 Rx 8  A0 20 02 4C 00 28 99 22 
    529     56664.049 DT 19FA041C Rx 8  0F 00 00 FF FF FF FF FF 
    530     56664.745 DT 19FA041C Rx 8  10 1C 72 1F 36 74 3C 0F 
    531     56665.741 DT 19FA041C Rx 8  11 FF FF FF FF FF 1F AC 
    532     56666.725 DT 19FA041C Rx 8  12 0D 84 80 D8 0E FF FF 
    533     56667.736 DT 19FA041C Rx 8  13 FF FF FF 20 45 33 1A 
    534     56668.472 DT 18FEF200 Rx 8  33 00 FF FF FF FF 10 FF 
    535     56669.052 DT 19FA041C Rx 8  14 04 94 11 FF FF FF FF 
    536     56669.768 DT 19FA041C Rx 8  15 FF 2C B6 1C FC 85 CC 
    537     56670.700 DT 04EF001C Rx 8  7A 4B 28 FD 8C CC D7 1E 
    538     56671.804 DT 19FA041C Rx 8  16 10 FF FF FF FF FF 30 
    539     56672.784 DT 19FA041C Rx 8  17 A9 1A 30 8E 04 10 FF 
    540     56673.803 DT 19FA041C Rx 8  18 FF FF FF FF FF FF FF 
    541     56678.491 DT 0CF00400 Rx 8  FF 7D 80 20 12 00 FF FF 
    542     56679.043 DT 0CEF1100 Rx 8  C3 80 99 7E D1 C9 7C E0 
    543     56680.819 DT 04EF001C Rx 8  B5 4D D1 83 43 EA 2E 40 
    544     56683.483 DT 18FFDC00 Rx 8  E0 14 01 41 02 93 8B 53 
    545     56684.043 DT 0CEF0100 Rx 8  A0 20 02 49 00 28 99 22 
    546     56688.471 DT 18FFDC00 Rx 8  E1 DD 02 A9 00 A0 FF DB 
    547     56689.055 DT 0CF00300 Rx 8  DF 00 0F FF 00 FF FF FF 
    548     56690.927 DT 04EF001C Rx 8  75 50 FF 9E 7C 30 FF 9A 
    549     56693.455 DT 18FFDC00 Rx 8  E2 FF FF B0 D6 22 00 FF 
    550     56698.456 DT 0CF00400 Rx 8  FF 7D 80 08 12 00 FF FF 
    551     56701.027 DT 04EF001C Rx 8  D8 52 47 F4 D1 B2 47 70 
    552     56703.471 DT 0CEF0100 Rx 8  A0 20 02 42 00 28 99 22 
    553     56708.463 DT 18FEF100 Rx 8  FF 9C 04 F0 FF C7 1F FF 
    554     56711.123 DT 04EF001C Rx 8  F7 54 59 8A FE 74 59 CE 
    555     56718.446 DT 0CF00400 Rx 8  FF 7D 81 40 12 00 FF FF 
    556     56721.242 DT 04EF001C Rx 8  B7 57 03 89 BE F7 03 4D 
    557     56721.842 DT 18FF1080 Rx 8  00 00 00 FF FF FF FC 00 
    558     56723.287 DT 18FF1180 Rx 8  FD 02 F5 02 FF FF 00 FF 
    559     56723.851 DT 0CEF0100 Rx 8  A0 20 02 44 00 28 99 22 
    560     56728.466 DT 0CEF1100 Rx 8  30 B0 22 2B 40 DF F4 A4 
    561     56731.350 DT 04EF001C Rx 8  77 5A AD 84 7F 3A AC 80 
    562     56733.446 DT 18FFDC00 Rx 8  00 14 01 4B 02 93 8C 53 
    563     56737.714 DT 19F10D13 Rx 8  C1 0A 01 4B 02 67 00 A9 
    564     56738.470 DT 18FFDC00 Rx 8  01 DD 02 AE 00 A0 FF DB 
    565     56739.050 DT 0CF00300 Rx 8  DF 00 10 FF 00 FF FF FF 
    566     56739.626 DT 0CF00400 Rx 8  FF 7D 81 60 12 00 FF FF 
    567     56740.198 DT 19F21139 Rx 8  00 00 00 FF F4 68 0C 00 
    568     56741.450 DT 04EF001C Rx 8  A3 5D 47 23 AA BD 47 A7 
    569     56743.478 DT 18FFDC00 Rx 8  02 FF FF B0 D6 22 00 FF 
    570     56744.066 DT 09F20000 Rx 8  00 30 09 FF FF FF FF FF 
    571     56744.626 DT 0CEF0100 Rx 8  A0 20 02 49 00 28 99 22 
    572     56751.589 DT 04EF001C Rx 8  F7 5F 01 81 FE 9F 01 25 
    573     56752.173 DT 18FF1CF3 Rx 8  00 00 00 00 00 00 00 00 
    574     56758.474 DT 0CF00400 Rx 8  FF 7D 81 68 12 00 FF FF 
    575     56759.058 DT 18FECA00 Rx 8  00 FF 00 00 00 00 FF FF 
    576     56761.682 DT 04EF001C Rx 8  B7 42 AB 9C BE 42 AB F8 
    577     56763.482 DT 0CEF0100 Rx 8  A0 20 02 4C 00 28 99 22 
    578     56768.494 DT 18FEF200 Rx 8  34 00 FF FF FF FF 11 FF 
    579     56771.794 DT 04EF001C Rx 8  77 45 55 9B 7E C5 55 7F 
    580     56778.489 DT 0CF00400 Rx 8  FF 7D 81 A0 12 00 FF FF 
    581     56779.033 DT 0CEF1100 Rx 8  11 AC CB 64 89 D3 9A AB 
    582     56781.909 DT 04EF001C Rx 8  37 48 7F 96 3F 28 7E 92 
    583     56783.477 DT 18FFDC00 Rx 8  20 14 01 55 02 93 8C 53 
    584     56784.037 DT 0CEF0100 Rx 8  A0 20 02 4F 00 28 99 22 
    585     56788.473 DT 18FFDC00 Rx 8  21 DE 02 B3 00 A0 FF DB 
    586     56789.053 DT 0CF00300 Rx 8  DF 00 10 FF 00 FF FF FF 
    587     56792.020 DT 04EF001C Rx 8  F8 4A A6 EC F0 2A A7 E8 
    588     56793.464 DT 18FFDC00 Rx 8  22 FF FF B0 D6 22 00 FF 
    589     56798.452 DT 0CF00400 Rx 8  FF 7D 81 A0 12 00 FF FF 
    590     56802.124 DT 04EF001C Rx 8  B6 4D D2 9B BE 6D D3 DF 
    591     56803.472 DT 0CEF0100 Rx 8  A0 20 02 54 00 28 99 22 
    592     56808.448 DT 18FEF100 Rx 8  FF 9E 04 F0 FF C7 1F FF 
    593     56812.239 DT 04EF001C Rx 8  77 50 FD 8E 7E D0 FD 6A 
    594     56818.439 DT 0CF00400 Rx 8  FF 7D 81 78 12 00 FF FF 
    595     56821.313 DT 18FF1080 Rx 8  00 00 00 FF FF FF FC 00 
    596     56822.273 DT 18FF1180 Rx 8  FD 02 F5 02 FF FF 00 FF 
    597     56822.829 DT 04EF001C Rx 8  36 53 A6 85 3F F3 A6 41 
    598     56823.414 DT 18FF1380 Rx 8  00 00 00 00 3F C0 C0 06 
    599     56823.974 DT 0CEF0100 Rx 8  A0 20 02 51 00 28 99 22 
    600     56828.437 DT 0CEF1100 Rx 8  5E A4 9A DE 48 9C F7 63 
    601     56832.009 DT 18FF1CF3 Rx 8  00 00 00 00 00 00 00 00 
    602     56832.557 DT 04EF001C Rx 8  F7 55 51 8B FE 95 51 2F 
    603     56833.441 DT 18FFDC00 Rx 8  40 14 01 4A 02 93 8C 53 
    604     56837.717 DT 19F10D13 Rx 8  C2 0B 01 4B 02 67 00 A9 
    605     56838.437 DT 18FFDC00 Rx 8  41 DF 02 AE 00 A0 FF DB 
    606     56839.021 DT 0CF00300 Rx 8  DF 00 0F FF 00 FF FF FF 
    607     56839.593 DT 0CF00400 Rx 8  FF 7D 81 50 12 00 FF FF 
    608     56840.157 DT 19F21139 Rx 8  00 00 00 FF 58 69 0C 00 
    609     56842.577 DT 04EF001C Rx 8  45 59 86 17 4C 99 86 B3 
    610     56843.445 DT 18FFDC00 Rx 8  42 FF FF B0 D6 22 00 FF 
    611     56844.033 DT 09F20000 Rx 8  00 28 09 FF FF FF FF FF 
    612     56844.593 DT 0CEF0100 Rx 8  A0 20 02 4C 00 28 99 22 
    613     56852.692 DT 04EF001C Rx 8  E1 5B 37 35 E8 FB 37 F1 
    614     56858.472 DT 0CF00400 Rx 8  FF 7D 81 68 12 00 FF FF 
    615     56862.803 DT 04EF001C Rx 8  A2 5E 5E 28 AB 9E 5E 8C 
    616     56863.479 DT 0CEF0100 Rx 8  A0 20 02 4B 00 28 99 22 
    617     56868.483 DT 18FEF200 Rx 8  34 00 FF FF FF FF 10 FF 
    618     56872.923 DT 04EF001C Rx 8  87 41 82 1F 8E E1 82 DB 
    619     56878.466 DT 0CF00400 Rx 8  FF 7D 81 68 12 00 FF FF 
    620     56879.011 DT 0CEF1100 Rx 8  66 DE C5 03 98 66 AF FA 
    621     56883.035 DT 04EF001C Rx 8  20 44 08 32 29 94 08 96 
    622     56883.595 DT 0CEF0100 Rx 8  A0 20 02 4D 00 28 99 22 
    623     56884.147 DT 18FFDC00 Rx 8  60 14 01 4C 02 93 8B 53 
    624     56888.443 DT 18FFDC00 Rx 8  61 DF 02 AE 00 A0 FF DB 
    625     56889.027 DT 0CF00300 Rx 8  DF 00 0F FF 00 FF FF FF 
    626     56893.135 DT 04EF001C Rx 8  E2 46 DC 20 EB 96 DC 84 
    627     56893.695 DT 18FFDC00 Rx 8  62 FF FF B0 D6 22 00 FF 
    628     56898.451 DT 0CF00400 Rx 8  FF 7D 81 58 12 00 FF FF 
    629     56901.614 DT 15FD069B Rx 8  3A 3D 74 FF FF FF FF FF 
    630     56903.258 DT 04EF001C Rx 8  C6 49 81 0F CE 39 80 0B 
    631     56903.818 DT 0CEF0100 Rx 8  A0 20 02 4B 00 28 99 22 
    632     56907.334 DT 18FF1C17 Rx 8  00 00 00 00 00 00 00 00 
    633     56907.910 DT 18FF2117 Rx 8  06 FF FF FF 00 FF FF FF 
    634     56908.482 DT 18FEF100 Rx 8  FF A0 04 F0 FF C7 1F FF 
    635     56913.345 DT 04EF001C Rx 8  F7 4B A1 85 FF 1B A0 A1 
    636     56918.437 DT 0CF00400 Rx 8  FF 7D 81 58 12 00 FF FF 
    637     56922.302 DT 18FF1080 Rx 8  00 00 00 FF FF FF FC 00 
    638     56923.282 DT 18FF1180 Rx 8  FD 02 F5 02 FF FF 00 FF 
    639     56923.838 DT 04EF001C Rx 8  B8 4E C4 F8 B0 3E C5 FC 
    640     56924.402 DT 0CEF0100 Rx 8  A0 20 02 4A 00 28 99 22 
    641     56928.434 DT 0CEF1100 Rx 8  24 D1 6F 90 D5 B1 C5 17 
    642     56933.477 DT 18FFDC00 Rx 8  80 14 01 4A 02 93 8C 53 
    643     56934.034 DT 04EF001C Rx 8  79 51 FB EF 70 C1 FB 0B 
    644     56937.718 DT 19F10D13 Rx 8  C3 0B 01 4B 02 67 00 A9 
    645     56938.462 DT 18FFDC00 Rx 8  81 E0 02 AE 00 A0 FF DB 
    646     56939.046 DT 0CF00300 Rx 8  DF 00 0F FF 00 FF FF FF 
    647     56939.618 DT 0CF00400 Rx 8  FF 7D 81 50 12 00 FF FF 
    648     56940.178 DT 19F21139 Rx 8  00 00 00 FF BC 69 0C 00 
    649     56943.470 DT 18FFDC00 Rx 8  82 FF FF B0 D6 22 00 FF 
    650     56944.025 DT 04EF001C Rx 8  38 54 90 E2 31 E4 90 26 
    651     56944.614 DT 09F20000 Rx 8  00 28 09 FF FF FF FF FF 
    652     56945.178 DT 0CEF0100 Rx 8  A0 20 02 4A 00 28 99 22 
    653     56953.790 DT 04EF001C Rx 8  F9 56 47 E8 F0 E6 47 2C 
    654     56958.482 DT 0CF00400 Rx 8  FF 7D 81 58 12 00 FF FF 
    655     56963.449 DT 0CEF0100 Rx 8  A0 20 02 4A 00 28 99 22 
    656     56964.005 DT 04EF001C Rx 8  B8 59 7C EF B1 E9 7C 2B 
    657     56968.457 DT 18FEF200 Rx 8  34 00 FF FF FF FF 10 FF 
    658     56972.017 DT 18FF1CF3 Rx 8  00 00 00 00 00 00 00 00 
    659     56974.009 DT 04EF001C Rx 8  77 5C 9D 92 7E AC 9D 16 
    660     56978.441 DT 0CF00400 Rx 8  FF 7D 81 88 12 00 FF FF 
    661     56978.985 DT 0CEF1100 Rx 8  E5 D7 E9 D9 23 D9 32 E5 
    662     56983.456 DT 18FFDC00 Rx 8  A0 14 01 53 02 93 8C 53 
    663     56984.016 DT 0CEF0100 Rx 8  A0 20 02 4D 00 28 99 22 
    664     56984.572 DT 04EF001C Rx 8  37 5F C7 91 3E AF C7 15 
    665     56988.444 DT 18FFDC00 Rx 8  A1 E0 02 B2 00 A0 FF DB 
    666     56989.024 DT 0CF00300 Rx 8  DF 00 10 FF 00 FF FF FF 
    667     56993.428 DT 18FFDC00 Rx 8  A2 FF FF B0 D6 22 00 FF 
    668     56994.272 DT 04EF001C Rx 8  F7 41 F1 8F FE 91 F1 2B 
    669     56998.436 DT 0CF00400 Rx 8  FF 7D 81 B0 12 00 FF FF 
    670     57003.443 DT 0CEF0100 Rx 8  A0 20 02 53 00 28 99 22 
    671     57004.367 DT 04EF001C Rx 8  B7 44 9B 8A BE 94 9B 2E 
    672     57008.464 DT 18FEF100 Rx 8  FF A2 04 F0 FF C7 1F FF 
    673     57012.008 DT 0CEF0017 Rx 8  81 04 00 00 00 00 FF FF 
    674     57014.460 DT 04EF001C Rx 8  79 47 4B F9 70 17 4B DD 
    675     57018.440 DT 0CF00400 Rx 8  FF 7D 81 A0 12 00 FF FF 
    676     57019.012 DT 18E8FF00 Rx 8  02 FF FF FF FF 00 EF 00 
    677     57022.296 DT 18FF1080 Rx 8  00 00 00 FF FF FF FC 00 
    678     57023.277 DT 18FF1180 Rx 8  FD 02 F5 02 FF FF 00 FF 
    679     57023.841 DT 0CEF0100 Rx 8  A0 20 02 55 00 28 99 22 
    680     57024.425 DT 18FF1380 Rx 8  00 00 00 00 3F C0 C0 06 
    681     57024.997 DT 04EF001C Rx 8  37 4A 6F 84 3E 1A 6F A0 
    682     57028.421 DT 0CEF1100 Rx 8  A8 C7 78 F5 54 14 4A 1F 
    683     57032.009 DT 0CEA1C00 Rx 8  00 EE 00 00 00 00 00 00 
    684     57032.829 DT 18EEFF1C Rx 8  02 04 45 0E 00 00 00 42 
    685     57033.545 DT 18FFDC00 Rx 8  C0 14 01 51 02 93 8C 53 
    686     57034.837 DT 04EF001C Rx 8  67 4D 05 03 91 FA FA C0 
    687     57037.817 DT 19F10D13 Rx 8  C4 0B 01 4B 02 67 00 A9 
    688     57038.541 DT 18FFDC00 Rx 8  C1 E1 02 B0 00 A0 FF DB 
    689     57039.125 DT 0CF00300 Rx 8  DF 00 0F FF 00 FF FF FF 
    690     57039.697 DT 0CF00400 Rx 8  FF 7D 81 80 12 00 FF FF 
    691     57040.265 DT 19F21139 Rx 8  00 00 00 FF 20 6A 0C 00 
    692     57043.529 DT 18FFDC00 Rx 8  C2 FF FF B0 D6 22 00 FF 
    693     57044.121 DT 09F20000 Rx 8  00 40 09 FF FF FF FF FF 
    694     57044.681 DT 0CEF0100 Rx 8  A0 20 02 52 00 28 99 22 
    695     57045.225 DT 04EF001C Rx 8  6D 50 E7 4E 9B A7 18 CD 
    696     57048.553 DT 09F20100 Rx 8  E0 16 00 26 09 FF FF 5E 
    697     57052.113 DT 18FF1CF3 Rx 8  00 00 00 00 00 00 00 00 
    698     57053.513 DT 09F20100 Rx 8  E1 86 7E 05 1A 00 B0 D6 
    699     57055.021 DT 04EF001C Rx 8  E1 52 7F 2C 17 A5 80 AF 
    700     57058.549 DT 0CF00400 Rx 8  FF 7D 81 90 12 00 FF FF 
    701     57059.121 DT 09F20100 Rx 8  E2 22 00 FF FF FF FF 00 
    702     57059.701 DT 18FEEE00 Rx 8  6F FF FF FF FF FF 4D FF 
    703     57063.553 DT 09F20100 Rx 8  E3 00 00 FF FF FF FF FF 
    704     57064.113 DT 0CEF0100 Rx 8  A0 20 02 50 00 28 99 22 
    705     57064.693 DT 18FEEF00 Rx 8  FF FF FF 3A FF FF FF FF 
    706     57065.249 DT 04EF001C Rx 8  A1 55 05 2B 57 C2 FA C8 
    707     57068.553 DT 18FEF200 Rx 8  34 00 FF FF FF FF 10 FF 
    708     57073.534 DT 18FEF700 Rx 8  FF FF 1A 01 18 01 16 01 
    709     57075.242 DT 04EF001C Rx 8  E5 58 2B 06 13 AF D4 85 
    710     57078.562 DT 0CF00400 Rx 8  FF 7D 81 98 12 00 FF FF 
    711     57079.106 DT 0CEF1100 Rx 8  57 FB A0 C3 63 1B 0C 68 
    712     57083.577 DT 18FFDC00 Rx 8  E0 14 01 53 02 93 8B 53 
    713     57084.137 DT 0CEF0100 Rx 8  A0 20 02 52 00 28 99 22 
    714     57085.385 DT 04EF001C Rx 8  81 5B 54 25 88 2B 54 21 
    715     57088.561 DT 18FFDC00 Rx 8  E1 E2 02 B1 00 A0 FF DB 
    716     57089.141 DT 0CF00300 Rx 8  DF 00 10 FF 00 FF FF FF 
    717     57093.545 DT 18FFDC00 Rx 8  E2 FF FF B0 D6 22 00 FF 
    718     57094.125 DT 0CEF1700 Rx 8  01 84 00 00 00 00 FF FF 
    719     57095.481 DT 04EF001C Rx 8  67 5E 9D 10 6E 6E 9D 54 
    720     57098.561 DT 0CF00400 Rx 8  FF 7D 81 A0 12 00 FF FF 
    721     57099.157 DT 18FEFC00 Rx 8  FF DB FF FF FF FF FF FF 
    722     57103.548 DT 0CEF0100 Rx 8  A0 20 02 53 00 28 99 22 
    723     57104.125 DT 18FEF600 Rx 8  FF FF 53 11 FF FF FF FF 
    724     57105.580 DT 04EF001C Rx 8  93 40 9E AE 9A 50 9E CA 
    725     57108.588 DT 18FEF100 Rx 8  FF A4 04 F0 FF C7 1F FF 
    726     57115.683 DT 04EF001C Rx 8  F9 42 E7 FC 0F F5 18 3F 
    727     57118.559 DT 0CF00400 Rx 8  FF 7D 81 B8 12 00 FF FF 
    728     57123.400 DT 18FF1080 Rx 8  00 00 00 FF FF FF FC 00 
    729     57123.964 DT 0CEF0100 Rx 8  A0 20 02 55 00 28 99 22 
    730     57124.540 DT 18FF1180 Rx 8  FD 02 F5 02 FF FF 00 FF 
    731     57125.784 DT 04EF001C Rx 8  EB 45 CD 6B E2 15 CD 4F 
    732     57128.564 DT 0CEF1100 Rx 8  0B E2 3D 25 00 F2 10 71 
    733     57132.117 DT 18FF1CF3 Rx 8  00 00 00 00 00 00 00 00 
    734     57133.573 DT 18FFDC00 Rx 8  00 14 01 59 02 93 8D 53 
    735     57134.929 DT 09F8021C Rx 8  71 FC ED 8A 80 00 FF FF 
    736     57135.900 DT 04EF001C Rx 8  FB 48 B5 E6 0D 9F 4A 45 
    737     57136.908 DT 09F8011C Rx 8  FA A9 26 18 E2 65 53 C1 
    738     57137.808 DT 19F10D13 Rx 8  C5 0B 01 4B 02 67 00 A9 
    739     57138.360 DT 19FA031C Rx 8  71 D2 8F 00 D2 00 A2 00 
    740     57138.940 DT 0CF00300 Rx 8  DF 00 10 FF 00 FF FF FF 
    741     57139.509 DT 0CF00400 Rx 8  FF 7D 81 C8 12 00 FF FF 
    742     57140.073 DT 0DF0101C Rx 8  71 F0 3C 4F 40 41 81 2F 
    743     57140.649 DT 18FFDC00 Rx 8  01 E2 02 B3 00 A0 FF DB 
    744     57141.197 DT 18FEE81C Rx 8  E5 65 A0 04 2F 64 64 81 
    745     57141.761 DT 19F21139 Rx 8  00 00 00 FF 84 6A 0C 00 
    746     57142.321 DT 19FA041C Rx 8  20 AB 71 FF 0E 01 4E 0C 
    747     57143.044 DT 19FA041C Rx 8  21 04 D8 04 10 FF FF FF 
    748     57143.613 DT 18FFDC00 Rx 8  02 FF FF B1 D6 22 00 FF 
    749     57144.205 DT 09F20000 Rx 8  00 68 09 FF FF FF FF FF 
    750     57144.765 DT 0CEF0100 Rx 8  A0 20 02 57 00 28 99 22 
    751     57145.325 DT 19FA041C Rx 8  22 FF FF 02 65 1D B6 CB 
    752     57145.949 DT 18FF1C17 Rx 8  00 00 00 00 00 00 00 00 
    753     57146.501 DT 04EF001C Rx 8  87 4B D2 05 71 7C 2D 46 
    754     57148.116 DT 19FA041C Rx 8  23 30 11 FF FF FF FF FF 
    755     57149.100 DT 19FA041C Rx 8  24 08 D6 06 A2 AD D8 0E 
    756     57150.128 DT 19FA041C Rx 8  25 FF FF FF FF FF 0A 04 
    757     57151.128 DT 19FA041C Rx 8  26 29 0E 38 F8 11 FF FF 
    758     57152.139 DT 19FA041C Rx 8  27 FF FF FF 0C 6B 03 DA 
    759     57153.167 DT 19FA041C Rx 8  28 2F 00 00 FF FF FF FF 
    760     57154.159 DT 19FA041C Rx 8  29 FF 17 FD 0C 76 48 00 
    761     57155.186 DT 19FA041C Rx 8  2A 00 FF FF FF FF FF 18 
    762     57156.118 DT 04EF001C Rx 8  9C 4E E1 D8 6B F9 1F 1B 
    763     57157.210 DT 19FA041C Rx 8  2B 6B 03 FA 19 84 03 FF 
    764     57158.209 DT 19FA041C Rx 8  2C FF FF FF FF 19 78 05 
    765     57158.777 DT 0CF00400 Rx 8  FF 7D 80 F0 12 00 FF FF 
    766     57159.357 DT 19FA041C Rx 8  2D BA 45 00 00 FF FF FF 
    767     57160.249 DT 19FA041C Rx 8  2E FF FF 1B BC 02 20 99 
    768     57161.257 DT 19FA041C Rx 8  2F 00 00 FF FF FF FF FF 
    769     57162.249 DT 19FA041C Rx 8  30 1C 72 1F 36 74 3C 0F 
    770     57163.276 DT 19FA041C Rx 8  31 FF FF FF FF FF 1F AC 
    771     57163.844 DT 0CEF0100 Rx 8  A0 20 02 5B 00 28 99 22 
    772     57164.412 DT 19FA041C Rx 8  32 0D 84 80 D8 0E FF FF 
    773     57165.312 DT 19FA041C Rx 8  33 FF FF FF 20 45 33 1A 
    774     57166.232 DT 04EF001C Rx 8  9F 51 1A DF 68 C6 E4 3C 
    775     57167.319 DT 19FA041C Rx 8  34 04 94 11 FF FF FF FF 
    776     57168.307 DT 19FA041C Rx 8  35 FF 2C B6 1C FC 85 68 
    777     57168.879 DT 18FEF200 Rx 8  36 00 FF FF FF FF 10 FF 
    778     57169.463 DT 19FA041C Rx 8  36 10 FF FF FF FF FF 30 
    779     57170.355 DT 19FA041C Rx 8  37 A9 1A 30 8E 04 10 FF 
    780     57171.355 DT 19FA041C Rx 8  38 FF FF FF FF FF FF FF 
    781     57176.346 DT 04EF001C Rx 8  77 53 E5 8D 80 D4 1B 6E 
    782     57178.530 DT 0CF00400 Rx 8  FF 7D 81 20 13 00 FF FF 
    783     57179.070 DT 0CEF1100 Rx 8  CE E8 DA 4F 52 91 BB A0 
    784     57183.558 DT 18FFDC00 Rx 8  20 14 01 66 02 93 8C 53 
    785     57184.122 DT 0CEF0100 Rx 8  A0 20 02 60 00 28 99 22 
    786     57186.438 DT 04EF001C Rx 8  6B 56 D1 68 9D 31 2E 6B 
    787     57188.530 DT 18FFDC00 Rx 8  21 E3 02 B7 00 A0 FF DB 
    788     57189.110 DT 0CF00300 Rx 8  DF 00 10 FF 00 FF FF FF 
    789     57193.527 DT 18FFDC00 Rx 8  22 FF FF B1 D6 22 00 FF 
    790     57196.571 DT 04EF001C Rx 8  F9 58 37 F6 0E DF C9 15 
    791     57198.555 DT 0CF00400 Rx 8  FF 7D 81 20 13 00 FF FF 
    792     57203.538 DT 0CEF0100 Rx 8  A0 20 02 64 00 28 99 22 
    793     57206.670 DT 04EF001C Rx 8  B7 5B 63 85 41 7C 9C C6 
    794     57208.578 DT 18FEF100 Rx 8  FF A6 04 F0 FF C7 1F FF 
    795     57216.793 DT 04EF001C Rx 8  78 5E 82 F8 8F D9 7C 1B 
    796     57218.561 DT 0CF00400 Rx 8  FF 7D 80 D0 12 00 FF FF 
    797     57223.385 DT 18FF1080 Rx 8  00 00 00 FF FF FF FC 00 
    798     57223.949 DT 0CEF0100 Rx 8  A0 20 02 60 00 28 99 22 
    799     57224.526 DT 18FF1180 Rx 8  FD 02 F5 02 FF FF 00 FF 
    800     57225.366 DT 18FF1380 Rx 8  00 00 00 00 3F C0 C0 06 
    801     57226.902 DT 04EF001C Rx 8  37 41 37 9F C1 26 C8 9C 
    802     57228.510 DT 0CEF1100 Rx 8  F1 92 84 6A F7 BE 49 57 
    803     57232.118 DT 18FF1CF3 Rx 8  00 00 00 00 00 00 00 00 
    804     57233.538 DT 18FFDC00 Rx 8  40 14 01 54 02 93 8C 53 
    805     57237.010 DT 04EF001C Rx 8  85 44 A8 0A 72 43 56 69 
    806     57237.818 DT 19F10D13 Rx 8  C6 0B 01 4B 02 67 00 A9 
    807     57238.534 DT 18FFDC00 Rx 8  41 E3 02 B0 00 A0 FF DB 
    808     57239.118 DT 0CF00300 Rx 8  DF 00 0F FF 00 FF FF FF 
    809     57239.686 DT 0CF00400 Rx 8  FF 7D 80 98 12 00 FF FF 
    810     57240.253 DT 19F21139 Rx 8  00 00 00 FF E8 6A 0C 00 
    811     57243.529 DT 18FFDC00 Rx 8  42 FF FF B1 D6 22 00 FF 
    812     57244.125 DT 09F20000 Rx 8  00 44 09 FF FF FF FF FF 
    813     57244.685 DT 0CEF0100 Rx 8  A0 20 02 57 00 28 99 22 
    814     57247.121 DT 04EF001C Rx 8  59 47 6A E9 AE 20 94 EA 
    815     57257.233 DT 04EF001C Rx 8  E2 49 A4 3F 16 8E 59 9C 
    816     57258.545 DT 0CF00400 Rx 8  FF 7D 80 70 12 00 FF FF 
    817     57263.537 DT 0CEF0100 Rx 8  A0 20 02 50 00 28 99 22 
    818     57267.348 DT 04EF001C Rx 8  C5 4C AA 02 31 CB 57 E1 
    819     57268.544 DT 18FEF200 Rx 8  33 00 FF FF FF FF 13 FF 
    820     57277.451 DT 04EF001C Rx 8  61 4F 13 21 95 C8 EE C2 
    821     57278.531 DT 0CF00400 Rx 8  FF 7D 81 78 12 00 FF FF 
    822     57279.087 DT 0CEF1100 Rx 8  39 99 28 28 1A C5 64 3E 
    823     57283.551 DT 18FFDC00 Rx 8  60 14 01 50 02 93 8C 53 
    824     57284.111 DT 0CEF0100 Rx 8  A0 20 02 4D 00 28 99 22 
    825     57287.575 DT 04EF001C Rx 8  21 52 B9 3C D6 15 47 1F 
    826     57288.559 DT 18FFDC00 Rx 8  61 E4 02 B0 00 A0 FF DB 
    827     57289.139 DT 0CF00300 Rx 8  DF 00 10 FF 00 FF FF FF 
    828     57293.543 DT 18FFDC00 Rx 8  62 FF FF B1 D6 22 00 FF 
    829     57297.690 DT 04EF001C Rx 8  06 55 A7 03 F2 D2 5A E0 
    830     57298.559 DT 0CF00400 Rx 8  FF 7D 81 78 12 00 FF FF 
    831     57301.410 DT 0DF50B9B Rx 8  1E 6A 03 00 00 00 00 FF 
    832     57303.538 DT 0CEF0100 Rx 8  A0 20 02 4F 00 28 99 22 
    833     57307.782 DT 04EF001C Rx 8  37 57 87 89 C3 D0 7A 6A 
    834     57308.578 DT 18FEF100 Rx 8  FF A7 04 F0 FF C7 1F FF 
    835     57317.898 DT 04EF001C Rx 8  F8 59 3E FF 0C DE C3 1C 
    836     57318.558 DT 0CF00400 Rx 8  FF 7D 81 68 12 00 FF FF 
    837     57323.562 DT 0CEF0100 Rx 8  A0 20 02 4E 00 28 99 22 
    838     57324.394 DT 18FF1080 Rx 8  00 00 00 FF FF FF FC 00 
    839     57325.358 DT 18FF1180 Rx 8  FD 02 F5 02 FF FF 00 FF 
    840     57328.010 DT 04EF001C Rx 8  B7 5C 5B 82 40 3B A5 81 
    841     57328.562 DT 0CEF1100 Rx 8  5B 86 0B BF 7B 5E 67 B5 
    842     57332.118 DT 18FF1CF3 Rx 8  00 00 00 00 00 00 00 00 
    843     57333.566 DT 18FFDC00 Rx 8  80 14 01 52 02 93 8C 53 
    844     57337.818 DT 19F10D13 Rx 8  C7 0B 01 4B 02 67 00 A9 
    845     57338.370 DT 04EF001C Rx 8  78 5F 8A F9 8F 38 74 FA 
    846     57338.950 DT 0CF00300 Rx 8  DF 00 10 FF 00 FF FF FF 
    847     57339.518 DT 0CF00400 Rx 8  FF 7D 81 98 12 00 FF FF 
    848     57340.082 DT 18FFDC00 Rx 8  81 E4 02 B1 00 A0 FF DB 
    849     57340.646 DT 19F21139 Rx 8  00 00 00 FF 4C 6B 0C 00 
    850     57343.522 DT 18FFDC00 Rx 8  82 FF FF B1 D6 22 00 FF 
    851     57344.114 DT 09F20000 Rx 8  00 4C 09 FF FF FF FF FF 
    852     57344.674 DT 0CEF0100 Rx 8  A0 20 02 4F 00 28 99 22 
    853     57348.222 DT 04EF001C Rx 8  38 42 20 E4 CC 85 DD 47 
    854     57355.773 DT 18FF1C17 Rx 8  00 00 00 00 00 00 00 00 
    855     57358.337 DT 04EF001C Rx 8  F9 44 D7 EA 0D A3 2A 69 
    856     57358.905 DT 0CF00400 Rx 8  FF 7D 81 98 12 00 FF FF 
    857     57363.533 DT 0CEF0100 Rx 8  A0 20 02 53 00 28 99 22 
    858     57368.460 DT 04EF001C Rx 8  B7 47 83 99 40 20 7D 9A 
    859     57369.037 DT 18FEF200 Rx 8  34 00 FF FF FF FF 10 FF 
    860     57378.525 DT 0CF00400 Rx 8  FF 7D 81 98 12 00 FF FF 
    861     57379.069 DT 04EF001C Rx 8  78 4A 22 EC 8F 2D DC EF 
    862     57379.609 DT 0CEF1100 Rx 8  98 82 1D 66 3D 28 E5 47 
    863     57383.541 DT 18FFDC00 Rx 8  A0 14 01 52 02 93 8C 53 
    864     57384.101 DT 0CEF0100 Rx 8  A0 20 02 53 00 28 99 22 
    865     57388.517 DT 18FFDC00 Rx 8  A1 E4 02 B1 00 A0 FF DB 
    866     57389.073 DT 04EF001C Rx 8  37 4D 57 93 C0 6A A9 D0 
    867     57389.657 DT 0CF00300 Rx 8  DF 00 0F FF 00 FF FF FF 
    868     57393.505 DT 18FFDC00 Rx 8  A2 FF FF B1 D6 22 00 FF 
    869     57398.525 DT 0CF00400 Rx 8  FF 7D 81 80 12 00 FF FF 
    870     57399.081 DT 04EF001C Rx 8  F9 4F 8F E1 0E 48 71 82 
    871     57399.784 DT 15FD069B Rx 8  3B 3D 74 FF FF FF FF FF 
    872     57403.528 DT 0CEF0100 Rx 8  A0 20 02 51 00 28 99 22 
    873     57408.536 DT 18FEF100 Rx 8  FF A8 04 F0 FF C7 1F FF 
    874     57409.084 DT 04EF001C Rx 8  B7 52 2B 8C 40 F5 D5 4F 
    875     57418.524 DT 0CF00400 Rx 8  FF 7D 81 80 12 00 FF FF 
    876     57419.068 DT 04EF001C Rx 8  77 55 D5 8B 80 D2 2B 68 
    877     57423.528 DT 0CEF0100 Rx 8  A0 20 02 50 00 28 99 22 
    878     57424.380 DT 18FF1080 Rx 8  00 00 00 FF FF FF FC 00 
    879     57425.360 DT 18FF1180 Rx 8  FD 02 F5 02 FF FF 00 FF 
    880     57426.373 DT 18FF1380 Rx 8  00 00 00 00 3F C0 C0 06 
    881     57428.537 DT 0CEF1100 Rx 8  E5 B2 81 C3 0E 81 B3 96 
    882     57429.164 DT 04EF001C Rx 8  38 58 F0 FE CE 3F 0F FD 
    883     57433.536 DT 18FFDC00 Rx 8  C0 14 01 4E 02 93 8C 53 
    884     57437.817 DT 19F10D13 Rx 8  C8 0C 01 4B 02 67 00 A8 
    885     57438.565 DT 18FFDC00 Rx 8  C1 E4 02 AF 00 A0 FF DB 
    886     57439.149 DT 0CF00300 Rx 8  DF 00 0F FF 00 FF FF FF 
    887     57439.693 DT 04EF001C Rx 8  63 5B B1 15 95 0C 4E 16 
    888     57440.269 DT 0CF00400 Rx 8  FF 7D 81 70 12 00 FF FF 
    889     57440.833 DT 19F21139 Rx 8  00 00 00 FF B0 6B 0C 00 
    890     57443.541 DT 18FFDC00 Rx 8  C2 FF FF B1 D6 22 00 FF 
    891     57444.129 DT 09F20000 Rx 8  00 34 09 FF FF FF FF FF 
    892     57444.689 DT 0CEF0100 Rx 8  A0 20 02 4F 00 28 99 22 
    893     57449.357 DT 04EF001C Rx 8  45 5E BE 20 B2 E9 40 C3 
    894     57458.521 DT 0CF00400 Rx 8  FF 7D 81 58 12 00 FF FF 
    895     57459.496 DT 04EF001C Rx 8  E1 40 EF 1E 16 F7 11 FD 
    896     57463.540 DT 0CEF0100 Rx 8  A0 20 02 4C 00 28 99 22 
    897     57468.536 DT 18FEF200 Rx 8  33 00 FF FF FF FF 10 FF 
    898     57469.592 DT 04EF001C Rx 8  A0 43 B4 15 56 14 4B 16 
    899     57472.124 DT 18FF1CF3 Rx 8  00 00 00 00 00 00 00 00 
    900     57478.528 DT 0CF00400 Rx 8  FF 7D 81 50 12 00 FF FF 
    901     57479.076 DT 0CEF1100 Rx 8  25 B1 6F C3 4D EB 11 8D 
    902     57479.743 DT 04EF001C Rx 8  F0 46 CE 90 06 51 31 D3 
    903     57483.523 DT 18FFDC00 Rx 8  E0 14 01 4B 02 93 8C 53 
    904     57484.087 DT 0CEF0100 Rx 8  A0 20 02 4A 00 28 99 22 
    905     57488.531 DT 18FFDC00 Rx 8  E1 E4 02 AE 00 A0 FF DB 
    906     57489.115 DT 0CF00300 Rx 8  DF 00 0F FF 00 FF FF FF 
    907     57489.871 DT 04EF001C Rx 8  49 49 0A 57 BF 7E F5 34 
    908     57492.119 DT 0CEF0017 Rx 8  81 04 00 00 00 00 FF FF 
    909     57493.507 DT 18FFDC00 Rx 8  E2 FF FF B1 D6 22 00 FF 
    910     57498.524 DT 0CF00400 Rx 8  FF 7D 81 60 12 00 FF FF 
    911     57499.096 DT 18E8FF00 Rx 8  02 FF FF FF FF 00 EF 00 
    912     57499.956 DT 04EF001C Rx 8  09 4C 60 52 FF BB 9F F1 
    913     57503.528 DT 0CEF0100 Rx 8  A0 20 02 4A 00 28 99 22 
    914     57508.524 DT 18FEF100 Rx 8  FF A8 04 F0 FF C7 1F FF 
    915     57510.028 DT 04EF001C Rx 8  5C 4E 27 F8 AA F9 D8 1B 
    916     57518.555 DT 0CF00400 Rx 8  FF 7D 81 60 12 00 FF FF 
    917     57520.143 DT 04EF001C Rx 8  1C 51 9D E7 EA E6 62 04 
    918     57523.555 DT 0CEF0100 Rx 8  A0 20 02 4B 00 28 99 22 
    919     57525.383 DT 18FF1080 Rx 8  00 00 00 FF FF FF FC 00 
    920     57526.364 DT 18FF1180 Rx 8  FD 02 F5 02 FF FF 00 FF 
    921     57528.540 DT 0CEF1100 Rx 8  8F DE F8 0B E3 CE D6 67 
    922     57530.227 DT 04EF001C Rx 8  14 54 BD A2 1D 04 BD A6 
    923     57532.123 DT 18FF1CF3 Rx 8  00 00 00 00 00 00 00 00 
    924     57533.535 DT 18FFDC00 Rx 8  00 14 01 4D 02 93 8C 53 
    925     57537.807 DT 19F10D13 Rx 8  C9 0B 01 4B 02 67 00 A9 
    926     57538.559 DT 18FFDC00 Rx 8  01 E4 02 AF 00 A0 FF DB 
    927     57539.143 DT 0CF00300 Rx 8  DF 00 0F FF 00 FF FF FF 
    928     57539.719 DT 0CF00400 Rx 8  FF 7D 81 70 12 00 FF FF 
    929     57540.283 DT 19F21139 Rx 8  00 00 00 FF 14 6C 0C 00 
    930     57540.827 DT 04EF001C Rx 8  D4 56 6B A0 DD 26 6B 84 
    931     57543.547 DT 18FFDC00 Rx 8  02 FF FF B1 D6 22 00 FF 
    932     57544.139 DT 09F20000 Rx 8  00 3C 09 FF FF FF FF FF 
    933     57544.699 DT 0CEF0100 Rx 8  A0 20 02 4C 00 28 99 22 
    934     57550.458 DT 04EF001C Rx 8  37 59 F7 B7 C1 CE 08 74 
    935     57558.527 DT 0CF00400 Rx 8  FF 7D 81 70 12 00 FF FF 
    936     57560.551 DT 04EF001C Rx 8  2C 5C C4 6A 25 2C C4 4E 
    937     57563.555 DT 18FEEF00 Rx 8  FF FF FF 3A FF FF FF FF 
    938     57564.114 DT 0CEF0100 Rx 8  A0 20 02 4E 00 28 99 22 
    939     57568.534 DT 18FEF200 Rx 8  33 00 FF FF FF FF 10 FF 
    940     57570.658 DT 04EF001C Rx 8  EC 5E 12 68 E5 AE 12 CC 
    941     57578.518 DT 0CF00400 Rx 8  FF 7D 81 80 12 00 FF FF 
    942     57579.054 DT 0CEF1100 Rx 8  A9 A7 78 A6 CC 4E 9E 85 
    943     57580.782 DT 04EF001C Rx 8  E5 41 E3 3F EC B1 E3 9B 
    944     57583.526 DT 18FFDC00 Rx 8  20 14 01 51 02 93 8A 53 
    945     57584.086 DT 0CEF0100 Rx 8  A0 20 02 4E 00 28 99 22 
    946     57588.537 DT 18FFDC00 Rx 8  21 E4 02 B0 00 A0 FF DB 
    947     57589.122 DT 0CF00300 Rx 8  DF 00 0F FF 00 FF FF FF 
    948     57590.893 DT 04EF001C Rx 8  A4 44 88 32 AD F4 88 D6 
    949     57593.509 DT 18FFDC00 Rx 8  22 FF FF B1 D6 22 00 FF 
    950     57594.089 DT 0CEF1700 Rx 8  01 84 00 00 00 00 FF FF 
    951     57598.517 DT 0CF00400 Rx 8  FF 7D 81 88 12 00 FF FF 
    952     57601.001 DT 04EF001C Rx 8  2C 47 1C 71 24 57 1D 35 
    953     57603.521 DT 0CEF0100 Rx 8  A0 20 02 50 00 28 99 22 
    954     57604.097 DT 18FEF600 Rx 8  FF FF 53 11 FF FF FF FF 
    955     57608.525 DT 18FEF100 Rx 8  FF A8 04 F0 FF C7 1F FF 
    956     57611.108 DT 04EF001C Rx 8  EB 49 AD 47 E3 79 AC 23 
    957     57618.541 DT 0CF00400 Rx 8  FF 7D 80 60 12 00 FF FF 
    958     57621.225 DT 04EF001C Rx 8  78 4C 12 DA 70 5C 13 9E 
    959     57623.545 DT 0CEF0100 Rx 8  A0 20 02 4F 00 28 99 22 
    960     57625.373 DT 18FF1080 Rx 8  00 00 00 FF FF FF FC 00 
    961     57626.354 DT 18FF1180 Rx 8  FD 02 F5 02 FF FF 00 FF 
    962     57627.366 DT 18FF1380 Rx 8  00 00 00 00 3F C0 C0 06 
    963     57628.530 DT 0CEF1100 Rx 8  05 CE 5E DF 6E 67 B8 8E 
    964     57631.338 DT 04EF001C Rx 8  38 4F 48 D9 30 BF 49 7D 
    965     57632.126 DT 18FF1CF3 Rx 8  00 00 00 00 00 00 00 00 
    966     57633.502 DT 18FFDC00 Rx 8  40 14 01 45 02 93 8C 53 
    967     57637.822 DT 19F10D13 Rx 8  CA 0B 01 4B 02 67 00 A9 
    968     57638.526 DT 18FFDC00 Rx 8  41 E4 02 AB 00 A0 FF DB 
    969     57639.110 DT 0CF00300 Rx 8  DF 00 0F FF 00 FF FF FF 
    970     57639.682 DT 0CF00400 Rx 8  FF 7D 80 10 12 00 FF FF 
    971     57640.250 DT 19F21139 Rx 8  00 00 00 FF 78 6C 0C 00 
    972     57641.450 DT 04EF001C Rx 8  D2 52 4D 94 DA A2 4C 30 
    973     57642.494 DT 09F8021C Rx 8  72 FC B0 8B 7D 00 FF FF 
    974     57643.481 DT 09F8011C Rx 8  CC A9 26 18 C6 65 53 C1 
    975     57644.073 DT 09F20000 Rx 8  00 FC 08 FF FF FF FF FF 
    976     57644.637 DT 0CEF0100 Rx 8  A0 20 02 48 00 28 99 22 
    977     57645.205 DT 18FFDC00 Rx 8  42 FF FF B1 D6 22 00 FF 
    978     57645.765 DT 19FA031C Rx 8  72 D2 8F 00 D2 00 A2 00 
    979     57646.557 DT 0DF0101C Rx 8  72 F0 3C 4F 40 41 81 2F 
    980     57647.537 DT 18FEE81C Rx 8  74 66 88 04 2F 64 64 81 
    981     57648.652 DT 19FA041C Rx 8  40 AB 72 FF 0E 01 4E 0C 
    982     57649.628 DT 19FA041C Rx 8  41 04 D8 68 10 FF FF FF 
    983     57650.628 DT 19FA041C Rx 8  42 FF FF 02 65 1D B6 CB 
    984     57651.592 DT 04EF001C Rx 8  FF 55 59 FB F7 05 58 FF 
    985     57652.667 DT 19FA041C Rx 8  43 CC 10 FF FF FF FF FF 
    986     57653.667 DT 19FA041C Rx 8  44 08 D6 06 A2 AD D8 0E 
    987     57654.695 DT 19FA041C Rx 8  45 FF FF FF FF FF 0A 04 
    988     57655.687 DT 19FA041C Rx 8  46 29 0E 38 F8 11 FF FF 
    989     57656.694 DT 19FA041C Rx 8  47 FF FF FF 0C 6B 03 DA 
    990     57657.722 DT 19FA041C Rx 8  48 2F 00 00 FF FF FF FF 
    991     57658.546 DT 0CF00400 Rx 8  FF 7D 80 D8 11 00 FF FF 
    992     57659.102 DT 19FA041C Rx 8  49 FF 17 FD 0C 76 48 00 
    993     57659.782 DT 19FA041C Rx 8  4A 00 FF FF FF FF FF 18 
    994     57660.757 DT 19FA041C Rx 8  4B 6B 03 FA 19 20 03 FF 
    995     57661.697 DT 04EF001C Rx 8  C3 58 0C 16 CA E8 0C F2 
    996     57662.777 DT 19FA041C Rx 8  4C FF FF FF FF 19 78 05 
    997     57663.553 DT 0CEF0100 Rx 8  A0 20 02 3F 00 28 99 22 
    998     57664.125 DT 19FA041C Rx 8  4D BA 45 00 00 FF FF FF 
    999     57664.805 DT 19FA041C Rx 8  4E FF FF 1B BC 02 20 99 
   1000     57665.824 DT 19FA041C Rx 8  4F 00 00 FF FF FF FF FF 
   1001     57666.416 DT 18FF1C17 Rx 8  00 00 00 00 00 00 00 00 
   1002     57666.972 DT 19FA041C Rx 8  50 1C 72 1F 36 74 74 0E 
   1003     57667.828 DT 19FA041C Rx 8  51 FF FF FF FF FF 1F AC 
   1004     57668.540 DT 18FEF200 Rx 8  31 00 FF FF FF FF 14 FF 
   1005     57669.108 DT 19FA041C Rx 8  52 0D 84 80 D8 0E FF FF 
   1006     57669.860 DT 19FA041C Rx 8  53 FF FF FF 20 45 33 1A 
   1007     57670.856 DT 19FA041C Rx 8  54 04 94 11 FF FF FF FF 
   1008     57671.791 DT 04EF001C Rx 8  4F 5B 9C 75 47 2B 9D 51 
   1009     57672.887 DT 19FA041C Rx 8  55 FF 2C B6 1C FC 85 A0 
   1010     57673.895 DT 19FA041C Rx 8  56 0F FF FF FF FF FF 30 
   1011     57674.883 DT 19FA041C Rx 8  57 A9 1A 30 8E 68 10 FF 
   1012     57675.910 DT 19FA041C Rx 8  58 FF FF FF FF FF FF FF 
   1013     57678.518 DT 0CF00400 Rx 8  FF 7D 81 E0 11 00 FF FF 
   1014     57679.062 DT 0CEF1100 Rx 8  DD D5 76 19 17 26 45 42 
   1015     57681.919 DT 04EF001C Rx 8  62 5D 80 1B 6A 6D 81 7F 
   1016     57683.519 DT 18FFDC00 Rx 8  60 14 01 3D 02 93 8C 53 
   1017     57684.079 DT 0CEF0100 Rx 8  A0 20 02 3B 00 28 99 22 
   1018     57688.507 DT 18FFDC00 Rx 8  61 E4 02 AA 00 A0 FF DB 
   1019     57689.091 DT 0CF00300 Rx 8  DF 00 0F FF 00 FF FF FF 
   1020     57692.019 DT 04EF001C Rx 8  46 40 4D 26 4E B0 4C 82 
   1021     57693.543 DT 18FFDC00 Rx 8  62 FF FF B1 D6 22 00 FF 
   1022     57698.542 DT 0CF00400 Rx 8  FF 7D 81 00 12 00 FF FF 
   1023     57702.126 DT 04EF001C Rx 8  E3 42 FD 0C EB D2 FC C8 
   1024     57703.550 DT 0CEF0100 Rx 8  A0 20 02 3D 00 29 99 22 
   1025     57708.542 DT 18FEF100 Rx 8  FF A8 04 F0 FF C7 1F FF 
   1026     57712.222 DT 04EF001C Rx 8  39 45 19 DB 32 75 1B BF 
   1027     57718.530 DT 0CF00400 Rx 8  FF 7D 81 20 12 00 FF FF 
   1028     57722.349 DT 04EF001C Rx 8  F9 47 CF D9 F2 37 CD FD 
   1029     57723.525 DT 0CEF0100 Rx 8  A0 20 02 41 00 29 99 22 
   1030     57726.382 DT 18FF1080 Rx 8  00 00 00 FF FF FF FC 00 
   1031     57727.342 DT 18FF1180 Rx 8  FD 02 F5 02 FF FF 00 FF 
   1032     57728.570 DT 0CEF1100 Rx 8  BF FA D5 83 1A B1 25 A5 
   1033     57732.126 DT 18FF1CF3 Rx 8  00 00 00 00 00 00 00 00 
   1034     57732.670 DT 04EF001C Rx 8  B9 4A E5 D4 B2 7A E7 B0 
   1035     57733.510 DT 18FFDC00 Rx 8  80 14 01 4A 02 93 8B 53 
   1036     57737.814 DT 19F10D13 Rx 8  CB 0B 01 4B 02 67 00 A9 
   1037     57738.506 DT 18FFDC00 Rx 8  81 E4 02 B1 00 A0 FF DB 
   1038     57739.086 DT 0CF00300 Rx 8  DF 00 10 FF 00 FF FF FF 
   1039     57739.654 DT 0CF00400 Rx 8  FF 7D 81 68 12 00 FF FF 
   1040     57740.222 DT 19F21139 Rx 8  00 00 00 FF DC 6C 0C 00 
   1041     57742.555 DT 04EF001C Rx 8  78 4D 1A DB 73 DD 18 1F 
   1042     57743.531 DT 18FFDC00 Rx 8  82 FF FF B1 D6 22 00 FF 
   1043     57744.123 DT 09F20000 Rx 8  00 3C 09 FF FF FF FF FF 
   1044     57744.687 DT 0CEF0100 Rx 8  A0 20 02 47 00 29 99 22 
   1045     57752.671 DT 04EF001C Rx 8  39 50 B1 CE 32 80 B3 4A 
   1046     57758.518 DT 0CF00400 Rx 8  FF 7D 81 C0 12 00 FF FF 
   1047     57759.102 DT 18FECA00 Rx 8  00 FF 00 00 00 00 FF FF 
   1048     57762.782 DT 04EF001C Rx 8  F9 52 67 CC F2 A2 65 68 
   1049     57763.518 DT 0CEF0100 Rx 8  A0 20 02 50 00 29 99 22 
   1050     57768.538 DT 18FEF200 Rx 8  36 00 FF FF FF FF 0D FF 
   1051     57772.886 DT 04EF001C Rx 8  B8 55 1C C3 B3 A5 1E 67 
   1052     57778.513 DT 0CF00400 Rx 8  FF 7D 81 F8 12 00 FF FF 
   1053     57779.057 DT 0CEF1100 Rx 8  79 FB AA 33 5C D6 6E 16 
   1054     57783.001 DT 04EF001C Rx 8  78 58 B2 FE 73 D8 B0 1A 
   1055     57783.553 DT 18FFDC00 Rx 8  A0 14 01 5E 02 93 8D 53 
   1056     57784.113 DT 0CEF0100 Rx 8  A0 20 02 5A 00 28 99 22 
   1057     57788.509 DT 18FFDC00 Rx 8  A1 E4 02 B8 00 A0 FF DB 
   1058     57789.089 DT 0CF00300 Rx 8  DF 00 10 FF 00 FF FF FF 
   1059     57793.120 DT 04EF001C Rx 8  38 5B E8 FD 32 1B EB D9 
   1060     57793.681 DT 18FFDC00 Rx 8  A2 FF FF B1 D6 22 00 FF 
   1061     57798.508 DT 0CF00400 Rx 8  FF 7D 81 E0 12 00 FF FF 
   1062     57803.237 DT 04EF001C Rx 8  F8 5D 1E FB F2 5D 1D 9F 
   1063     57803.797 DT 0CEF0100 Rx 8  A0 20 02 5D 00 28 99 22 
   1064     57808.509 DT 18FEF100 Rx 8  FF A8 04 F0 FF C7 1F FF 
   1065     57813.336 DT 04EF001C Rx 8  B8 40 B4 E6 B2 40 B7 82 
   1066     57818.524 DT 0CF00400 Rx 8  FF 7D 80 E0 12 00 FF FF 
   1067     57823.439 DT 04EF001C Rx 8  79 43 6B ED 73 63 68 A9 
   1068     57824.000 DT 0CEF0100 Rx 8  A0 20 02 5C 00 28 99 22 
   1069     57826.364 DT 18FF1080 Rx 8  00 00 00 FF FF FF FC 00 
   1070     57827.344 DT 18FF1180 Rx 8  FD 02 F5 02 FF FF 00 FF 
   1071     57828.356 DT 18FF1380 Rx 8  00 00 00 00 3F C0 C0 06 
   1072     57828.904 DT 0CEF1100 Rx 8  50 EF 01 3E 3B CB 8F 6B 
   1073     57832.128 DT 18FF1CF3 Rx 8  00 00 00 00 00 00 00 00 
   1074     57833.496 DT 18FFDC00 Rx 8  C0 14 01 5A 02 93 8B 53 
   1075     57834.052 DT 04EF001C Rx 8  38 46 00 E0 32 46 03 84 
   1076     57837.816 DT 19F10D13 Rx 8  CC 0B 01 4B 02 67 00 A9 
   1077     57838.512 DT 18FFDC00 Rx 8  C1 E4 02 B4 00 A0 FF DB 
   1078     57839.096 DT 0CF00300 Rx 8  DF 00 0F FF 00 FF FF FF 
   1079     57839.664 DT 0CF00400 Rx 8  FF 7D 80 C8 12 00 FF FF 
   1080     57840.228 DT 19F21139 Rx 8  00 00 00 FF 40 6D 0C 00 
   1081     57843.516 DT 18FFDC00 Rx 8  C2 FF FF B1 D6 22 00 FF 
   1082     57844.068 DT 04EF001C Rx 8  62 49 20 3F 68 A9 23 BB 
   1083     57844.660 DT 09F20000 Rx 8  00 5C 09 FF FF FF FF FF 
   1084     57845.220 DT 0CEF0100 Rx 8  A0 20 02 5A 00 28 99 22 
   1085     57853.799 DT 04EF001C Rx 8  47 4C 2C 12 4D 8C 2F B6 
   1086     57858.499 DT 0CF00400 Rx 8  FF 7D 80 B8 12 00 FF FF 
   1087     57863.508 DT 0CEF0100 Rx 8  A0 20 02 57 00 28 99 22 
   1088     57864.056 DT 04EF001C Rx 8  E2 4E 9C 38 E8 2E 9F 3C 
   1089     57868.540 DT 18FEF200 Rx 8  34 00 FF FF FF FF 0F FF 
   1090     57874.011 DT 04EF001C Rx 8  A1 51 25 3F AB 31 26 3B 
   1091     57875.603 DT 18FF1C17 Rx 8  00 00 00 00 00 00 00 00 
   1092     57878.531 DT 0CF00400 Rx 8  FF 7D 80 D0 12 00 FF FF 
   1093     57879.083 DT 0CEF1100 Rx 8  10 EC CB 3E E7 80 01 89 
   1094     57883.531 DT 18FFDC00 Rx 8  E0 14 01 5B 02 93 8D 53 
   1095     57884.099 DT 0CEF0100 Rx 8  A0 20 02 58 00 28 99 22 
   1096     57884.647 DT 04EF001C Rx 8  86 54 2B 02 8C 54 28 66 
   1097     57888.527 DT 18FFDC00 Rx 8  E1 E5 02 B3 00 A0 FF DB 
   1098     57889.111 DT 0CF00300 Rx 8  DF 00 0F FF 00 FF FF FF 
   1099     57893.534 DT 18FFDC00 Rx 8  E2 FF FF B1 D6 22 00 FF 
   1100     57894.290 DT 04EF001C Rx 8  23 57 93 29 29 B7 90 AD 
   1101     57897.746 DT 15FD069B Rx 8  3C 3D 74 FF FF FF FF FF 
   1102     57898.530 DT 0CF00400 Rx 8  FF 7D 80 E8 12 00 FF FF 
   1103     57903.546 DT 0CEF0100 Rx 8  A0 20 02 5B 00 28 99 22 
   1104     57904.358 DT 04EF001C Rx 8  BE 59 7A CF B4 D9 79 2B 
   1105     57908.533 DT 18FEF100 Rx 8  FF A9 04 F0 FF C7 1F FF 
   1106     57914.445 DT 04EF001C Rx 8  38 5C D0 FA 35 1C D4 DE 
   1107     57918.541 DT 0CF00400 Rx 8  FF 7D 80 F0 12 00 FF FF 
   1108     57923.534 DT 0CEF0100 Rx 8  A0 20 02 5C 00 28 99 22 
   1109     57924.586 DT 04EF001C Rx 8  FA 5E 04 E8 F7 7E 00 AC 
   1110     57926.362 DT 18FF1080 Rx 8  00 00 00 FF FF FF FC 00 
   1111     57927.342 DT 18FF1180 Rx 8  FD 02 F5 02 FF FF 00 FF 
   1112     57928.530 DT 0CEF1100 Rx 8  A4 9D 2B 81 75 99 A0 05 
   1113     57932.134 DT 18FF1CF3 Rx 8  00 00 00 00 00 00 00 00 
   1114     57933.502 DT 18FFDC00 Rx 8  00 14 01 63 02 93 8B 53 
   1115     57934.686 DT 04EF001C Rx 8  21 42 39 2C 2C 42 3D 48 
   1116     57937.818 DT 19F10D13 Rx 8  CD 0B 01 4B 02 67 00 A9 
   1117     57938.506 DT 18FFDC00 Rx 8  01 E5 02 B5 00 A0 FF DB 
   1118     57939.090 DT 0CF00300 Rx 8  DF 00 0F FF 00 FF FF FF 
   1119     57939.662 DT 0CF00400 Rx 8  FF 7D 80 28 13 00 FF FF 
   1120     57940.226 DT 19F21139 Rx 8  00 00 00 FF A4 6D 0C 00 
   1121     57943.522 DT 18FFDC00 Rx 8  02 FF FF B1 D6 22 00 FF 
   1122     57944.110 DT 09F20000 Rx 8  00 9C 09 FF FF FF FF FF 
   1123     57944.674 DT 0CEF0100 Rx 8  A0 20 02 5F 00 28 99 22 
   1124     57945.222 DT 04EF001C Rx 8  9D 44 B0 CA 90 64 B4 8E 
   1125     57954.885 DT 04EF001C Rx 8  38 47 08 E1 35 27 0C E5 
   1126     57958.508 DT 0CF00400 Rx 8  FF 7D 80 60 13 00 FF FF 
   1127     57963.532 DT 0CEF0100 Rx 8  A0 20 02 67 00 28 99 22 
   1128     57965.036 DT 04EF001C Rx 8  1D 4A 44 C4 10 2A 40 C0 
   1129     57968.552 DT 18FEF200 Rx 8  36 00 FF FF FF FF 10 FF 
   1130     57972.128 DT 0CEF0017 Rx 8  81 04 00 00 00 00 FF FF 
   1131     57975.108 DT 04EF001C Rx 8  B8 4C D4 EA B5 AC D0 6E 
   1132     57978.499 DT 0CF00400 Rx 8  FF 7D 80 88 13 00 FF FF 
   1133     57979.048 DT 0CEF1100 Rx 8  E1 97 E8 EB 0C C1 F2 8D 
   1134     57979.620 DT 18E8FF00 Rx 8  02 FF FF FF FF 00 EF 00 
   1135     57983.504 DT 18FFDC00 Rx 8  20 14 01 71 02 93 8B 53 
   1136     57984.068 DT 0CEF0100 Rx 8  A0 20 02 6D 00 28 99 22 
   1137     57985.253 DT 04EF001C Rx 8  DB 4F AC F1 D6 2F A8 F5 
   1138     57988.512 DT 18FFDC00 Rx 8  21 E5 02 BA 00 A0 FF DB 
   1139     57989.096 DT 0CF00300 Rx 8  DF 00 0F FF 00 FF FF FF 
   1140     57993.488 DT 18FFDC00 Rx 8  22 FF FF B1 D6 22 00 FF 
   1141     57995.332 DT 04EF001C Rx 8  6C 52 F6 54 61 32 F2 50 
   1142     57998.500 DT 0CF00400 Rx 8  FF 7D 80 88 13 00 FF FF 
   1143     58003.528 DT 0CEF0100 Rx 8  A0 20 02 70 00 28 99 22 
   1144     58005.448 DT 04EF001C Rx 8  2D 55 8D 5B 20 15 89 7F 
   1145     58008.508 DT 18FEF100 Rx 8  FF AA 04 F0 FF C7 1F FF 
   1146     58012.131 DT 0CEA1C00 Rx 8  00 EE 00 00 00 00 00 00 
   1147     58013.587 DT 18EEFF1C Rx 8  02 04 45 0E 00 00 00 42 
   1148     58015.559 DT 04EF001C Rx 8  B8 57 0C F1 B5 17 08 D5 
   1149     58018.523 DT 0CF00400 Rx 8  FF 7D 80 68 13 00 FF FF 
   1150     58023.507 DT 0CEF0100 Rx 8  A0 20 02 6F 00 27 99 22 
   1151     58025.663 DT 04EF001C Rx 8  AF 5A 73 44 A2 5A 77 20 
   1152     58027.355 DT 18FF1080 Rx 8  00 00 00 FF FF FF FC 00 
   1153     58028.336 DT 18FF1180 Rx 8  FD 02 F5 02 FF FF 00 FF 
   1154     58028.884 DT 0CEF1100 Rx 8  39 8A 70 2C 46 00 8E DC 
   1155     58029.468 DT 18FF1380 Rx 8  00 00 00 00 3F C0 C0 06 
   1156     58032.136 DT 18FF1CF3 Rx 8  00 00 00 00 00 00 00 00 
   1157     58033.545 DT 18FFDC00 Rx 8  40 14 01 69 02 93 8C 54 
   1158     58035.857 DT 04EF001C Rx 8  FD 5D 1B C3 F0 2D 1F C7 
   1159     58037.885 DT 19F10D13 Rx 8  CE 0B 01 4B 02 67 00 A9 
   1160     58038.569 DT 18FFDC00 Rx 8  41 E5 02 B6 00 A0 FF DB 
   1161     58039.153 DT 0CF00300 Rx 8  DF 00 0F FF 00 FF FF FF 
   1162     58039.721 DT 0CF00400 Rx 8  FF 7D 80 40 13 00 FF FF 
   1163     58040.289 DT 19F21139 Rx 8  00 00 00 FF 08 6E 0C 00 
   1164     58043.553 DT 18FFDC00 Rx 8  42 FF FF B1 D6 22 00 FF 
   1165     58044.141 DT 09F20000 Rx 8  00 98 09 FF FF FF FF FF 
   1166     58044.701 DT 0CEF0100 Rx 8  A0 20 02 6B 00 27 99 22 
   1167     58045.977 DT 04EF001C Rx 8  E7 40 E9 0E ED 90 EA AA 
   1168     58048.577 DT 09F20100 Rx 8  00 16 00 36 09 FF FF 61 
   1169     58053.533 DT 09F20100 Rx 8  01 86 7B 05 1A 00 B1 D6 
   1170     58054.105 DT 18FEE500 Rx 8  8C 31 00 00 FF FF FF FF 
   1171     58056.057 DT 04EF001C Rx 8  5A 43 49 E5 50 93 4A 41 
   1172     58058.553 DT 0CF00400 Rx 8  FF 7D 80 18 13 00 FF FF 
   1173     58059.133 DT 09F20100 Rx 8  02 22 00 FF FF FF FF 00 
   1174     58059.713 DT 18FEEE00 Rx 8  6F FF FF FF FF FF 4D FF 
   1175     58063.589 DT 09F20100 Rx 8  03 00 00 FF FF FF FF FF 
   1176     58064.149 DT 0CEF0100 Rx 8  A0 20 02 65 00 27 99 22 
   1177     58064.729 DT 18FEEF00 Rx 8  FF FF FF 3B FF FF FF FF 
   1178     58066.209 DT 04EF001C Rx 8  66 46 5C 00 6C B6 5F 84 
   1179     58068.569 DT 18FEF200 Rx 8  35 00 FF FF FF FF 10 FF 
   1180     58073.576 DT 18FEF700 Rx 8  FF FF 1A 01 19 01 1B 01 
   1181     58076.288 DT 04EF001C Rx 8  C7 48 88 06 CD 98 8B A2 
   1182     58078.580 DT 0CF00400 Rx 8  FF 7D 80 28 13 00 FF FF 
   1183     58079.124 DT 0CEF1100 Rx 8  75 85 D9 4F 3C 52 CE 0D 
   1184     58083.576 DT 18FFDC00 Rx 8  60 14 01 67 02 93 8B 54 
   1185     58084.140 DT 0CEF0100 Rx 8  A0 20 02 63 00 27 99 22 
   1186     58086.388 DT 04EF001C Rx 8  9A 4B CF ED 90 BB CC 69 
   1187     58088.592 DT 18FFDC00 Rx 8  61 E5 02 B5 00 A0 FF DB 
   1188     58089.175 DT 0CF00300 Rx 8  DF 00 0F FF 00 FF FF FF 
   1189     58093.564 DT 18FFDC00 Rx 8  62 FF FF B1 D6 22 00 FF 
   1190     58094.144 DT 0CEF1700 Rx 8  01 84 00 00 00 00 FF FF 
   1191     58096.540 DT 04EF001C Rx 8  7D 4E 07 D0 77 FE 04 14 
   1192     58098.548 DT 0CF00400 Rx 8  FF 7D 80 50 13 00 FF FF 
   1193     58099.144 DT 18FEFC00 Rx 8  FF DB FF FF FF FF FF FF 
   1194     58103.560 DT 0CEF0100 Rx 8  A0 20 02 67 00 27 99 22 
   1195     58104.132 DT 18FEF600 Rx 8  FF FF 53 10 FF FF FF FF 
   1196     58106.615 DT 04EF001C Rx 8  AD 50 21 4E A0 20 25 4A 
   1197     58108.559 DT 18FEF100 Rx 8  FF AB 04 F0 FF C7 1F FF 
   1198     58116.723 DT 04EF001C Rx 8  38 53 A8 E5 32 C3 AB 01 
   1199     58118.551 DT 0CF00400 Rx 8  FF 7D 80 30 13 00 FF FF 
   1200     58123.563 DT 0CEF0100 Rx 8  A0 20 02 68 00 27 99 22 
   1201     58126.838 DT 04EF001C Rx 8  F8 55 5E E3 F2 85 5D 47 
   1202     58127.439 DT 18FF1080 Rx 8  00 00 00 FF FF FF FC 00 
   1203     58128.395 DT 18FF1180 Rx 8  FD 02 F5 02 FF FF 00 FF 
   1204     58128.943 DT 0CEF1100 Rx 8  94 B9 06 09 32 E7 5E 37 
   1205     58133.571 DT 18FFDC00 Rx 8  80 14 01 67 02 93 8C 54 
   1206     58136.934 DT 04EF001C Rx 8  B8 58 74 EE B2 88 77 4A 
   1207     58137.866 DT 19F10D13 Rx 8  CF 0B 01 4B 02 67 00 A9 
   1208     58138.586 DT 18FFDC00 Rx 8  81 E6 02 B4 00 A0 FF DB 
   1209     58139.170 DT 0CF00300 Rx 8  DF 00 0F FF 00 FF FF FF 
   1210     58139.738 DT 0CF00400 Rx 8  FF 7D 80 40 13 00 FF FF 
   1211     58140.303 DT 19F21139 Rx 8  00 00 00 FF 6C 6E 0C 00 
   1212     58143.578 DT 18FFDC00 Rx 8  82 FF FF B2 D6 22 00 FF 
   1213     58144.166 DT 09F20000 Rx 8  00 A4 09 FF FF FF FF FF 
   1214     58144.727 DT 0CEF0100 Rx 8  A0 20 02 67 00 27 99 22 
   1215     58146.095 DT 09F8021C Rx 8  73 FC 64 8D 7C 00 FF FF 
   1216     58147.062 DT 04EF001C Rx 8  FC 5B 2A CD F6 4B 29 A9 
   1217     58148.070 DT 09F8011C Rx 8  8E A9 26 18 A0 65 53 C1 
   1218     58149.090 DT 19FA031C Rx 8  73 D2 8F 00 D2 00 A2 00 
   1219     58150.110 DT 0DF0101C Rx 8  73 F0 3C 4F 50 68 81 2F 
   1220     58151.109 DT 18FEE81C Rx 8  B4 67 78 04 2F 64 64 81 
   1221     58152.209 DT 19FA041C Rx 8  60 AB 73 FF 0E 01 4E 0C 
   1222     58153.194 DT 19FA041C Rx 8  61 04 D8 68 10 FF FF FF 
   1223     58154.198 DT 19FA041C Rx 8  62 FF FF 02 65 1D B6 CB 
   1224     58155.225 DT 19FA041C Rx 8  63 CC 10 FF FF FF FF FF 
   1225     58156.221 DT 19FA041C Rx 8  64 08 D6 06 A2 AD 74 0E 
   1226     58157.181 DT 04EF001C Rx 8  F3 5E 0D B0 F9 2E 0E B4 
   1227     58158.261 DT 19FA041C Rx 8  65 FF FF FF FF FF 0A 04 
   1228     58158.829 DT 0CF00400 Rx 8  FF 7D 80 68 13 00 FF FF 
   1229     58159.389 DT 19FA041C Rx 8  66 29 0E 38 5C 12 FF FF 
   1230     58160.296 DT 19FA041C Rx 8  67 FF FF FF 0C 6B 03 DA 
   1231     58161.300 DT 19FA041C Rx 8  68 2F 00 00 FF FF FF FF 
   1232     58162.292 DT 19FA041C Rx 8  69 FF 17 FD 0C 76 48 00 
   1233     58163.319 DT 19FA041C Rx 8  6A 00 FF FF FF FF FF 18 
   1234     58163.879 DT 0CEF0100 Rx 8  A0 20 02 69 00 27 99 22 
   1235     58164.443 DT 19FA041C Rx 8  6B 6B 03 FA 19 20 03 FF 
   1236     58165.347 DT 19FA041C Rx 8  6C FF FF FF FF 19 78 05 
   1237     58166.347 DT 19FA041C Rx 8  6D BA 45 00 00 FF FF FF 
   1238     58167.291 DT 04EF001C Rx 8  A9 41 AD 7F A2 D1 AF 9B 
   1239     58168.362 DT 19FA041C Rx 8  6E FF FF 1B BC 02 20 99 
   1240     58168.934 DT 18FEF200 Rx 8  36 00 FF FF FF FF 10 FF 
   1241     58169.518 DT 19FA041C Rx 8  6F 00 00 FF FF FF FF FF 
   1242     58170.394 DT 19FA041C Rx 8  70 1C 72 1F 36 74 3C 0F 
   1243     58171.402 DT 19FA041C Rx 8  71 FF FF FF FF FF 1F AC 
   1244     58172.194 DT 18FF1CF3 Rx 8  00 00 00 00 00 00 00 00 
   1245     58172.762 DT 19FA041C Rx 8  72 0D 84 80 74 0E FF FF 
   1246     58173.414 DT 19FA041C Rx 8  73 FF FF FF 20 45 33 1A 
   1247     58174.434 DT 19FA041C Rx 8  74 04 F8 11 FF FF FF FF 
   1248     58175.429 DT 19FA041C Rx 8  75 FF 2C B6 1C FC 85 10 
   1249     58176.453 DT 19FA041C Rx 8  76 0E FF FF FF FF FF 30 
   1250     58177.393 DT 04EF001C Rx 8  5C 44 77 D2 56 34 74 D6 
   1251     58177.985 DT 18FF1C17 Rx 8  00 00 00 00 00 00 00 00 
   1252     58178.537 DT 19FA041C Rx 8  77 A9 1A 30 8E 3C 0F FF 
   1253     58179.089 DT 0CEF1100 Rx 8  D5 BF A4 40 E5 AF 88 CC 
   1254     58179.665 DT 0CF00400 Rx 8  FF 7D 80 80 13 00 FF FF 
   1255     58180.249 DT 19FA041C Rx 8  78 FF FF FF FF FF FF FF 
   1256     58183.593 DT 18FFDC00 Rx 8  A0 14 01 70 02 93 8C 54 
   1257     58184.157 DT 0CEF0100 Rx 8  A0 20 02 6E 00 27 99 22 
   1258     58187.509 DT 04EF001C Rx 8  79 46 43 F8 72 D6 41 1C 
   1259     58188.573 DT 18FFDC00 Rx 8  A1 E7 02 B6 00 A0 FF DB 
   1260     58189.157 DT 0CF00300 Rx 8  DF 00 0F FF 00 FF FF FF 
   1261     58193.561 DT 18FFDC00 Rx 8  A2 FF FF B2 D6 22 00 FF 
   1262     58197.620 DT 04EF001C Rx 8  38 49 78 FF 32 39 7B FB 
   1263     58198.548 DT 0CF00400 Rx 8  FF 7D 80 70 13 00 FF FF 
   1264     58203.556 DT 0CEF0100 Rx 8  A0 20 02 6F 00 27 99 22 
   1265     58207.724 DT 04EF001C Rx 8  F9 4B AF F5 F2 DB AD 11 
   1266     58208.580 DT 18FEF100 Rx 8  FF AC 04 F0 FF C7 1F FF 
   1267     58217.832 DT 04EF001C Rx 8  B8 4E C4 F8 B3 FE C6 3C 
   1268     58218.548 DT 0CF00400 Rx 8  FF 7D 80 28 13 00 FF FF 
   1269     58223.551 DT 0CEF0100 Rx 8  A0 20 02 6A 00 27 99 22 
   1270     58227.955 DT 04EF001C Rx 8  7A 51 F8 F7 70 01 FB D3 
   1271     58228.556 DT 18FF1080 Rx 8  00 00 00 FF FF FF FC 00 
   1272     58229.099 DT 0CEF1100 Rx 8  09 AE 5D A4 B5 64 A5 4E 
   1273     58229.676 DT 18FF1180 Rx 8  FD 02 F5 02 FF FF 00 FF 
   1274     58230.400 DT 18FF1380 Rx 8  00 00 00 00 3F C0 C0 06 
   1275     58232.196 DT 18FF1CF3 Rx 8  00 00 00 00 00 00 00 00 
   1276     58233.556 DT 18FFDC00 Rx 8  C0 14 01 5F 02 93 8B 54 
   1277     58237.880 DT 19F10D13 Rx 8  D0 0B 01 4B 02 67 00 A9 
   1278     58238.436 DT 04EF001C Rx 8  A3 54 0F 3A A9 24 0C 3E 
   1279     58239.020 DT 0CF00300 Rx 8  DF 00 0F FF 00 FF FF FF 
   1280     58239.588 DT 0CF00400 Rx 8  FF 7D 80 E8 12 00 FF FF 
   1281     58240.160 DT 18FFDC00 Rx 8  C1 E7 02 B0 00 A0 FF DB 
   1282     58240.732 DT 19F21139 Rx 8  00 00 00 FF D0 6E 0C 00 
   1283     58243.540 DT 18FFDC00 Rx 8  C2 FF FF B2 D6 22 00 FF 
   1284     58244.128 DT 09F20000 Rx 8  00 70 09 FF FF FF FF FF 
   1285     58244.692 DT 0CEF0100 Rx 8  A0 20 02 62 00 27 99 22 
   1286     58248.188 DT 04EF001C Rx 8  88 57 3D 61 83 C7 3F 85 
   1287     58258.295 DT 04EF001C Rx 8  38 5A E0 EC 33 8A E2 48 
   1288     58258.867 DT 0CF00400 Rx 8  FF 7D 80 E0 12 00 FF FF 
   1289     58263.551 DT 0CEF0100 Rx 8  A0 20 02 5C 00 27 99 22 
   1290     58268.406 DT 04EF001C Rx 8  E3 5C 0D 32 E8 8C 0F 96 
   1291     58268.990 DT 18FEF200 Rx 8  34 00 FF FF FF FF 14 FF 
   1292     58278.510 DT 04EF001C Rx 8  C6 5F 31 19 CD EF 33 DD 
   1293     58279.054 DT 0CEF1100 Rx 8  47 A3 64 57 C1 29 9D 6F 
   1294     58279.627 DT 0CF00400 Rx 8  FF 7D 80 F8 12 00 FF FF 
   1295     58283.594 DT 18FFDC00 Rx 8  E0 14 01 60 02 93 8D 54 
   1296     58284.154 DT 0CEF0100 Rx 8  A0 20 02 5C 00 27 99 22 
   1297     58288.570 DT 18FFDC00 Rx 8  E1 E7 02 B2 00 A0 FF DB 
   1298     58289.114 DT 04EF001C Rx 8  78 42 62 F4 73 92 60 50 
   1299     58289.698 DT 0CF00300 Rx 8  DF 00 0F FF 00 FF FF FF 
   1300     58293.558 DT 18FFDC00 Rx 8  E2 FF FF B2 D6 22 00 FF 
   1301     58297.486 DT 0DF50B9B Rx 8  1F 54 03 00 00 00 00 FF 
   1302     58298.578 DT 0CF00400 Rx 8  FF 7D 80 00 13 00 FF FF 
   1303     58299.134 DT 04EF001C Rx 8  21 45 01 3B 2A 95 03 9F 
   1304     58303.557 DT 0CEF0100 Rx 8  A0 20 02 5F 00 28 99 22 
   1305     58308.593 DT 18FEF100 Rx 8  FF AD 04 F0 FF C7 1F FF 
   1306     58309.141 DT 04EF001C Rx 8  79 47 4B F9 72 97 49 5D 
   1307     58318.577 DT 0CF00400 Rx 8  FF 7D 80 00 13 00 FF FF 
   1308     58319.137 DT 04EF001C Rx 8  38 4A 60 FC 33 FA 62 38 
   1309     58323.553 DT 0CEF0100 Rx 8  A0 20 02 60 00 28 99 22 
   1310     58328.401 DT 18FF1080 Rx 8  00 00 00 FF FF FF FC 00 
   1311     58328.949 DT 0CEF1100 Rx 8  72 D0 30 A0 B6 D2 8B 8C 
   1312     58329.501 DT 04EF001C Rx 8  F9 4C 97 F2 F2 9C 95 56 
   1313     58330.078 DT 18FF1180 Rx 8  FD 02 F5 02 FF FF 00 FF 
   1314     58332.198 DT 18FF1CF3 Rx 8  00 00 00 00 00 00 00 00 
   1315     58333.559 DT 18FFDC00 Rx 8  00 14 01 65 02 93 8D 53 
   1316     58337.879 DT 19F10D13 Rx 8  D1 0B 01 4B 02 67 00 A9 
   1317     58338.543 DT 18FFDC00 Rx 8  01 E7 02 B5 00 A0 FF DB 
   1318     58339.127 DT 0CF00300 Rx 8  DF 00 0F FF 00 FF FF FF 
   1319     58339.683 DT 04EF001C Rx 8  B8 4F CC F9 B3 5F CE 9D 
   1320     58340.255 DT 0CF00400 Rx 8  FF 7D 80 30 13 00 FF FF 
   1321     58340.814 DT 19F21139 Rx 8  00 00 00 FF 34 6F 0C 00 
   1322     58343.546 DT 18FFDC00 Rx 8  02 FF FF B2 D6 22 00 FF 
   1323     58344.138 DT 09F20000 Rx 8  00 A0 09 FF FF FF FF FF 
   1324     58344.698 DT 0CEF0100 Rx 8  A0 20 02 62 00 28 99 22 
   1325     58349.278 DT 04EF001C Rx 8  79 52 E3 EC 72 02 E1 C8 
   1326     58358.585 DT 0CF00400 Rx 8  FF 7D 80 60 13 00 FF FF 
   1327     58359.413 DT 04EF001C Rx 8  38 55 98 E3 33 05 9A C7 
   1328     58363.581 DT 0CEF0100 Rx 8  A0 20 02 68 00 27 99 22 
   1329     58368.581 DT 18FEF200 Rx 8  36 00 FF FF FF FF 10 FF 
   1330     58369.525 DT 04EF001C Rx 8  F9 57 4F E9 F2 47 4D 8D 
   1331     58375.684 DT 18FF1C17 Rx 8  00 00 00 00 00 00 00 00 
   1332     58378.556 DT 0CF00400 Rx 8  FF 7D 80 68 13 00 FF FF 
   1333     58379.100 DT 0CEF1100 Rx 8  10 CF 13 37 63 53 5D A7 
   1334     58379.644 DT 04EF001C Rx 8  B8 5A 64 EC B3 4A 66 88 
   1335     58383.552 DT 18FFDC00 Rx 8  20 14 01 6C 02 93 8C 53 
   1336     58384.112 DT 0CEF0100 Rx 8  A0 20 02 6C 00 27 99 22 
   1337     58388.535 DT 18FFDC00 Rx 8  21 E8 02 B6 00 A0 FF DB 
   1338     58389.119 DT 0CF00300 Rx 8  DF 00 0F FF 00 FF FF FF 
   1339     58389.791 DT 04EF001C Rx 8  E3 5D 05 33 E8 4D 07 57 
   1340     58393.532 DT 18FFDC00 Rx 8  22 FF FF B2 D6 22 00 FF 
   1341     58395.876 DT 15FD069B Rx 8  3D 3D 74 FF FF FF FF FF 
   1342     58398.544 DT 0CF00400 Rx 8  FF 7D 80 48 13 00 FF FF 
   1343     58399.856 DT 04EF001C Rx 8  5D 40 56 DE 56 50 54 BA 
   1344     58403.560 DT 0CEF0100 Rx 8  A0 20 02 6B 00 27 99 22 
   1345     58408.543 DT 18FEF100 Rx 8  FF AE 04 F0 FF C7 1F FF 
   1346     58409.963 DT 04EF001C Rx 8  1D 43 0C DD 16 B3 0E 59 
   1347     58418.563 DT 0CF00400 Rx 8  FF 7D 80 28 13 00 FF FF 
   1348     58420.087 DT 04EF001C Rx 8  DE 45 F9 C3 D5 D5 FB 27 
   1349     58423.575 DT 0CEF0100 Rx 8  A0 20 02 67 00 27 99 22 
   1350     58428.566 DT 0CEF1100 Rx 8  E3 FF A8 62 F2 45 D5 E3 
   1351     58429.411 DT 18FF1080 Rx 8  00 00 00 FF FF FF FC 00 
   1352     58430.163 DT 04EF001C Rx 8  D6 48 99 8E DD 98 9B 2A 
   1353     58430.740 DT 18FF1180 Rx 8  FD 02 F5 02 FF FF 00 FF 
   1354     58431.388 DT 18FF1380 Rx 8  00 00 00 00 3F C0 C0 06 
   1355     58432.200 DT 18FF1CF3 Rx 8  00 00 00 00 00 00 00 00 
   1356     58433.552 DT 18FFDC00 Rx 8  40 14 01 62 02 93 8C 54 
   1357     58437.888 DT 19F10D13 Rx 8  D2 0B 01 4B 02 67 00 A9 
   1358     58438.556 DT 18FFDC00 Rx 8  41 E8 02 B2 00 A0 FF DB 
   1359     58439.140 DT 0CF00300 Rx 8  DF 00 0F FF 00 FF FF FF 
   1360     58439.716 DT 0CF00400 Rx 8  FF 7D 80 08 13 00 FF FF 
   1361     58440.280 DT 19F21139 Rx 8  00 00 00 FF 98 6F 0C 00 
   1362     58440.840 DT 04EF001C Rx 8  68 4C 02 7A 63 BC 00 FE 
   1363     58443.560 DT 18FFDC00 Rx 8  42 FF FF B2 D6 22 00 FF 
   1364     58444.156 DT 09F20000 Rx 8  00 7C 09 FF FF FF FF FF 
   1365     58444.720 DT 0CEF0100 Rx 8  A0 20 02 63 00 27 99 22 
   1366     58450.412 DT 04EF001C Rx 8  88 4E F5 78 83 BE F7 FC 
   1367     58452.196 DT 0CEF0017 Rx 8  81 04 00 00 00 00 FF FF 
   1368     58458.560 DT 0CF00400 Rx 8  FF 7D 80 E8 12 00 FF FF 
   1369     58459.132 DT 18E8FF00 Rx 8  02 FF FF FF FF 00 EF 00 
   1370     58460.540 DT 04EF001C Rx 8  A6 51 22 17 AD 81 20 B3 
   1371     58463.568 DT 0CEF0100 Rx 8  A0 20 02 5F 00 27 99 22 
   1372     58468.580 DT 18FEF200 Rx 8  34 00 FF FF FF FF 0F FF 
   1373     58470.628 DT 04EF001C Rx 8  1A 54 B3 F2 11 84 B1 56 
   1374     58478.575 DT 0CF00400 Rx 8  FF 7D 80 D0 12 00 FF FF 
   1375     58479.123 DT 0CEF1100 Rx 8  AB F2 90 21 B3 9F 55 EE 
   1376     58480.735 DT 04EF001C Rx 8  5E 57 ED D1 55 87 EF 75 
   1377     58483.559 DT 18FFDC00 Rx 8  60 14 01 5A 02 93 8C 54 
   1378     58484.123 DT 0CEF0100 Rx 8  A0 20 02 5B 00 27 99 22 
   1379     58488.555 DT 18FFDC00 Rx 8  61 E9 02 AF 00 A0 FF DB 
   1380     58489.139 DT 0CF00300 Rx 8  DF 00 0F FF 00 FF FF FF 
   1381     58490.851 DT 04EF001C Rx 8  1E 5A C7 DC 15 CA C5 38 
   1382     58493.551 DT 18FFDC00 Rx 8  62 FF FF B2 D6 22 00 FF 
   1383     58498.539 DT 0CF00400 Rx 8  FF 7D 80 D8 12 00 FF FF 
   1384     58500.962 DT 04EF001C Rx 8  5A 5C B1 FA 50 2C B2 FE 
   1385     58503.554 DT 0CEF0100 Rx 8  A0 20 02 5A 00 27 99 22 
   1386     58508.542 DT 18FEF100 Rx 8  FF AF 04 F0 FF C7 1F FF 
   1387     58511.050 DT 04EF001C Rx 8  AD 5E 51 40 A7 2E 52 44 
   1388     58517.295 DT 18FF2117 Rx 8  06 FF FF FF 00 FF FF FF 
   1389     58518.535 DT 0CF00400 Rx 8  FF 7D 80 E8 12 00 FF FF 
   1390     58521.170 DT 04EF001C Rx 8  38 41 38 F7 32 11 3B D3 
   1391     58523.546 DT 0CEF0100 Rx 8  A0 20 02 5B 00 27 99 22 
   1392     58528.534 DT 0CEF1100 Rx 8  62 F4 14 28 4D FE E8 5C 
   1393     58529.399 DT 18FF1080 Rx 8  00 00 00 FF FF FF FC 00 
   1394     58530.379 DT 18FF1180 Rx 8  FD 02 F5 02 FF FF 00 FF 
   1395     58531.299 DT 04EF001C Rx 8  F8 43 EE F5 F2 33 ED F1 
   1396     58532.203 DT 18FF1CF3 Rx 8  00 00 00 00 00 00 00 00 
   1397     58533.531 DT 18FFDC00 Rx 8  80 14 01 5D 02 93 8C 54 
   1398     58537.875 DT 19F10D13 Rx 8  D3 0B 01 4B 02 67 00 A9 
   1399     58538.531 DT 18FFDC00 Rx 8  81 E9 02 B0 00 A0 FF DB 
   1400     58539.115 DT 0CF00300 Rx 8  DF 00 0F FF 00 FF FF FF 
   1401     58539.683 DT 0CF00400 Rx 8  FF 7D 80 F0 12 00 FF FF 
   1402     58540.247 DT 19F21139 Rx 8  00 00 00 FF FC 6F 0C 00 
   1403     58541.383 DT 04EF001C Rx 8  4A 47 79 61 40 37 7A 65 
   1404     58543.539 DT 18FFDC00 Rx 8  82 FF FF B2 D6 22 00 FF 
   1405     58544.136 DT 09F20000 Rx 8  00 7C 09 FF FF FF FF FF 
   1406     58544.695 DT 0CEF0100 Rx 8  A0 20 02 5D 00 27 99 22 
   1407     58551.499 DT 04EF001C Rx 8  79 49 3B F7 72 F9 39 33 
   1408     58558.538 DT 0CF00400 Rx 8  FF 7D 80 10 13 00 FF FF 
   1409     58561.614 DT 04EF001C Rx 8  39 4C 51 F2 33 1C 52 D6 
   1410     58563.558 DT 18FEEF00 Rx 8  FF FF FF 3A FF FF FF FF 
   1411     58564.122 DT 0CEF0100 Rx 8  A0 20 02 5F 00 27 99 22 
   1412     58568.574 DT 18FEF200 Rx 8  34 00 FF FF FF FF 10 FF 
   1413     58571.734 DT 04EF001C Rx 8  F9 4E 87 F0 F3 3E 84 F4 
   1414     58578.579 DT 0CF00400 Rx 8  FF 7D 80 30 13 00 FF FF 
   1415     58579.126 DT 0CEF1100 Rx 8  31 E2 32 75 8E 08 CA 86 
   1416     58581.834 DT 04EF001C Rx 8  B9 51 3D EF B3 61 3E AB 
   1417     58583.562 DT 18FFDC00 Rx 8  A0 14 01 67 02 93 8C 53 
   1418     58584.126 DT 0CEF0100 Rx 8  A0 20 02 63 00 27 99 22 
   1419     58588.562 DT 18FFDC00 Rx 8  A1 E9 02 B3 00 A0 FF DB 
   1420     58589.146 DT 0CF00300 Rx 8  DF 00 0F FF 00 FF FF FF 
   1421     58591.946 DT 04EF001C Rx 8  79 54 D3 EA 73 64 D0 AE 
   1422     58593.546 DT 18FFDC00 Rx 8  A2 FF FF B2 D6 22 00 FF 
   1423     58594.126 DT 0CEF1700 Rx 8  01 84 00 00 00 00 FF FF 
   1424     58598.534 DT 0CF00400 Rx 8  FF 7D 80 30 13 00 FF FF 
   1425     58602.050 DT 04EF001C Rx 8  38 57 88 E1 32 A7 8B 65 
   1426     58603.554 DT 0CEF0100 Rx 8  A0 20 02 66 00 27 99 22 
   1427     58604.126 DT 18FEF600 Rx 8  FF FF 53 10 FF FF FF FF 
   1428     58608.537 DT 18FEF100 Rx 8  FF B0 04 F0 FF C7 1F FF 
   1429     58612.181 DT 04EF001C Rx 8  FA 59 3C FF F0 49 3F 9B 
   1430     58618.537 DT 0CF00400 Rx 8  FF 7D 80 10 13 00 FF FF 
   1431     58622.268 DT 04EF001C Rx 8  B8 5C 54 EA B2 AC 57 6E 
   1432     58623.536 DT 0CEF0100 Rx 8  A0 20 02 64 00 27 99 22 
   1433     58625.732 DT 18FF1C17 Rx 8  00 00 00 00 00 00 00 00 
   1434     58628.540 DT 0CEF1100 Rx 8  F5 E5 FD 54 71 70 FC 7C 
   1435     58630.393 DT 18FF1080 Rx 8  00 00 00 FF FF FF FC 00 
   1436     58631.373 DT 18FF1180 Rx 8  FD 02 F5 02 FF FF 00 FF 
   1437     58632.205 DT 18FF1CF3 Rx 8  00 00 00 00 00 00 00 00 
   1438     58632.765 DT 04EF001C Rx 8  7A 5F 88 F9 70 AF 8B 7D 
   1439     58633.350 DT 18FF1380 Rx 8  00 00 00 00 3F C0 C0 06 
   1440     58633.902 DT 18FFDC00 Rx 8  C0 14 01 5E 02 93 8C 53 
   1441     58637.879 DT 19F10D13 Rx 8  D4 0B 01 4B 02 67 00 A9 
   1442     58638.530 DT 18FFDC00 Rx 8  C1 E9 02 B0 00 A0 FF DB 
   1443     58639.115 DT 0CF00300 Rx 8  DF 00 0F FF 00 FF FF FF 
   1444     58639.683 DT 0CF00400 Rx 8  FF 7D 80 F0 12 00 FF FF 
   1445     58640.250 DT 19F21139 Rx 8  00 00 00 FF 60 70 0C 00 
   1446     58642.522 DT 04EF001C Rx 8  C6 42 D9 04 CC 12 DA 20 
   1447     58643.538 DT 18FFDC00 Rx 8  C2 FF FF B2 D6 22 00 FF 
   1448     58644.131 DT 09F20000 Rx 8  00 74 09 FF FF FF FF FF 
   1449     58644.699 DT 0CEF0100 Rx 8  A0 20 02 60 00 27 99 22 
   1450     58649.622 DT 09F8021C Rx 8  74 FC 5F 8F 7C 00 FF FF 
   1451     58650.606 DT 09F8011C Rx 8  62 A9 26 18 86 65 53 C1 
   1452     58651.626 DT 19FA031C Rx 8  74 D2 8F 00 D2 00 A2 00 
   1453     58652.633 DT 04EF001C Rx 8  B5 45 91 9B BE F5 93 5F 
   1454     58653.653 DT 0DF0101C Rx 8  74 F0 3C 4F 50 68 81 2F 
   1455     58654.665 DT 18FEE81C Rx 8  28 69 80 04 2C 64 64 81 
   1456     58657.760 DT 19FA041C Rx 8  80 AB 74 FF 0E 01 4E 0C 
   1457     58658.536 DT 0CF00400 Rx 8  FF 7D 80 E0 12 00 FF FF 
   1458     58659.112 DT 19FA041C Rx 8  81 04 D8 CC 10 FF FF FF 
   1459     58659.820 DT 19FA041C Rx 8  82 FF FF 02 65 1D B6 CB 
   1460     58660.796 DT 19FA041C Rx 8  83 A0 0F FF FF FF FF FF 
   1461     58661.791 DT 19FA041C Rx 8  84 08 D6 06 A2 AD 3C 0F 
   1462     58662.751 DT 04EF001C Rx 8  05 49 44 17 0F 39 47 13 
   1463     58663.539 DT 0CEF0100 Rx 8  A0 20 02 5D 00 27 99 22 
   1464     58664.123 DT 19FA041C Rx 8  85 FF FF FF FF FF 0A 04 
   1465     58664.851 DT 19FA041C Rx 8  86 29 0E 38 C0 12 FF FF 
   1466     58665.851 DT 19FA041C Rx 8  87 FF FF FF 0C 6B 03 DA 
   1467     58666.862 DT 19FA041C Rx 8  88 2F 00 00 FF FF FF FF 
   1468     58667.854 DT 19FA041C Rx 8  89 FF 17 FD 0C 76 48 00 
   1469     58668.550 DT 18FEF200 Rx 8  34 00 FF FF FF FF 10 FF 
   1470     58669.126 DT 19FA041C Rx 8  8A 00 FF FF FF FF FF 18 
   1471     58669.914 DT 19FA041C Rx 8  8B 6B 03 FA 19 20 03 FF 
   1472     58670.897 DT 19FA041C Rx 8  8C FF FF FF FF 19 78 05 
   1473     58671.929 DT 19FA041C Rx 8  8D BA 45 00 00 FF FF FF 
   1474     58672.861 DT 04EF001C Rx 8  BA 4B EE ED B1 FB EC 29 
   1475     58673.937 DT 19FA041C Rx 8  8E FF FF 1B BC 02 20 99 
   1476     58674.952 DT 19FA041C Rx 8  8F 00 00 FF FF FF FF FF 
   1477     58675.944 DT 19FA041C Rx 8  90 1C 72 1F 36 74 AC 0D 
   1478     58676.976 DT 19FA041C Rx 8  91 FF FF FF FF FF 1F AC 
   1479     58677.992 DT 19FA041C Rx 8  92 0D 84 80 AC 0D FF FF 
   1480     58678.540 DT 0CEF1100 Rx 8  D5 98 5C 48 68 7D DC AB 
   1481     58679.108 DT 0CF00400 Rx 8  FF 7D 80 E8 12 00 FF FF 
   1482     58679.672 DT 19FA041C Rx 8  93 FF FF FF 20 45 33 1A 
   1483     58681.012 DT 19FA041C Rx 8  94 04 94 11 FF FF FF FF 
   1484     58682.007 DT 19FA041C Rx 8  95 FF 2C B6 1C FC 85 D8 
   1485     58682.967 DT 04EF001C Rx 8  84 4E F9 E8 8F 6E FB 4C 
   1486     58683.539 DT 18FFDC00 Rx 8  E0 14 01 5C 02 93 8D 53 
   1487     58684.099 DT 0CEF0100 Rx 8  A0 20 02 5C 00 27 99 22 
   1488     58684.679 DT 19FA041C Rx 8  96 0E FF FF FF FF FF 30 
   1489     58686.051 DT 19FA041C Rx 8  97 A9 1A 30 8E 3C 0F FF 
   1490     58687.071 DT 19FA041C Rx 8  98 FF FF FF FF FF FF FF 
   1491     58688.531 DT 18FFDC00 Rx 8  E1 EA 02 B0 00 A0 FF DB 
   1492     58689.115 DT 0CF00300 Rx 8  DF 00 0F FF 00 FF FF FF 
   1493     58693.078 DT 04EF001C Rx 8  86 50 0B E6 8D 10 09 22 
   1494     58693.639 DT 18FFDC00 Rx 8  E2 FF FF B2 D6 22 00 FF 
   1495     58698.527 DT 0CF00400 Rx 8  FF 7D 80 C8 12 00 FF FF 
   1496     58703.163 DT 04EF001C Rx 8  47 53 D4 ED 4C 73 D6 49 
   1497     58703.727 DT 0CEF0100 Rx 8  A0 20 02 5B 00 27 99 22 
   1498     58708.531 DT 18FEF100 Rx 8  FF B1 04 F0 FF C7 1F FF 
   1499     58713.270 DT 04EF001C Rx 8  79 55 DB 1B 72 35 D9 FF 
   1500     58718.534 DT 0CF00400 Rx 8  FF 7D 80 A8 12 00 FF FF 
   1501     58723.386 DT 04EF001C Rx 8  38 58 F0 1E 32 D8 F3 1A 
   1502     58723.946 DT 0CEF0100 Rx 8  A0 20 02 56 00 27 99 22 
   1503     58728.542 DT 0CEF1100 Rx 8  1F 95 40 9B 82 18 81 7B 
   1504     58730.390 DT 18FF1080 Rx 8  00 00 00 FF FF FF FC 00 
   1505     58731.370 DT 18FF1180 Rx 8  FD 02 F5 02 FF FF 00 FF 
   1506     58732.206 DT 18FF1CF3 Rx 8  00 00 00 00 00 00 00 00 
   1507     58733.498 DT 04EF001C Rx 8  FA 5A 24 0C F1 3A 26 E8 
   1508     58734.058 DT 18FFDC00 Rx 8  00 14 01 56 02 93 8C 53 
   1509     58737.874 DT 19F10D13 Rx 8  D5 0B 01 4B 02 67 00 A9 
   1510     58738.526 DT 18FFDC00 Rx 8  01 EA 02 AE 00 A0 FF DB 
   1511     58739.110 DT 0CF00300 Rx 8  DF 00 0F FF 00 FF FF FF 
   1512     58739.678 DT 0CF00400 Rx 8  FF 7D 80 B8 12 00 FF FF 
   1513     58740.246 DT 19F21139 Rx 8  00 00 00 FF C4 70 0C 00 
   1514     58743.526 DT 18FFDC00 Rx 8  02 FF FF B2 D6 22 00 FF 
   1515     58744.078 DT 04EF001C Rx 8  B9 5D 5D 13 B2 7D 5F B7 
   1516     58744.670 DT 09F20000 Rx 8  00 60 09 FF FF FF FF FF 
   1517     58745.234 DT 0CEF0100 Rx 8  A0 20 02 55 00 27 99 22 
   1518     58753.729 DT 04EF001C Rx 8  79 40 73 0E 73 E0 70 2A 
   1519     58758.530 DT 0CF00400 Rx 8  FF 7D 80 D8 12 00 FF FF 
   1520     58759.114 DT 18FECA00 Rx 8  00 FF 00 00 00 00 FF FF 
   1521     58763.538 DT 0CEF0100 Rx 8  A0 20 02 58 00 27 99 22 
   1522     58764.090 DT 04EF001C Rx 8  38 43 28 05 32 A3 2B 61 
   1523     58768.546 DT 18FEF200 Rx 8  34 00 FF FF FF FF 10 FF 
   1524     58773.949 DT 04EF001C Rx 8  F8 45 DE 03 F2 A5 DD 67 
   1525     58778.573 DT 0CF00400 Rx 8  FF 7D 80 08 13 00 FF FF 
   1526     58779.117 DT 0CEF1100 Rx 8  4C 8B 26 C4 E7 F6 66 93 
   1527     58783.557 DT 18FFDC00 Rx 8  20 14 01 61 02 93 8C 53 
   1528     58784.105 DT 04EF001C Rx 8  B9 48 F5 06 B3 48 F6 82 
   1529     58784.665 DT 0CEF0100 Rx 8  A0 20 02 5D 00 27 99 22 
   1530     58788.549 DT 18FFDC00 Rx 8  21 EA 02 B2 00 A0 FF DB 
   1531     58789.133 DT 0CF00300 Rx 8  DF 00 0F FF 00 FF FF FF 
   1532     58793.544 DT 18FFDC00 Rx 8  22 FF FF B2 D6 22 00 FF 
