;$FILEVERSION=2.0
;$STARTTIME=45853.3780968866
;$COLUMNS=N,O,T,I,d,l,D
;
;   Start time: 7/15/2025 09:04:27.571.0
;   Generated by PCAN-View v5.3.0.942
;   Message   Time    Type ID     Rx/Tx
;   Number    Offset  |    [hex]  |  Data Length
;   |         [ms]    |    |      |  |  Data [hex] ...
;   |         |       |    |      |  |  |
;---+-- ------+------ +- --+----- +- +- +- +- -- -- -- -- -- -- --
      1         2.982 DT 18FFDC00 Rx 8  41 17 00 00 00 A4 FF DC 
      2         3.534 DT 04EF001C Rx 8  21 49 68 47 DF 8E 96 84 
      3         4.114 DT 0CF00300 Rx 8  DF 00 4F FF 00 FF FF FF 
      4         4.690 DT 0CF00400 Rx 8  FF 7D 7D 00 00 00 FF FF 
      5         7.982 DT 18FFDC00 Rx 8  42 FF FF 9F D3 22 00 FF 
      6         8.578 DT 09F20000 Rx 8  00 00 00 FF FF FF FF FF 
      7         9.158 DT 0CEF0100 Rx 8  B0 20 00 00 00 63 5C 00 
      8        13.002 DT 09F20100 Rx 8  C0 16 00 07 00 FF FF 3B 
      9        13.542 DT 04EF001C Rx 8  E2 4B BD 5D 1D 4C 42 5E 
     10        17.978 DT 09F20100 Rx 8  C1 75 C9 04 00 00 9F D3 
     11        18.558 DT 18FEE500 Rx 8  87 31 00 00 FF FF FF FF 
     12        22.994 DT 0CF00400 Rx 8  FF 7D 7D 00 00 00 FF FF 
     13        23.542 DT 04EF001C Rx 8  9F 4E EB B0 61 A9 15 53 
     14        24.114 DT 09F20100 Rx 8  C2 22 00 FF FF FF FF 00 
     15        24.694 DT 18FEEE00 Rx 8  43 FF FF FF FF FF 41 FF 
     16        27.994 DT 09F20100 Rx 8  C3 01 00 FF FF FF FF FF 
     17        28.574 DT 0CEF0100 Rx 8  B0 20 00 00 00 63 5C 00 
     18        29.154 DT 18FEEF00 Rx 8  FF FF FF 00 FF FF FF FF 
     19        33.006 DT 18FEF200 Rx 8  00 00 FF FF FF FF 37 FF 
     20        33.550 DT 04EF001C Rx 8  61 51 EA 5F 9E 56 15 5C 
     21        37.982 DT 18FEF700 Rx 8  FF FF 1A 01 F5 00 F6 00 
     22        38.537 DT 19F10D13 Rx 8  E9 1C 02 22 02 00 00 0F 
     23        39.101 DT 19F21139 Rx 8  00 00 00 FF 94 88 01 00 
     24        42.993 DT 0CF00400 Rx 8  FF 7D 7D 00 00 00 FF FF 
     25        43.541 DT 0CEF1100 Rx 8  E2 DC 70 23 3C CF C3 DF 
     26        44.097 DT 04EF001C Rx 8  20 54 81 52 DE B3 7F B1 
     27        44.686 DT 18FF1080 Rx 8  00 00 00 FF FF FF FD 00 
     28        45.730 DT 18FF1180 Rx 8  03 FF FB FF FF FF 00 FF 
     29        47.990 DT 18FFDC00 Rx 8  60 14 01 00 00 58 7B 19 
     30        48.570 DT 0CEF0100 Rx 8  B0 20 00 00 00 63 5C 00 
     31        52.982 DT 18FFDC00 Rx 8  61 16 00 00 00 A4 FF DC 
     32        53.562 DT 0CF00300 Rx 8  DF 00 4F FF 00 FF FF FF 
     33        54.110 DT 04EF001C Rx 8  DE 56 68 A0 20 91 96 63 
     34        57.970 DT 18FFDC00 Rx 8  62 FF FF 9F D3 22 00 FF 
     35        58.549 DT 0CEF1700 Rx 8  01 84 00 00 00 00 FF FF 
     36        62.989 DT 0CF00400 Rx 8  FF 7D 7D 00 00 00 FF FF 
     37        63.581 DT 18FEFC00 Rx 8  FF DC FF FF FF FF FF FF 
     38        64.133 DT 04EF001C Rx 8  09 5A D9 14 F7 9D 27 D7 
     39        68.001 DT 0CEF0100 Rx 8  B0 20 00 00 00 63 5C 00 
     40        68.577 DT 18FEF600 Rx 8  FF FF 43 2A FF FF FF FF 
     41        72.985 DT 18FEF100 Rx 8  FF 23 00 F0 FF C7 1F FF 
     42        73.941 DT 04EF001C Rx 8  CB 5C 2D 02 35 9B D3 C1 
     43        82.989 DT 0CF00400 Rx 8  FF 7D 7D 00 00 00 FF FF 
     44        84.052 DT 04EF001C Rx 8  B0 5F 4D D9 4E 98 B3 1A 
     45        88.001 DT 0CEF0100 Rx 8  B0 20 00 00 00 63 5C 00 
     46        92.957 DT 0CEF1100 Rx 8  B3 C8 C6 EE 45 3C 4C 55 
     47        94.181 DT 04EF001C Rx 8  70 42 63 C4 8E E5 9D 67 
     48        97.989 DT 18FFDC00 Rx 8  80 14 01 00 00 58 7B 19 
     49       102.973 DT 18FFDC00 Rx 8  81 15 00 00 00 A4 FF DC 
     50       103.553 DT 0CF00300 Rx 8  DF 00 4F FF 00 FF FF FF 
     51       104.129 DT 0CF00400 Rx 8  FF 7D 7D 00 00 00 FF FF 
     52       104.680 DT 04EF001C Rx 8  55 45 7F EB AB C2 81 68 
     53       105.265 DT 18FF1C17 Rx 8  00 01 50 00 00 00 00 00 
     54       107.980 DT 18FFDC00 Rx 8  82 FF FF 9F D3 22 00 FF 
     55       108.577 DT 09F20000 Rx 8  00 00 00 FF FF FF FF FF 
     56       109.157 DT 0CEF0100 Rx 8  B0 20 00 00 00 63 5C 00 
     57       109.741 DT 18FF1CF3 Rx 8  00 00 00 00 00 00 00 00 
     58       114.365 DT 04EF001C Rx 8  ED 47 D2 29 13 C0 2C AA 
     59       122.988 DT 0CF00400 Rx 8  FF 7D 7D 00 00 00 FF FF 
     60       124.512 DT 04EF001C Rx 8  B2 4A E7 DC 4C ED 19 7F 
     61       128.000 DT 0CEF0100 Rx 8  B0 20 00 00 00 63 5C 00 
     62       133.000 DT 18FEF200 Rx 8  00 00 FF FF FF FF 37 FF 
     63       134.592 DT 04EF001C Rx 8  03 4D 6B 53 FD CA 95 D0 
     64       138.104 DT 19F10D13 Rx 8  EA 1E 02 22 02 00 00 0D 
     65       138.680 DT 19F21139 Rx 8  00 00 00 FF F8 88 01 00 
     66       142.987 DT 0CF00400 Rx 8  FF 7D 7D 00 00 00 FF FF 
     67       143.536 DT 0CEF1100 Rx 8  74 CC D1 17 B6 59 52 0F 
     68       144.124 DT 18FF1080 Rx 8  00 00 00 FF FF FF FD 00 
     69       144.704 DT 04EF001C Rx 8  24 50 A5 76 DA D7 5B F5 
     70       145.733 DT 18FF1180 Rx 8  03 FF FB FF FF FF 00 FF 
     71       146.729 DT 18FF1380 Rx 8  00 00 00 00 3F C0 C0 06 
     72       147.981 DT 18FFDC00 Rx 8  A0 14 01 00 00 58 7B 19 
     73       148.561 DT 0CEF0100 Rx 8  B0 20 00 00 00 63 5C 00 
     74       152.977 DT 18FFDC00 Rx 8  A1 14 00 00 00 A4 FF DC 
     75       153.557 DT 0CF00300 Rx 8  DF 00 4F FF 00 FF FF FF 
     76       154.822 DT 04EF001C Rx 8  BB 52 2E 8C 45 D5 D0 0F 
     77       157.966 DT 18FFDC00 Rx 8  A2 FF FF 9F D3 22 00 FF 
     78       162.985 DT 0CF00400 Rx 8  FF 7D 7D 00 00 00 FF FF 
     79       164.909 DT 04EF001C Rx 8  53 55 F9 CB AD D2 07 48 
     80       168.001 DT 0CEF0100 Rx 8  B0 20 00 00 00 63 5C 00 
     81       169.685 DT 0CEA1C00 Rx 8  00 EE 00 00 00 00 00 00 
     82       171.025 DT 18EEFF1C Rx 8  02 04 45 0E 00 00 00 42 
     83       172.985 DT 18FEF100 Rx 8  FF 20 00 F0 FF C7 1F FF 
     84       175.033 DT 04EF001C Rx 8  15 58 D5 F6 EB 9F 2B 35 
     85       182.985 DT 0CF00400 Rx 8  FF 7D 7D 00 00 00 FF FF 
     86       185.137 DT 04EF001C Rx 8  D6 5A 00 EC 28 BD FE 0F 
     87       187.997 DT 0CEF0100 Rx 8  B0 20 00 00 00 63 5C 00 
     88       189.685 DT 18FF1CF3 Rx 8  00 00 00 00 00 00 00 00 
     89       192.972 DT 0CEF1100 Rx 8  0B FE DD 22 81 F4 A4 7E 
     90       195.232 DT 04EF001C Rx 8  95 5D 79 F3 6A 5A 86 F0 
     91       197.976 DT 18FFDC00 Rx 8  C0 14 01 00 00 58 7B 19 
     92       202.968 DT 18FFDC00 Rx 8  C1 13 00 00 00 A4 FF DC 
     93       203.548 DT 0CF00300 Rx 8  DF 00 4F FF 00 FF FF FF 
     94       204.124 DT 0CF00400 Rx 8  FF 7D 7D 00 00 00 FF FF 
     95       205.371 DT 04EF001C Rx 8  B6 40 B3 F6 49 67 4C D5 
     96       207.967 DT 18FFDC00 Rx 8  C2 FF FF 9F D3 22 00 FF 
     97       208.564 DT 09F20000 Rx 8  00 00 00 FF FF FF FF FF 
     98       209.144 DT 0CEF0100 Rx 8  B0 20 00 00 00 63 5C 00 
     99       215.471 DT 04EF001C Rx 8  DF 42 C9 BC 20 65 36 9F 
    100       222.983 DT 0CF00400 Rx 8  FF 7D 7D 00 00 00 FF FF 
    101       225.579 DT 04EF001C Rx 8  D3 45 FD DB 2C 02 02 98 
    102       227.995 DT 0CEF0100 Rx 8  B0 20 00 00 00 63 5C 00 
    103       232.995 DT 18FEF200 Rx 8  00 00 FF FF FF FF 37 FF 
    104       235.683 DT 04EF001C Rx 8  61 48 22 46 9E 2F DD 25 
    105       236.255 DT 15FD069B Rx 8  C0 14 73 FF FF FF FF FF 
    106       238.107 DT 19F10D13 Rx 8  EB 1D 02 22 02 00 00 0E 
    107       238.667 DT 19F21139 Rx 8  00 00 00 FF 5C 89 01 00 
    108       242.983 DT 0CF00400 Rx 8  FF 7D 7D 00 00 00 FF FF 
    109       243.531 DT 0CEF1100 Rx 8  C0 F2 89 B9 D7 92 A4 0E 
    110       244.727 DT 18FF1080 Rx 8  00 00 00 FF FF FF FD 00 
    111       245.727 DT 18FF1180 Rx 8  03 FF FB FF FF FF 00 FF 
    112       246.275 DT 04EF001C Rx 8  57 4B 0D F5 A8 CC F2 76 
    113       247.979 DT 18FFDC00 Rx 8  E0 14 01 00 00 58 7B 19 
    114       248.559 DT 0CEF0100 Rx 8  B0 20 00 00 00 63 5C 00 
    115       249.687 DT 0CEF0017 Rx 8  81 04 00 00 00 00 FF FF 
    116       252.979 DT 18FFDC00 Rx 8  E1 12 00 00 00 A4 FF DC 
    117       253.559 DT 0CF00300 Rx 8  DF 00 4F FF 00 FF FF FF 
    118       255.903 DT 04EF001C Rx 8  17 4E 67 F0 E8 E9 98 53 
    119       257.967 DT 18FFDC00 Rx 8  E2 FF FF 9F D3 22 00 FF 
    120       258.539 DT 18E8FF00 Rx 8  02 FF FF FF FF 00 EF 00 
    121       262.983 DT 0CF00400 Rx 8  FF 7D 7D 00 00 00 FF FF 
    122       266.035 DT 04EF001C Rx 8  2E 51 A7 27 D1 F6 58 84 
    123       267.995 DT 0CEF0100 Rx 8  B0 20 00 00 00 63 5C 00 
    124       272.974 DT 18FEF100 Rx 8  FF 1D 00 F0 FF C7 1F FF 
    125       276.142 DT 04EF001C Rx 8  D6 53 48 E5 29 B4 B7 06 
    126       280.222 DT 09F8021C Rx 8  7B FC 1E 02 0D 00 FF FF 
    127       281.202 DT 09F8011C Rx 8  96 6D 26 18 5A 6B 5B C1 
    128       282.237 DT 19FA031C Rx 8  7B D2 84 00 28 01 E5 00 
    129       282.985 DT 0CF00400 Rx 8  FF 7D 7D 00 00 00 FF FF 
    130       283.553 DT 0DF0101C Rx 8  7B F0 3C 4F B0 7C 58 20 
    131       284.273 DT 18FEE81C Rx 8  8E 01 00 00 57 63 58 7E 
    132       285.353 DT 19FA041C Rx 8  60 C3 7B FF 10 05 38 31 
    133       286.253 DT 04EF001C Rx 8  C5 57 7B 79 3A 90 84 BA 
    134       287.353 DT 19FA041C Rx 8  61 46 69 04 10 FF FF FF 
    135       287.997 DT 0CEF0100 Rx 8  B0 20 00 00 00 63 5C 00 
    136       288.564 DT 19FA041C Rx 8  62 FF FF 06 5E 01 7C 2E 
    137       289.420 DT 19FA041C Rx 8  63 00 00 FF FF FF FF FF 
    138       290.368 DT 19FA041C Rx 8  64 09 5E 01 24 13 00 00 
    139       291.384 DT 19FA041C Rx 8  65 FF FF FF FF FF 0B ED 
    140       292.383 DT 19FA041C Rx 8  66 17 A6 27 AC 0D FF FF 
    141       292.955 DT 0CEF1100 Rx 8  8D E2 18 95 A0 5F DC F4 
    142       293.520 DT 19FA041C Rx 8  67 FF FF FF 0C 4B 19 84 
    143       294.463 DT 19FA041C Rx 8  68 80 68 10 FF FF FF FF 
    144       295.440 DT 19FA041C Rx 8  69 FF 0D BC 02 F8 5C 00 
    145       296.380 DT 04EF001C Rx 8  2B 5A FA 04 D4 9D 05 C7 
    146       297.472 DT 19FA041C Rx 8  6A 00 FF FF FF FF FF 0F 
    147       298.036 DT 18FFDC00 Rx 8  00 14 01 00 00 58 7B 19 
    148       298.596 DT 19FA041C Rx 8  6B 0D 02 D8 72 00 00 FF 
    149       299.491 DT 19FA041C Rx 8  6C FF FF FF FF 12 E3 08 
    150       300.503 DT 19FA041C Rx 8  6D BC B1 00 00 FF FF FF 
    151       301.495 DT 19FA041C Rx 8  6E FF FF 14 62 2A 04 29 
    152       302.519 DT 19FA041C Rx 8  6F AC 0D FF FF FF FF FF 
    153       303.099 DT 0CF00300 Rx 8  DF 00 4F FF 00 FF FF FF 
    154       303.675 DT 0CF00400 Rx 8  FF 7D 7D 00 00 00 FF FF 
    155       304.251 DT 18FFDC00 Rx 8  01 11 00 00 00 A4 FF DC 
    156       304.807 DT 19FA041C Rx 8  70 15 99 25 C0 2B 1C 0C 
    157       305.566 DT 19FA041C Rx 8  71 FF FF FF FF FF 19 7F 
    158       306.490 DT 04EF001C Rx 8  1D 5D F5 B3 E2 9A 0A 70 
    159       307.586 DT 19FA041C Rx 8  72 21 F6 9F 04 10 FF FF 
    160       308.182 DT 09F20000 Rx 8  00 00 00 FF FF FF FF FF 
    161       308.762 DT 0CEF0100 Rx 8  B0 20 00 00 00 63 5C 00 
    162       309.338 DT 18FFDC00 Rx 8  02 FF FF 9F D3 22 00 FF 
    163       309.918 DT 19FA041C Rx 8  73 FF FF FF 1A 00 00 38 
    164       310.622 DT 19FA041C Rx 8  74 E0 00 00 FF FF FF FF 
    165       311.598 DT 19FA041C Rx 8  75 FF 1C AF 00 C6 C0 00 
    166       312.637 DT 19FA041C Rx 8  76 00 FF FF FF FF FF 1D 
    167       313.625 DT 19FA041C Rx 8  77 2E 22 48 D5 D8 0E FF 
    168       314.641 DT 19FA041C Rx 8  78 FF FF FF FF 1F AF 00 
    169       315.645 DT 19FA041C Rx 8  79 8C D2 C4 09 FF FF FF 
    170       316.593 DT 04EF001C Rx 8  A1 5F 5C 51 5E B8 A3 B2 
    171       317.668 DT 19FA041C Rx 8  7A FF FF 30 A9 1A 30 8E 
    172       318.704 DT 19FA041C Rx 8  7B 3C 0F FF FF FF FF FF 
    173       322.980 DT 0CF00400 Rx 8  FF 7D 7D 00 00 00 FF FF 
    174       326.712 DT 04EF001C Rx 8  B0 41 BD C7 B0 41 BD C3 
    175       327.992 DT 0CEF0100 Rx 8  B0 20 00 00 00 63 5C 00 
    176       329.696 DT 18FF1CF3 Rx 8  00 00 00 00 00 00 00 00 
    177       332.992 DT 18FEF200 Rx 8  00 00 FF FF FF FF 37 FF 
    178       336.795 DT 04EF001C Rx 8  E2 43 FD 55 E2 63 FD 71 
    179       338.111 DT 19F10D13 Rx 8  EC 1D 02 22 02 00 00 0E 
    180       338.679 DT 19F21139 Rx 8  00 00 00 FF C0 89 01 00 
    181       342.979 DT 0CF00400 Rx 8  FF 7D 7D 00 00 00 FF FF 
    182       343.531 DT 0CEF1100 Rx 8  4C E0 BE DD E1 37 2E BF 
    183       344.724 DT 18FF1080 Rx 8  00 00 00 FF FF FF FD 00 
    184       345.724 DT 18FF1180 Rx 8  03 FF FB FF FF FF 00 FF 
    185       346.724 DT 18FF1380 Rx 8  00 00 00 00 3F C0 C0 06 
    186       347.269 DT 04EF001C Rx 8  A3 46 96 58 A3 26 96 3C 
    187       347.985 DT 18FFDC00 Rx 8  20 14 01 00 00 59 7B 19 
    188       348.565 DT 0CEF0100 Rx 8  B0 20 00 00 00 63 5C 00 
    189       352.972 DT 18FFDC00 Rx 8  21 10 00 00 00 A4 FF DC 
    190       353.552 DT 0CF00300 Rx 8  DF 00 4F FF 00 FF FF FF 
    191       357.012 DT 04EF001C Rx 8  61 49 2A 47 61 C9 2A C3 
    192       357.968 DT 18FFDC00 Rx 8  22 FF FF 9F D3 22 00 FF 
    193       362.976 DT 0CF00400 Rx 8  FF 7D 7D 00 00 00 FF FF 
    194       367.129 DT 04EF001C Rx 8  23 4C 42 52 23 EC 42 F6 
    195       367.997 DT 0CEF0100 Rx 8  B0 20 00 00 00 63 5C 00 
    196       372.973 DT 18FEF100 Rx 8  FF 1A 00 F0 FF C7 1F FF 
    197       377.236 DT 04EF001C Rx 8  E1 4E 96 40 E1 8E 96 84 
    198       380.184 DT 18FF1C17 Rx 8  00 01 50 00 00 00 00 00 
    199       382.976 DT 0CF00400 Rx 8  FF 7D 7D 00 00 00 FF FF 
    200       387.352 DT 04EF001C Rx 8  A0 51 2D 57 A0 B1 2D B3 
    201       387.996 DT 0CEF0100 Rx 8  B0 20 00 00 00 63 5C 00 
    202       389.692 DT 18FF1CF3 Rx 8  00 00 00 00 00 00 00 00 
    203       392.960 DT 0CEF1100 Rx 8  79 90 32 2A 50 0C FE 6A 
    204       397.455 DT 04EF001C Rx 8  61 54 C2 5A 60 54 C3 5E 
    205       398.015 DT 18FFDC00 Rx 8  40 14 01 00 00 58 7B 19 
    206       402.959 DT 18FFDC00 Rx 8  41 0F 00 00 00 A4 FF DC 
    207       403.539 DT 0CF00300 Rx 8  DF 00 4F FF 00 FF FF FF 
    208       404.115 DT 0CF00400 Rx 8  FF 7D 7D 00 00 00 FF FF 
    209       407.571 DT 04EF001C Rx 8  22 57 9B 41 23 77 9A 65 
    210       408.167 DT 09F20000 Rx 8  00 00 00 FF FF FF FF FF 
    211       408.747 DT 0CEF0100 Rx 8  B0 20 00 00 00 63 5C 00 
    212       409.315 DT 18FFDC00 Rx 8  42 FF FF 9F D3 22 00 FF 
    213       417.686 DT 04EF001C Rx 8  DE 59 10 AF DF 19 11 EB 
    214       422.974 DT 0CF00400 Rx 8  FF 7D 7D 00 00 00 FF FF 
    215       427.785 DT 04EF001C Rx 8  A2 5C 47 4A A3 7C 46 6E 
    216       428.365 DT 0CEF0100 Rx 8  B0 20 00 00 00 63 5C 00 
    217       432.985 DT 18FEF200 Rx 8  00 00 FF FF FF FF 37 FF 
    218       437.906 DT 04EF001C Rx 8  5E 5F A4 A9 5F 5F A5 AD 
    219       438.462 DT 19F10D13 Rx 8  ED 1E 02 22 02 00 00 0D 
    220       439.022 DT 19F21139 Rx 8  00 00 00 FF 24 8A 01 00 
    221       442.973 DT 0CF00400 Rx 8  FF 7D 7D 00 00 00 FF FF 
    222       443.517 DT 0CEF1100 Rx 8  B6 90 07 92 A8 7A 7A 69 
    223       445.730 DT 18FF1080 Rx 8  00 00 00 FF FF FF FD 00 
    224       446.730 DT 18FF1180 Rx 8  03 FF FB FF FF FF 00 FF 
    225       447.974 DT 18FFDC00 Rx 8  60 14 01 00 00 58 7B 19 
    226       448.546 DT 04EF001C Rx 8  1F 42 0F BC 1E 62 0E 98 
    227       449.126 DT 0CEF0100 Rx 8  B0 20 00 00 00 63 5C 00 
    228       452.966 DT 18FFDC00 Rx 8  61 0E 00 00 00 A4 FF DC 
    229       453.546 DT 0CF00300 Rx 8  DF 00 4F FF 00 FF FF FF 
    230       457.954 DT 18FFDC00 Rx 8  62 FF FF 9F D3 22 00 FF 
    231       458.498 DT 04EF001C Rx 8  E0 44 C7 42 E1 44 C6 46 
    232       462.974 DT 0CF00400 Rx 8  FF 7D 7D 00 00 00 FF FF 
    233       467.985 DT 0CEF0100 Rx 8  B0 20 00 00 00 63 5C 00 
    234       468.530 DT 04EF001C Rx 8  2F 48 6E 36 2E 48 6F 32 
    235       472.985 DT 18FEF100 Rx 8  FF 18 00 F0 FF C7 1F FF 
    236       478.357 DT 04EF001C Rx 8  EE 4A B9 3C EF 4A B8 38 
    237       482.973 DT 0CF00400 Rx 8  FF 7D 7D 00 00 00 FF FF 
    238       487.984 DT 0CEF0100 Rx 8  B0 20 00 00 00 63 5C 00 
    239       488.524 DT 04EF001C Rx 8  8B 4D E7 13 8A 6D E6 37 
    240       489.692 DT 18FF1CF3 Rx 8  00 00 00 00 00 00 00 00 
    241       492.956 DT 0CEF1100 Rx 8  E1 82 00 EE DD 85 14 02 
    242       497.968 DT 18FFDC00 Rx 8  80 14 01 00 00 58 7B 19 
    243       498.620 DT 04EF001C Rx 8  70 50 F3 D6 71 50 F2 D2 
    244       502.964 DT 18FFDC00 Rx 8  81 0E 00 00 00 A4 FF DC 
    245       503.544 DT 0CF00300 Rx 8  DF 00 4F FF 00 FF FF FF 
    246       504.120 DT 0CF00400 Rx 8  FF 7D 7D 00 00 00 FF FF 
    247       507.965 DT 18FFDC00 Rx 8  82 FF FF 9F D3 22 00 FF 
    248       508.561 DT 09F20000 Rx 8  00 00 00 FF FF FF FF FF 
    249       509.113 DT 04EF001C Rx 8  2D 53 B4 3D 2C 13 B5 79 
    250       509.693 DT 0CEF0100 Rx 8  B0 20 00 00 00 63 5C 00 
    251       518.788 DT 04EF001C Rx 8  C8 55 66 13 C9 15 67 57 
    252       522.972 DT 0CF00400 Rx 8  FF 7D 7D 00 00 00 FF FF 
    253       527.976 DT 18FEEF00 Rx 8  FF FF FF 00 FF FF FF FF 
    254       528.556 DT 0CEF0100 Rx 8  B0 20 00 00 00 63 5C 00 
    255       529.100 DT 04EF001C Rx 8  B0 58 75 DE B1 18 74 9A 
    256       532.984 DT 18FEF200 Rx 8  00 00 FF FF FF FF 37 FF 
    257       538.108 DT 19F10D13 Rx 8  EE 1D 02 22 02 00 00 0E 
    258       538.672 DT 19F21139 Rx 8  00 00 00 FF 88 8A 01 00 
    259       539.216 DT 04EF001C Rx 8  E1 5A 36 54 E0 1A 37 10 
    260       542.972 DT 0CF00400 Rx 8  FF 7D 7D 00 00 00 FF FF 
    261       543.524 DT 0CEF1100 Rx 8  26 86 17 17 9A FA DF F8 
    262       545.728 DT 18FF1080 Rx 8  00 00 00 FF FF FF FD 00 
    263       546.712 DT 18FF1180 Rx 8  03 FF FB FF FF FF 00 FF 
    264       547.713 DT 18FF1380 Rx 8  00 00 00 00 3F C0 C0 06 
    265       548.293 DT 0CEF0100 Rx 8  B0 20 00 00 00 63 5C 00 
    266       548.853 DT 18FFDC00 Rx 8  A0 14 01 00 00 58 7B 19 
    267       549.401 DT 04EF001C Rx 8  A1 5D 4C 53 A0 1D 4D 17 
    268       552.957 DT 18FFDC00 Rx 8  A1 0D 00 00 00 A4 FF DC 
    269       553.537 DT 0CF00300 Rx 8  DF 00 4F FF 00 FF FF FF 
    270       557.948 DT 18FFDC00 Rx 8  A2 FF FF 9F D3 22 00 FF 
    271       558.529 DT 0CEF1700 Rx 8  01 84 00 00 00 00 FF FF 
    272       559.293 DT 04EF001C Rx 8  86 40 82 76 87 00 83 32 
    273       562.968 DT 0CF00400 Rx 8  FF 7D 7D 00 00 00 FF FF 
    274       564.488 DT 18FF1C17 Rx 8  00 01 50 00 00 00 00 00 
    275       567.980 DT 0CEF0100 Rx 8  B0 20 00 00 00 63 5C 00 
    276       568.556 DT 18FEF600 Rx 8  FF FF 43 2A FF FF FF FF 
    277       569.388 DT 04EF001C Rx 8  45 43 5F 6D 44 63 5E 49 
    278       572.960 DT 18FEF100 Rx 8  FF 15 00 F0 FF C7 1F FF 
    279       579.469 DT 04EF001C Rx 8  DF 45 F1 BB DE 65 F0 9F 
    280       582.968 DT 0CF00400 Rx 8  FF 7D 7D 00 00 00 FF FF 
    281       587.980 DT 0CEF0100 Rx 8  B0 20 00 00 00 63 5C 00 
    282       589.572 DT 04EF001C Rx 8  FE 48 B9 BE FF 48 B8 BA 
    283       590.156 DT 18FF1CF3 Rx 8  00 00 00 00 00 00 00 00 
    284       592.903 DT 0CEF1100 Rx 8  6D B0 37 83 A9 33 04 AB 
    285       597.911 DT 18FFDC00 Rx 8  C0 14 01 00 00 58 7B 19 
    286       599.631 DT 04EF001C Rx 8  93 4B CF D5 93 AB CF 31 
    287       602.907 DT 18FFDC00 Rx 8  C1 0D 00 00 00 A4 FF DC 
    288       603.487 DT 0CF00300 Rx 8  DF 00 4F FF 00 FF FF FF 
    289       604.063 DT 0CF00400 Rx 8  FF 7D 7D 00 00 00 FF FF 
    290       607.906 DT 18FFDC00 Rx 8  C2 FF FF 9F D3 22 00 FF 
    291       608.502 DT 09F20000 Rx 8  00 00 00 FF FF FF FF FF 
    292       609.082 DT 0CEF0100 Rx 8  B0 20 00 00 00 63 5C 00 
    293       609.790 DT 04EF001C Rx 8  53 4E 21 D0 53 EE 21 74 
    294       619.865 DT 04EF001C Rx 8  DE 50 58 A6 DE D0 58 22 
    295       622.921 DT 0CF00400 Rx 8  FF 7D 7D 00 00 00 FF FF 
    296       627.933 DT 0CEF0100 Rx 8  B0 20 00 00 00 63 5C 00 
    297       629.965 DT 04EF001C Rx 8  D3 53 4D CD D3 13 4D 89 
    298       632.933 DT 18FEF200 Rx 8  00 00 FF FF FF FF 37 FF 
    299       635.032 DT 0DF50B9B Rx 8  61 FF FF FF FF 00 00 FF 
    300       638.060 DT 19F10D13 Rx 8  EF 1E 02 22 02 00 00 0D 
    301       638.624 DT 19F21139 Rx 8  00 00 00 FF EC 8A 01 00 
    302       640.084 DT 04EF001C Rx 8  60 56 D3 50 9F B1 2C B3 
    303       642.920 DT 0CF00400 Rx 8  FF 7D 7D 00 00 00 FF FF 
    304       643.461 DT 0CEF1100 Rx 8  AE B4 21 5A E5 5E 5E 09 
    305       645.677 DT 18FF1080 Rx 8  00 00 00 FF FF FF FD 00 
    306       646.661 DT 18FF1180 Rx 8  03 FF FB FF FF FF 00 FF 
    307       647.913 DT 18FFDC00 Rx 8  E0 14 01 00 00 58 7B 19 
    308       648.493 DT 0CEF0100 Rx 8  B0 20 00 00 00 63 5C 00 
    309       650.185 DT 04EF001C Rx 8  B7 59 7A E7 48 9E 85 24 
    310       652.913 DT 18FFDC00 Rx 8  E1 0C 00 00 00 A4 FF DC 
    311       653.493 DT 0CF00300 Rx 8  DF 00 4F FF 00 FF FF FF 
    312       657.905 DT 18FFDC00 Rx 8  E2 FF FF 9F D3 22 00 FF 
    313       660.321 DT 04EF001C Rx 8  A4 5C 41 7A 5B DB BE F9 
    314       662.921 DT 0CF00400 Rx 8  FF 7D 7D 00 00 00 FF FF 
    315       667.933 DT 0CEF0100 Rx 8  B0 20 00 00 00 63 5C 00 
    316       670.432 DT 04EF001C Rx 8  64 5F 9F 79 9B F8 60 DA 
    317       672.917 DT 18FEF100 Rx 8  FF 13 00 F0 FF C7 1F FF 
    318       680.533 DT 04EF001C Rx 8  C9 41 C7 0F 36 C6 38 8C 
    319       682.921 DT 0CF00400 Rx 8  FF 7D 7D 00 00 00 FF FF 
    320       687.932 DT 0CEF0100 Rx 8  B0 20 00 00 00 63 5C 00 
    321       689.652 DT 18FF1CF3 Rx 8  00 00 00 00 00 00 00 00 
    322       690.644 DT 04EF001C Rx 8  8D 44 A9 2A 72 23 56 49 
    323       692.884 DT 0CEF1100 Rx 8  F1 A6 24 66 92 B3 A2 72 
    324       697.912 DT 18FFDC00 Rx 8  00 14 01 00 00 58 7B 19 
    325       700.764 DT 04EF001C Rx 8  6F 47 54 39 90 20 AB 5A 
    326       702.912 DT 18FFDC00 Rx 8  01 0B 00 00 00 A4 FF DC 
    327       703.492 DT 0CF00300 Rx 8  DF 00 4F FF 00 FF FF FF 
    328       704.068 DT 0CF00400 Rx 8  FF 7D 7D 00 00 00 FF FF 
    329       707.916 DT 18FFDC00 Rx 8  02 FF FF 9F D3 22 00 FF 
    330       708.512 DT 09F20000 Rx 8  00 00 00 FF FF FF FF FF 
    331       709.092 DT 0CEF0100 Rx 8  B0 20 00 00 00 63 5C 00 
    332       710.868 DT 04EF001C Rx 8  42 4A 10 5C BD 2D EF 3F 
    333       720.978 DT 04EF001C Rx 8  C8 4C AE 0A 37 6B 51 29 
    334       722.918 DT 0CF00400 Rx 8  FF 7D 7D 00 00 00 FF FF 
    335       723.502 DT 18FECA00 Rx 8  40 FF 00 00 00 00 FF FF 
    336       727.930 DT 0CEF0100 Rx 8  B0 20 00 00 00 63 5C 00 
    337       729.650 DT 0CEF0017 Rx 8  81 04 00 00 00 00 FF FF 
    338       731.090 DT 04EF001C Rx 8  89 4F F5 01 76 48 0A 02 
    339       732.926 DT 18FEF200 Rx 8  00 00 FF FF FF FF 37 FF 
    340       733.494 DT 15FD069B Rx 8  C1 14 73 FF FF FF FF FF 
    341       737.922 DT 18E8FF00 Rx 8  02 FF FF FF FF 00 EF 00 
    342       738.482 DT 19F10D13 Rx 8  F0 1B 02 22 02 00 00 0F 
    343       739.042 DT 19F21139 Rx 8  00 00 00 FF 50 8B 01 00 
    344       741.190 DT 04EF001C Rx 8  DF 51 51 AF 20 56 AE AC 
    345       742.914 DT 0CF00400 Rx 8  FF 7D 7D 00 00 00 FF FF 
    346       743.458 DT 0CEF1100 Rx 8  CD D9 12 9A B6 00 F4 48 
    347       746.667 DT 18FF1080 Rx 8  00 00 00 FF FF FF FD 00 
    348       747.667 DT 18FF1180 Rx 8  03 FF FB FF FF FF 00 FF 
    349       748.247 DT 0CEF0100 Rx 8  B0 20 00 00 00 63 5C 00 
    350       748.831 DT 18FF1380 Rx 8  00 00 00 00 3F C0 C0 06 
    351       749.399 DT 18FFDC00 Rx 8  20 14 01 00 00 59 7B 19 
    352       751.296 DT 04EF001C Rx 8  D6 54 70 E2 29 53 8F E1 
    353       752.916 DT 18FFDC00 Rx 8  21 0B 00 00 00 A4 FF DC 
    354       753.496 DT 0CF00300 Rx 8  DF 00 4F FF 00 FF FF FF 
    355       757.900 DT 18FFDC00 Rx 8  22 FF FF 9F D3 22 00 FF 
    356       761.416 DT 04EF001C Rx 8  61 57 DA 59 9F B0 24 BA 
    357       762.916 DT 0CF00400 Rx 8  FF 7D 7D 00 00 00 FF FF 
    358       764.100 DT 18FF1C17 Rx 8  00 01 50 00 00 00 00 00 
    359       767.928 DT 0CEF0100 Rx 8  B0 20 00 00 00 63 5C 00 
    360       771.531 DT 04EF001C Rx 8  20 5A F1 5C DE BD 0F BF 
    361       772.915 DT 18FEF100 Rx 8  FF 11 00 F0 FF C7 1F FF 
    362       781.630 DT 04EF001C Rx 8  DF 5C 39 A2 21 9B C7 61 
    363       782.914 DT 0CF00400 Rx 8  FF 7D 7D 00 00 00 FF FF 
    364       785.726 DT 09F8021C Rx 8  7C FC 1E 02 00 00 FF FF 
    365       786.694 DT 09F8011C Rx 8  9E 6D 26 18 56 6B 5B C1 
    366       787.730 DT 19FA031C Rx 8  7C D2 84 00 28 01 E5 00 
    367       788.310 DT 0CEF0100 Rx 8  B0 20 00 00 00 63 5C 00 
    368       788.873 DT 0DF0101C Rx 8  7C F0 3C 4F C0 A3 58 20 
    369       789.765 DT 18FEE81C Rx 8  8E 01 00 00 64 63 58 7E 
    370       790.833 DT 19FA041C Rx 8  80 C3 7C FF 10 05 38 31 
    371       791.753 DT 04EF001C Rx 8  B2 40 B7 D6 4C C7 49 55 
    372       792.832 DT 19FA041C Rx 8  81 46 69 68 10 FF FF FF 
    373       793.380 DT 0CEF1100 Rx 8  85 D4 2A D9 FD C1 AC 15 
    374       793.953 DT 19FA041C Rx 8  82 FF FF 06 5E 01 7C 2E 
    375       794.888 DT 19FA041C Rx 8  83 00 00 FF FF FF FF FF 
    376       795.860 DT 19FA041C Rx 8  84 09 5E 01 24 13 00 00 
    377       796.884 DT 19FA041C Rx 8  85 FF FF FF FF FF 0B ED 
    378       797.876 DT 19FA041C Rx 8  86 17 A6 27 AC 0D FF FF 
    379       798.436 DT 18FFDC00 Rx 8  40 14 01 00 00 58 7B 19 
    380       798.996 DT 19FA041C Rx 8  87 FF FF FF 0C 4B 19 84 
    381       799.936 DT 19FA041C Rx 8  88 80 68 10 FF FF FF FF 
    382       800.916 DT 19FA041C Rx 8  89 FF 0D BC 02 F8 5C 00 
    383       801.883 DT 04EF001C Rx 8  19 43 01 8D E7 04 FF CE 
    384       802.911 DT 18FFDC00 Rx 8  41 0A 00 00 00 A4 FF DC 
    385       803.491 DT 0CF00300 Rx 8  DF 00 4F FF 00 FF FF FF 
    386       804.067 DT 0CF00400 Rx 8  FF 7D 7D 00 00 00 FF FF 
    387       804.651 DT 19FA041C Rx 8  8A 00 FF FF FF FF FF 0F 
    388       805.971 DT 19FA041C Rx 8  8B 0D 02 D8 72 00 00 FF 
    389       806.979 DT 19FA041C Rx 8  8C FF FF FF FF 12 E3 08 
    390       807.907 DT 18FFDC00 Rx 8  42 FF FF 9F D3 22 00 FF 
    391       808.503 DT 09F20000 Rx 8  00 00 00 FF FF FF FF FF 
    392       809.083 DT 0CEF0100 Rx 8  B0 20 00 00 00 63 5C 00 
    393       809.667 DT 18FF1CF3 Rx 8  00 00 00 00 00 00 00 00 
    394       810.239 DT 19FA041C Rx 8  8D BC B1 00 00 FF FF FF 
    395       811.023 DT 19FA041C Rx 8  8E FF FF 14 62 2A 04 29 
    396       811.978 DT 04EF001C Rx 8  D6 45 F8 F3 28 02 06 B0 
    397       813.062 DT 19FA041C Rx 8  8F 48 0D FF FF FF FF FF 
    398       814.054 DT 19FA041C Rx 8  90 15 99 25 C0 2B 1C 0C 
    399       815.078 DT 19FA041C Rx 8  91 FF FF FF FF FF 19 7F 
    400       816.089 DT 19FA041C Rx 8  92 21 F6 9F 04 10 FF FF 
    401       817.101 DT 19FA041C Rx 8  93 FF FF FF 1A 00 00 38 
    402       818.117 DT 19FA041C Rx 8  94 E0 00 00 FF FF FF FF 
    403       819.108 DT 19FA041C Rx 8  95 FF 1C AF 00 C6 C0 00 
    404       820.132 DT 19FA041C Rx 8  96 00 FF FF FF FF FF 1D 
    405       821.124 DT 19FA041C Rx 8  97 2E 22 48 D5 D8 0E FF 
    406       822.092 DT 04EF001C Rx 8  97 48 D3 F6 69 4F 2D F5 
    407       822.916 DT 0CF00400 Rx 8  FF 7D 7D 00 00 00 FF FF 
    408       823.488 DT 19FA041C Rx 8  98 FF FF FF FF 1F AF 00 
    409       824.196 DT 19FA041C Rx 8  99 8C D2 98 08 FF FF FF 
    410       825.171 DT 19FA041C Rx 8  9A FF FF 30 A9 1A 30 8E 
    411       826.203 DT 19FA041C Rx 8  9B 3C 0F FF FF FF FF FF 
    412       827.923 DT 0CEF0100 Rx 8  B0 20 00 00 00 63 5C 00 
    413       832.196 DT 04EF001C Rx 8  9F 4A CB B4 62 AD 36 57 
    414       832.928 DT 18FEF200 Rx 8  00 00 FF FF FF FF 37 FF 
    415       838.064 DT 19F10D13 Rx 8  F1 1E 02 22 02 00 00 0D 
    416       838.627 DT 19F21139 Rx 8  00 00 00 FF B4 8B 01 00 
    417       842.307 DT 04EF001C Rx 8  5F 4D 35 B3 A2 EA C8 10 
    418       842.915 DT 0CF00400 Rx 8  FF 7D 7D 00 00 00 FF FF 
    419       843.463 DT 0CEF1100 Rx 8  46 C8 FC 06 8D B1 1F 51 
    420       846.664 DT 18FF1080 Rx 8  00 00 00 FF FF FF FD 00 
    421       847.668 DT 18FF1180 Rx 8  03 FF FB FF FF FF 00 FF 
    422       848.248 DT 0CEF0100 Rx 8  B0 20 00 00 00 63 5C 00 
    423       848.812 DT 18FFDC00 Rx 8  60 14 01 00 00 58 7B 19 
    424       852.416 DT 04EF001C Rx 8  20 50 A1 56 DD D7 5C D5 
    425       852.996 DT 0CF00300 Rx 8  DF 00 4F FF 00 FF FF FF 
    426       853.560 DT 18FFDC00 Rx 8  61 09 00 00 00 A4 FF DC 
    427       857.892 DT 18FFDC00 Rx 8  62 FF FF 9F D3 22 00 FF 
    428       862.531 DT 04EF001C Rx 8  49 53 D3 1D B4 14 2E 5E 
    429       863.108 DT 0CF00400 Rx 8  FF 7D 7D 00 00 00 FF FF 
    430       867.923 DT 0CEF0100 Rx 8  B0 20 00 00 00 63 5C 00 
    431       872.647 DT 04EF001C Rx 8  09 56 B9 18 F4 11 44 5B 
    432       873.215 DT 18FEF100 Rx 8  FF 10 00 F0 FF C7 1F FF 
    433       882.762 DT 04EF001C Rx 8  ED 58 2A 36 10 1F D7 75 
    434       883.338 DT 0CF00400 Rx 8  FF 7D 7D 00 00 00 FF FF 
    435       887.922 DT 0CEF0100 Rx 8  B0 20 00 00 00 63 5C 00 
    436       889.658 DT 18FF1CF3 Rx 8  00 00 00 00 00 00 00 00 
    437       892.866 DT 04EF001C Rx 8  8A 5B 56 0D 77 1C AB 4E 
    438       893.414 DT 0CEF1100 Rx 8  33 F8 62 E3 BC 0A DB 90 
    439       897.906 DT 18FFDC00 Rx 8  80 14 01 00 00 58 7B 19 
    440       902.894 DT 18FFDC00 Rx 8  81 09 00 00 00 A4 FF DC 
    441       903.438 DT 04EF001C Rx 8  49 5E BB 10 B4 79 46 33 
    442       904.018 DT 0CF00300 Rx 8  DF 00 4F FF 00 FF FF FF 
    443       904.594 DT 0CF00400 Rx 8  FF 7D 7D 00 00 00 FF FF 
    444       907.903 DT 18FFDC00 Rx 8  82 FF FF 9F D3 22 00 FF 
    445       908.499 DT 09F20000 Rx 8  00 00 00 FF FF FF FF FF 
    446       909.079 DT 0CEF0100 Rx 8  B0 20 00 00 00 63 5C 00 
    447       913.102 DT 04EF001C Rx 8  2D 41 24 2F D0 66 D9 0C 
    448       922.910 DT 0CF00400 Rx 8  FF 7D 7D 00 00 00 FF FF 
    449       923.458 DT 04EF001C Rx 8  C8 43 D6 05 35 04 2B 46 
    450       927.922 DT 0CEF0100 Rx 8  B0 20 00 00 00 63 5C 00 
    451       932.917 DT 18FEF200 Rx 8  00 00 FF FF FF FF 37 FF 
    452       933.477 DT 04EF001C Rx 8  20 46 11 40 DD 01 EC 03 
    453       938.065 DT 19F10D13 Rx 8  F2 1D 02 22 02 00 00 0E 
    454       938.625 DT 19F21139 Rx 8  00 00 00 FF 18 8C 01 00 
    455       942.909 DT 0CF00400 Rx 8  FF 7D 7D 00 00 00 FF FF 
    456       943.461 DT 04EF001C Rx 8  DE 48 98 BE 23 0F 65 FD 
    457       944.001 DT 0CEF1100 Rx 8  F5 FD 3D 52 F3 6C 98 6A 
    458       947.649 DT 18FF1080 Rx 8  00 00 00 FF FF FF FD 00 
    459       948.229 DT 0CEF0100 Rx 8  B0 20 00 00 00 63 5C 00 
    460       948.818 DT 18FF1180 Rx 8  03 FF FB FF FF FF 00 FF 
    461       949.378 DT 18FFDC00 Rx 8  A0 14 01 00 00 59 7B 19 
    462       949.962 DT 18FF1380 Rx 8  00 00 00 00 3F C0 C0 06 
    463       952.894 DT 18FFDC00 Rx 8  A1 09 00 00 00 A4 FF DC 
    464       953.474 DT 0CF00300 Rx 8  DF 00 4F FF 00 FF FF FF 
    465       954.034 DT 04EF001C Rx 8  A1 4B FC 45 5C 0C 01 06 
    466       957.886 DT 18FFDC00 Rx 8  A2 FF FF 9F D3 22 00 FF 
    467       962.906 DT 0CF00400 Rx 8  FF 7D 7D 00 00 00 FF FF 
    468       963.650 DT 04EF001C Rx 8  5E 4E 2C B8 A3 09 D1 FB 
    469       967.918 DT 0CEF0100 Rx 8  B0 20 00 00 00 63 5C 00 
    470       972.905 DT 18FEF100 Rx 8  FF 0E 00 F0 FF C7 1F FF 
    471       973.773 DT 04EF001C Rx 8  1F 51 97 AF E2 76 6A 8C 
    472       982.905 DT 0CF00400 Rx 8  FF 7D 7D 00 00 00 FF FF 
    473       983.873 DT 04EF001C Rx 8  DE 53 40 A5 23 74 BD 86 
    474       987.918 DT 0CEF0100 Rx 8  B0 20 00 00 00 63 5C 00 
    475       992.886 DT 0CEF1100 Rx 8  AB EE 70 26 86 83 34 41 
    476       993.985 DT 04EF001C Rx 8  9F 56 2B A8 62 71 D6 8B 
    477       997.897 DT 18FFDC00 Rx 8  C0 14 01 00 00 59 7B 19 
    478      1002.905 DT 18FFDC00 Rx 8  C1 08 00 00 00 A4 FF DC 
    479      1003.485 DT 0CF00300 Rx 8  DF 00 4F FF 00 FF FF FF 
    480      1004.061 DT 0CF00400 Rx 8  FF 7D 7D 00 00 00 FF FF 
    481      1004.621 DT 04EF001C Rx 8  CB 59 05 07 36 7E F8 24 
    482      1007.889 DT 18FFDC00 Rx 8  C2 FF FF 9F D3 22 00 FF 
    483      1008.485 DT 09F20000 Rx 8  00 00 00 FF FF FF FF FF 
    484      1009.065 DT 0CEF0100 Rx 8  B0 20 00 00 00 63 5C 00 
    485      1012.917 DT 09F20100 Rx 8  E0 16 00 06 00 FF FF 3D 
    486      1014.201 DT 04EF001C Rx 8  1F 5C FF A2 E2 7B 02 81 
    487      1017.881 DT 09F20100 Rx 8  E1 75 C9 04 00 00 9F D3 
    488      1019.912 DT 18FF2117 Rx 8  06 FF FF FF 00 FF FF FF 
    489      1022.904 DT 0CF00400 Rx 8  FF 7D 7D 00 00 00 FF FF 
    490      1023.476 DT 09F20100 Rx 8  E2 22 00 FF FF FF FF 00 
    491      1024.056 DT 18FEEE00 Rx 8  43 FF FF FF FF FF 41 FF 
    492      1024.620 DT 04EF001C Rx 8  04 5F FC 79 F9 78 01 5A 
    493      1027.904 DT 09F20100 Rx 8  E3 01 00 FF FF FF FF FF 
    494      1028.484 DT 0CEF0100 Rx 8  B0 20 00 00 00 63 5C 00 
    495      1029.064 DT 18FEEF00 Rx 8  FF FF FF 00 FF FF FF FF 
    496      1029.664 DT 18FF1CF3 Rx 8  00 00 00 00 00 00 00 00 
    497      1032.916 DT 18FEF200 Rx 8  00 00 FF FF FF FF 37 FF 
    498      1034.432 DT 04EF001C Rx 8  C4 41 CA 67 38 86 36 A4 
    499      1037.892 DT 18FEF700 Rx 8  FF FF 1A 01 F5 00 F6 00 
    500      1038.444 DT 19F10D13 Rx 8  F3 1D 02 22 02 00 00 0E 
    501      1039.012 DT 19F21139 Rx 8  00 00 00 FF 7C 8C 01 00 
    502      1042.904 DT 0CF00400 Rx 8  FF 7D 7D 00 00 00 FF FF 
    503      1043.460 DT 0CEF1100 Rx 8  62 E0 B4 2D 60 FB 41 31 
    504      1044.540 DT 04EF001C Rx 8  BA 44 9F 92 46 C3 63 11 
    505      1047.672 DT 18FF1080 Rx 8  00 00 00 FF FF FF FD 00 
    506      1048.252 DT 0CEF0100 Rx 8  B0 20 00 00 00 63 5C 00 
    507      1048.841 DT 18FF1180 Rx 8  03 FF FB FF FF FF 00 FF 
    508      1049.401 DT 18FFDC00 Rx 8  E0 14 01 00 00 58 7B 19 
    509      1052.897 DT 18FFDC00 Rx 8  E1 08 00 00 00 A4 FF DC 
    510      1053.477 DT 0CF00300 Rx 8  DF 00 4F FF 00 FF FF FF 
    511      1054.656 DT 04EF001C Rx 8  7B 47 40 99 87 20 BC FA 
    512      1057.884 DT 18FFDC00 Rx 8  E2 FF FF 9F D3 22 00 FF 
    513      1058.464 DT 0CEF1700 Rx 8  01 84 00 00 00 00 FF FF 
    514      1062.900 DT 0CF00400 Rx 8  FF 7D 7D 00 00 00 FF FF 
    515      1063.492 DT 18FEFC00 Rx 8  FF DC FF FF FF FF FF FF 
    516      1064.781 DT 04EF001C Rx 8  CC 4A 9A 2C 30 2D 66 4F 
    517      1067.917 DT 0CEF0100 Rx 8  B0 20 00 00 00 63 5C 00 
    518      1068.493 DT 18FEF600 Rx 8  FF FF 43 2A FF FF FF FF 
    519      1072.905 DT 18FEF100 Rx 8  FF 0D 00 F0 FF C7 1F FF 
    520      1074.481 DT 18FF1C17 Rx 8  00 01 50 00 00 00 00 00 
    521      1075.029 DT 04EF001C Rx 8  68 4D 03 0B 94 2A FF 68 
    522      1082.900 DT 0CF00400 Rx 8  FF 7D 7D 00 00 00 FF FF 
    523      1085.000 DT 04EF001C Rx 8  00 50 80 56 FC 37 7C 35 
    524      1087.912 DT 0CEF0100 Rx 8  B0 20 00 00 00 63 5C 00 
    525      1089.660 DT 18FF1CF3 Rx 8  00 00 00 00 00 00 00 00 
    526      1092.872 DT 0CEF1100 Rx 8  23 9C 46 79 D7 36 3C D0 
    527      1095.096 DT 04EF001C Rx 8  E5 52 72 7C 19 D5 8E FF 
    528      1097.896 DT 18FFDC00 Rx 8  00 14 01 00 00 58 7B 19 
    529      1102.895 DT 18FFDC00 Rx 8  01 08 00 00 00 A4 FF DC 
    530      1103.475 DT 0CF00300 Rx 8  DF 00 4F FF 00 FF FF FF 
    531      1104.051 DT 0CF00400 Rx 8  FF 7D 7D 00 00 00 FF FF 
    532      1105.223 DT 04EF001C Rx 8  1D 56 AD B8 E1 D1 51 3B 
    533      1107.895 DT 18FFDC00 Rx 8  02 FF FF 9F D3 22 00 FF 
    534      1108.491 DT 09F20000 Rx 8  00 00 00 FF FF FF FF FF 
    535      1109.071 DT 0CEF0100 Rx 8  B0 20 00 00 00 63 5C 00 
    536      1115.311 DT 04EF001C Rx 8  09 58 C9 16 F5 FF 35 B5 
    537      1122.898 DT 0CF00400 Rx 8  FF 7D 7D 00 00 00 FF FF 
    538      1125.438 DT 04EF001C Rx 8  24 5B FD 7D D8 9C 01 BE 
    539      1127.910 DT 0CEF0100 Rx 8  B0 20 00 00 00 63 5C 00 
    540      1132.910 DT 18FEF200 Rx 8  00 00 FF FF FF FF 37 FF 
    541      1135.518 DT 04EF001C Rx 8  20 5D C9 5B DC 9A 35 98 
    542      1138.066 DT 19F10D13 Rx 8  F4 1D 02 22 02 00 00 0E 
    543      1138.638 DT 19F21139 Rx 8  00 00 00 FF E0 8C 01 00 
    544      1142.899 DT 0CF00400 Rx 8  FF 7D 7D 00 00 00 FF FF 
    545      1143.447 DT 0CEF1100 Rx 8  6C 90 37 C2 A1 79 54 A1 
    546      1145.643 DT 04EF001C Rx 8  16 40 16 F6 EA A7 EA 15 
    547      1147.903 DT 18FFDC00 Rx 8  20 14 01 00 00 58 7B 19 
    548      1148.483 DT 0CEF0100 Rx 8  B0 20 00 00 00 63 5C 00 
    549      1149.071 DT 18FF1080 Rx 8  00 00 00 FF FF FF FD 00 
    550      1150.648 DT 18FF1180 Rx 8  03 FF FB FF FF FF 00 FF 
    551      1151.648 DT 18FF1380 Rx 8  00 00 00 00 3F C0 C0 06 
    552      1152.892 DT 18FFDC00 Rx 8  21 07 00 00 00 A4 FF DC 
    553      1153.472 DT 0CF00300 Rx 8  DF 00 4F FF 00 FF FF FF 
    554      1155.747 DT 04EF001C Rx 8  D3 42 C5 DC 2F 85 39 1F 
    555      1157.884 DT 18FFDC00 Rx 8  22 FF FF 9F D3 22 00 FF 
    556      1162.899 DT 0CF00400 Rx 8  FF 7D 7D 00 00 00 FF FF 
    557      1165.847 DT 04EF001C Rx 8  5F 45 75 BB A3 A2 89 58 
    558      1167.911 DT 0CEF0100 Rx 8  B0 20 00 00 00 63 5C 00 
    559      1169.659 DT 0CEA1C00 Rx 8  00 EE 00 00 00 00 00 00 
    560      1170.963 DT 18EEFF1C Rx 8  02 04 45 0E 00 00 00 42 
    561      1172.903 DT 18FEF100 Rx 8  FF 0C 00 F0 FF C7 1F FF 
    562      1175.975 DT 04EF001C Rx 8  20 48 61 4E DC AF 9D AD 
    563      1182.898 DT 0CF00400 Rx 8  FF 7D 7D 00 00 00 FF FF 
    564      1186.074 DT 04EF001C Rx 8  DE 4A 88 BC 22 AD 74 5F 
    565      1187.910 DT 0CEF0100 Rx 8  B0 20 00 00 00 63 5C 00 
    566      1189.662 DT 18FF1CF3 Rx 8  00 00 00 00 00 00 00 00 
    567      1192.874 DT 0CEF1100 Rx 8  BB 82 14 BE F5 A6 1B C3 
    568      1196.186 DT 04EF001C Rx 8  A1 4D CC 43 5D AA 30 A0 
    569      1197.886 DT 18FFDC00 Rx 8  40 14 01 00 00 59 7B 19 
    570      1202.886 DT 18FFDC00 Rx 8  41 06 00 00 00 A4 FF DC 
    571      1203.466 DT 0CF00300 Rx 8  DF 00 4F FF 00 FF FF FF 
    572      1204.042 DT 0CF00400 Rx 8  FF 7D 7D 00 00 00 FF FF 
    573      1206.302 DT 04EF001C Rx 8  93 50 17 CE 6E 57 EA CD 
    574      1207.886 DT 18FFDC00 Rx 8  42 FF FF 9F D3 22 00 FF 
    575      1208.482 DT 09F20000 Rx 8  00 00 00 FF FF FF FF FF 
    576      1209.062 DT 0CEF0100 Rx 8  B0 20 00 00 00 63 5C 00 
    577      1209.662 DT 0CEF0017 Rx 8  81 04 00 00 00 00 FF FF 
    578      1216.409 DT 04EF001C Rx 8  1F 53 87 AD E2 54 7A AE 
    579      1217.905 DT 18E8FF00 Rx 8  02 FF FF FF FF 00 EF 00 
    580      1222.894 DT 0CF00400 Rx 8  FF 7D 7D 00 00 00 FF FF 
    581      1226.513 DT 04EF001C Rx 8  DE 55 70 A3 22 B2 8C 40 
    582      1227.909 DT 0CEF0100 Rx 8  B0 20 00 00 00 63 5C 00 
    583      1231.357 DT 15FD069B Rx 8  C2 14 73 FF FF FF FF FF 
    584      1232.905 DT 18FEF200 Rx 8  00 00 FF FF FF FF 37 FF 
    585      1236.629 DT 04EF001C Rx 8  9F 58 5B A6 63 BF A7 45 
    586      1238.061 DT 19F10D13 Rx 8  F5 1D 02 22 02 00 00 0E 
    587      1238.621 DT 19F21139 Rx 8  00 00 00 FF 44 8D 01 00 
    588      1242.893 DT 0CF00400 Rx 8  FF 7D 7D 00 00 00 FF FF 
    589      1243.441 DT 0CEF1100 Rx 8  F0 86 24 27 9A F9 F2 78 
    590      1246.736 DT 04EF001C Rx 8  5F 5B 85 A5 A3 BC 79 46 
    591      1247.892 DT 18FFDC00 Rx 8  60 14 01 00 00 58 7B 19 
    592      1248.472 DT 0CEF0100 Rx 8  B0 20 00 00 00 63 5C 00 
    593      1249.061 DT 18FF1080 Rx 8  00 00 00 FF FF FF FD 00 
    594      1250.657 DT 18FF1180 Rx 8  03 FF FB FF FF FF 00 FF 
    595      1252.889 DT 18FFDC00 Rx 8  61 06 00 00 00 A4 FF DC 
    596      1253.469 DT 0CF00300 Rx 8  DF 00 4F FF 00 FF FF FF 
    597      1256.857 DT 04EF001C Rx 8  20 5E D1 58 DC 99 2D 9B 
    598      1257.877 DT 18FFDC00 Rx 8  62 FF FF 9F D3 22 00 FF 
    599      1262.893 DT 0CF00400 Rx 8  FF 7D 7D 00 00 00 FF FF 
    600      1266.980 DT 04EF001C Rx 8  48 41 42 07 B4 86 BE C4 
    601      1267.909 DT 0CEF0100 Rx 8  B0 20 00 00 00 63 5C 00 
    602      1272.884 DT 18FEF100 Rx 8  FF 0B 00 F0 FF C7 1F FF 
    603      1274.280 DT 18FF1C17 Rx 8  00 01 50 00 00 00 00 00 
    604      1277.084 DT 04EF001C Rx 8  0A 44 2A 12 F6 A3 D6 F1 
    605      1282.892 DT 0CF00400 Rx 8  FF 7D 7D 00 00 00 FF FF 
    606      1287.199 DT 04EF001C Rx 8  ED 46 DA 28 11 81 26 EB 
    607      1287.907 DT 0CEF0100 Rx 8  B0 20 00 00 00 63 5C 00 
    608      1289.667 DT 18FF1CF3 Rx 8  00 00 00 00 00 00 00 00 
    609      1292.863 DT 0CEF1100 Rx 8  05 B6 9E C2 8A 62 17 B0 
    610      1293.447 DT 09F8021C Rx 8  7D FC 1E 02 00 00 FF FF 
    611      1294.303 DT 09F8011C Rx 8  A0 6D 26 18 54 6B 5B C1 
    612      1295.319 DT 19FA031C Rx 8  7D D2 84 00 28 01 E5 00 
    613      1296.330 DT 0DF0101C Rx 8  7D F0 3C 4F C0 A3 58 20 
    614      1297.322 DT 04EF001C Rx 8  CC 49 82 2F 30 EE 7E 8C 
    615      1297.898 DT 18FFDC00 Rx 8  80 14 01 00 00 58 7B 19 
    616      1298.458 DT 18FEE81C Rx 8  8E 01 00 00 70 63 58 7E 
    617      1302.891 DT 18FFDC00 Rx 8  81 06 00 00 00 A4 FF DC 
    618      1303.471 DT 0CF00300 Rx 8  DF 00 4F FF 00 FF FF FF 
    619      1304.047 DT 0CF00400 Rx 8  FF 7D 7D 00 00 00 FF FF 
    620      1307.419 DT 04EF001C Rx 8  51 4C 33 C2 AD EB CF 61 
    621      1308.015 DT 09F20000 Rx 8  00 00 00 FF FF FF FF FF 
    622      1308.595 DT 0CEF0100 Rx 8  B0 20 00 00 00 63 5C 00 
    623      1309.167 DT 18FFDC00 Rx 8  82 FF FF 9F D3 22 00 FF 
    624      1309.727 DT 19FA041C Rx 8  A0 C3 7D FF 10 05 38 31 
    625      1310.574 DT 19FA041C Rx 8  A1 46 69 04 10 FF FF FF 
    626      1311.546 DT 19FA041C Rx 8  A2 FF FF 06 5E 01 7C 2E 
    627      1312.562 DT 19FA041C Rx 8  A3 00 00 FF FF FF FF FF 
    628      1313.566 DT 19FA041C Rx 8  A4 09 5E 01 24 13 00 00 
    629      1314.582 DT 19FA041C Rx 8  A5 FF FF FF FF FF 0B ED 
    630      1315.586 DT 19FA041C Rx 8  A6 17 A6 27 AC 0D FF FF 
    631      1316.601 DT 19FA041C Rx 8  A7 FF FF FF 0C 4B 19 84 
    632      1317.541 DT 04EF001C Rx 8  E1 4F 9E 41 1D 28 62 22 
    633      1318.625 DT 19FA041C Rx 8  A8 80 68 10 FF FF FF FF 
    634      1319.637 DT 19FA041C Rx 8  A9 FF 0D BC 02 F8 5C 00 
    635      1320.648 DT 19FA041C Rx 8  AA 00 FF FF FF FF FF 0F 
    636      1321.668 DT 19FA041C Rx 8  AB 0D 02 D8 72 00 00 FF 
    637      1322.676 DT 19FA041C Rx 8  AC FF FF FF FF 12 E3 08 
    638      1323.252 DT 0CF00400 Rx 8  FF 7D 7D 00 00 00 FF FF 
    639      1323.820 DT 19FA041C Rx 8  AD BC B1 00 00 FF FF FF 
    640      1324.696 DT 19FA041C Rx 8  AE FF FF 14 62 2A 04 29 
    641      1325.699 DT 19FA041C Rx 8  AF 48 0D FF FF FF FF FF 
    642      1326.691 DT 19FA041C Rx 8  B0 15 99 25 C0 2B 1C 0C 
    643      1327.647 DT 04EF001C Rx 8  86 52 12 64 7A 35 EE 07 
    644      1328.227 DT 0CEF0100 Rx 8  B0 20 00 00 00 63 5C 00 
    645      1328.803 DT 19FA041C Rx 8  B1 FF FF FF FF FF 19 7F 
    646      1329.787 DT 19FA041C Rx 8  B2 21 F6 9F 04 10 FF FF 
    647      1330.739 DT 19FA041C Rx 8  B3 FF FF FF 1A 00 00 38 
    648      1331.754 DT 19FA041C Rx 8  B4 E0 00 00 FF FF FF FF 
    649      1332.770 DT 19FA041C Rx 8  B5 FF 1C AF 00 C6 C0 00 
    650      1333.354 DT 18FEF200 Rx 8  00 00 FF FF FF FF 37 FF 
    651      1333.934 DT 19FA041C Rx 8  B6 00 FF FF FF FF FF 1D 
    652      1334.790 DT 19FA041C Rx 8  B7 2E 22 48 D5 D8 0E FF 
    653      1335.794 DT 19FA041C Rx 8  B8 FF FF FF FF 1F AF 00 
    654      1336.797 DT 19FA041C Rx 8  B9 8C D2 34 08 FF FF FF 
    655      1337.737 DT 04EF001C Rx 8  CF 54 69 2A 33 33 95 49 
    656      1338.289 DT 19F10D13 Rx 8  F6 1E 02 22 02 00 00 0D 
    657      1338.853 DT 19F21139 Rx 8  00 00 00 FF A8 8D 01 00 
    658      1339.405 DT 19FA041C Rx 8  BA FF FF 30 A9 1A 30 8E 
    659      1340.853 DT 19FA041C Rx 8  BB 3C 0F FF FF FF FF FF 
    660      1342.889 DT 0CF00400 Rx 8  FF 7D 7D 00 00 00 FF FF 
    661      1343.437 DT 0CEF1100 Rx 8  47 B7 C4 52 52 2D 39 F2 
    662      1347.852 DT 04EF001C Rx 8  DE 56 68 A0 22 31 94 C3 
    663      1348.433 DT 0CEF0100 Rx 8  B0 20 00 00 00 63 5C 00 
    664      1348.993 DT 18FFDC00 Rx 8  A0 14 01 00 00 58 7B 19 
    665      1349.649 DT 18FF1080 Rx 8  00 00 00 FF FF FF FD 00 
    666      1350.633 DT 18FF1180 Rx 8  03 FF FB FF FF FF 00 FF 
    667      1351.634 DT 18FF1380 Rx 8  00 00 00 00 3F C0 C0 06 
    668      1352.885 DT 18FFDC00 Rx 8  A1 06 00 00 00 A4 FF DC 
    669      1353.466 DT 0CF00300 Rx 8  DF 00 4F FF 00 FF FF FF 
    670      1357.869 DT 18FFDC00 Rx 8  A2 FF FF 9F D3 22 00 FF 
    671      1358.413 DT 04EF001C Rx 8  9F 59 53 A7 63 DE AF 24 
    672      1362.889 DT 0CF00400 Rx 8  FF 7D 7D 00 00 00 FF FF 
    673      1367.901 DT 0CEF0100 Rx 8  B0 20 00 00 00 63 5C 00 
    674      1368.453 DT 04EF001C Rx 8  5E 5C BC AA A2 FB 40 09 
    675      1372.885 DT 18FEF100 Rx 8  FF 0A 00 F0 FF C7 1F FF 
    676      1378.201 DT 04EF001C Rx 8  1F 5F E7 A1 E3 F8 1B 02 
    677      1382.889 DT 0CF00400 Rx 8  FF 7D 7D 00 00 00 FF FF 
    678      1387.901 DT 0CEF0100 Rx 8  B0 20 00 00 00 63 5C 00 
    679      1388.445 DT 04EF001C Rx 8  DE 41 D0 B7 22 86 2C 74 
    680      1389.669 DT 18FF1CF3 Rx 8  00 00 00 00 00 00 00 00 
    681      1392.857 DT 0CEF1100 Rx 8  8D A0 88 87 0A CE D1 B0 
    682      1397.877 DT 18FFDC00 Rx 8  C0 14 01 00 00 58 7B 19 
    683      1398.425 DT 04EF001C Rx 8  9F 44 BB BA 63 83 47 79 
    684      1402.877 DT 18FFDC00 Rx 8  C1 05 00 00 00 A4 FF DC 
    685      1403.457 DT 0CF00300 Rx 8  DF 00 4F FF 00 FF FF FF 
    686      1404.033 DT 0CF00400 Rx 8  FF 7D 7D 00 00 00 FF FF 
    687      1407.873 DT 18FFDC00 Rx 8  C2 FF FF 9F D3 22 00 FF 
    688      1408.469 DT 09F20000 Rx 8  00 00 00 FF FF FF FF FF 
    689      1409.016 DT 04EF001C Rx 8  61 47 5A 49 9C 40 A7 4A 
    690      1409.596 DT 0CEF0100 Rx 8  B0 20 00 00 00 63 5C 00 
    691      1418.632 DT 04EF001C Rx 8  1F 4A 4F B4 E2 4D B2 B7 
    692      1422.888 DT 0CF00400 Rx 8  FF 7D 7D 00 00 00 FF FF 
    693      1427.899 DT 0CEF0100 Rx 8  B0 20 00 00 00 63 5C 00 
    694      1428.751 DT 04EF001C Rx 8  DE 4C B8 BA 22 AB 44 59 
    695      1432.895 DT 18FEF200 Rx 8  00 00 FF FF FF FF 37 FF 
    696      1438.059 DT 19F10D13 Rx 8  F7 1D 02 22 02 00 00 0E 
    697      1438.619 DT 19F21139 Rx 8  00 00 00 FF 0C 8E 01 00 
    698      1439.183 DT 04EF001C Rx 8  9F 4F E3 B1 63 E8 1F 12 
    699      1442.883 DT 0CF00400 Rx 8  FF 7D 7D 00 00 00 FF FF 
    700      1443.419 DT 0CEF1100 Rx 8  CE A4 BA 5E 6D 98 72 4B 
    701      1447.878 DT 18FFDC00 Rx 8  E0 14 01 00 00 58 7B 19 
    702      1448.458 DT 0CEF0100 Rx 8  B0 20 00 00 00 63 5C 00 
    703      1449.006 DT 04EF001C Rx 8  5E 52 CC A4 A2 F5 30 07 
    704      1449.631 DT 18FF1080 Rx 8  00 00 00 FF FF FF FD 00 
    705      1450.635 DT 18FF1180 Rx 8  03 FF FB FF FF FF 00 FF 
    706      1452.879 DT 18FFDC00 Rx 8  E1 05 00 00 00 A4 FF DC 
    707      1453.459 DT 0CF00300 Rx 8  DF 00 4F FF 00 FF FF FF 
    708      1457.868 DT 18FFDC00 Rx 8  E2 FF FF 9F D3 22 00 FF 
    709      1459.100 DT 04EF001C Rx 8  89 55 25 1B 75 92 D9 D8 
    710      1462.884 DT 0CF00400 Rx 8  FF 7D 7D 00 00 00 FF FF 
    711      1467.895 DT 0CEF0100 Rx 8  B0 20 00 00 00 63 5C 00 
    712      1469.235 DT 04EF001C Rx 8  70 58 B3 DE 8C 9F 4F 1D 
    713      1472.879 DT 18FEF100 Rx 8  FF 09 00 F0 FF C7 1F FF 
    714      1479.311 DT 04EF001C Rx 8  09 5B D1 15 F5 FC 2D B6 
    715      1482.883 DT 0CF00400 Rx 8  FF 7D 7D 00 00 00 FF FF 
    716      1487.894 DT 0CEF0100 Rx 8  B0 20 00 00 00 63 5C 00 
    717      1489.442 DT 04EF001C Rx 8  14 5E E4 F8 E9 79 19 DB 
    718      1492.870 DT 0CEF1100 Rx 8  FE D6 A7 C1 19 68 7D F0 
    719      1497.878 DT 18FFDC00 Rx 8  00 14 01 00 00 58 7B 19 
    720      1499.534 DT 04EF001C Rx 8  E8 40 EF 06 14 A7 13 E5 
    721      1502.878 DT 18FFDC00 Rx 8  01 04 00 00 00 A4 FF DC 
    722      1503.458 DT 0CF00300 Rx 8  DF 00 4F FF 00 FF FF FF 
    723      1504.034 DT 0CF00400 Rx 8  FF 7D 7D 00 00 00 FF FF 
    724      1507.878 DT 18FFDC00 Rx 8  02 FF FF 9F D3 22 00 FF 
    725      1508.474 DT 09F20000 Rx 8  00 00 00 FF FF FF FF FF 
    726      1509.054 DT 0CEF0100 Rx 8  B0 20 00 00 00 63 5C 00 
    727      1509.670 DT 18FF1CF3 Rx 8  00 00 00 00 00 00 00 00 
    728      1510.214 DT 04EF001C Rx 8  A4 43 B9 65 59 44 44 66 
    729      1519.765 DT 04EF001C Rx 8  2E 46 1F 30 D3 41 E2 33 
    730      1522.881 DT 0CF00400 Rx 8  FF 7D 7D 00 00 00 FF FF 
    731      1527.885 DT 18FEEF00 Rx 8  FF FF FF 00 FF FF FF FF 
    732      1528.465 DT 0CEF0100 Rx 8  B0 20 00 00 00 63 5C 00 
    733      1529.909 DT 04EF001C Rx 8  27 49 6E 77 DA 4E 93 74 
    734      1532.893 DT 18FEF200 Rx 8  00 00 FF FF FF FF 37 FF 
    735      1538.074 DT 19F10D13 Rx 8  F8 20 02 22 02 00 00 0C 
    736      1538.634 DT 19F21139 Rx 8  00 00 00 FF 70 8E 01 00 
    737      1539.962 DT 04EF001C Rx 8  1F 4B 47 B5 E2 4C BA B6 
    738      1542.882 DT 0CF00400 Rx 8  FF 7D 7D 00 00 00 FF FF 
    739      1543.426 DT 0CEF1100 Rx 8  AF CA 51 0E C6 83 37 48 
    740      1547.885 DT 18FFDC00 Rx 8  20 14 01 00 00 58 7B 19 
    741      1548.465 DT 0CEF0100 Rx 8  B0 20 00 00 00 63 5C 00 
    742      1550.069 DT 04EF001C Rx 8  72 4E 01 D8 8F 29 FC BB 
    743      1550.658 DT 18FF1080 Rx 8  00 00 00 FF FF FF FD 00 
    744      1551.242 DT 18FF1C17 Rx 8  00 01 50 00 00 00 00 00 
    745      1551.831 DT 18FF1180 Rx 8  03 FF FB FF FF FF 00 FF 
    746      1552.643 DT 18FF1380 Rx 8  00 00 00 00 3F C0 C0 06 
    747      1553.223 DT 0CF00300 Rx 8  DF 00 4F FF 00 FF FF FF 
    748      1553.799 DT 18FFDC00 Rx 8  21 04 00 00 00 A4 FF DC 
    749      1557.863 DT 18FFDC00 Rx 8  22 FF FF 9F D3 22 00 FF 
    750      1558.443 DT 0CEF1700 Rx 8  01 84 00 00 00 00 FF FF 
    751      1560.195 DT 04EF001C Rx 8  0B 51 83 0F F6 16 7E 4C 
    752      1562.879 DT 0CF00400 Rx 8  FF 7D 7D 00 00 00 FF FF 
    753      1567.894 DT 0CEF0100 Rx 8  B0 20 00 00 00 63 5C 00 
    754      1568.470 DT 18FEF600 Rx 8  FF FF 43 2A FF FF FF FF 
    755      1570.294 DT 04EF001C Rx 8  CD 53 53 3D 30 14 AE 7E 
    756      1572.882 DT 18FEF100 Rx 8  FF 08 00 F0 FF C7 1F FF 
    757      1580.413 DT 04EF001C Rx 8  1F 56 AF A8 E2 31 52 CB 
    758      1582.877 DT 0CF00400 Rx 8  FF 7D 7D 00 00 00 FF FF 
    759      1587.893 DT 0CEF0100 Rx 8  B0 20 00 00 00 63 5C 00 
    760      1589.673 DT 18FF1CF3 Rx 8  00 00 00 00 00 00 00 00 
    761      1590.517 DT 04EF001C Rx 8  DE 58 18 AE 23 DF E5 2D 
    762      1592.853 DT 0CEF1100 Rx 8  66 C4 95 05 2A E0 9A 68 
    763      1597.868 DT 18FFDC00 Rx 8  40 14 01 00 00 58 7B 19 
    764      1600.628 DT 04EF001C Rx 8  A2 5B 7F 4D 5F 9C 82 8E 
    765      1602.868 DT 18FFDC00 Rx 8  41 04 00 00 00 A4 FF DC 
    766      1603.448 DT 0CF00300 Rx 8  DF 00 4F FF 00 FF FF FF 
    767      1604.024 DT 0CF00400 Rx 8  FF 7D 7D 00 00 00 FF FF 
    768      1607.864 DT 18FFDC00 Rx 8  42 FF FF 9F D3 22 00 FF 
    769      1608.460 DT 09F20000 Rx 8  00 00 00 FF FF FF FF FF 
    770      1609.040 DT 0CEF0100 Rx 8  B0 20 00 00 00 63 5C 00 
    771      1610.736 DT 04EF001C Rx 8  BC 5E 49 B8 41 D9 B4 3B 
    772      1620.863 DT 04EF001C Rx 8  20 41 29 47 DD 06 D4 04 
    773      1622.875 DT 0CF00400 Rx 8  FF 7D 7D 00 00 00 FF FF 
    774      1627.887 DT 0CEF0100 Rx 8  B0 20 00 00 00 63 5C 00 
    775      1630.955 DT 04EF001C Rx 8  DE 43 C0 B5 23 C4 3D 36 
    776      1631.527 DT 0DF50B9B Rx 8  62 FF FF FF FF 00 00 FF 
    777      1632.887 DT 18FEF200 Rx 8  00 00 FF FF FF FF 37 FF 
    778      1638.075 DT 19F10D13 Rx 8  F9 20 02 22 02 00 00 0C 
    779      1638.639 DT 19F21139 Rx 8  00 00 00 FF D4 8E 01 00 
    780      1641.070 DT 04EF001C Rx 8  A2 46 97 50 5F A1 6A B3 
    781      1642.874 DT 0CF00400 Rx 8  FF 7D 7D 00 00 00 FF FF 
    782      1643.422 DT 0CEF1100 Rx 8  27 F8 67 43 07 26 BB 49 
    783      1647.874 DT 18FFDC00 Rx 8  60 14 01 00 00 58 7B 19 
    784      1648.454 DT 0CEF0100 Rx 8  B0 20 00 00 00 63 5C 00 
    785      1650.635 DT 18FF1080 Rx 8  00 00 00 FF FF FF FD 00 
    786      1651.187 DT 04EF001C Rx 8  5E 49 14 BF A3 EE E9 1C 
    787      1651.775 DT 18FF1180 Rx 8  03 FF FB FF FF FF 00 FF 
    788      1652.875 DT 18FFDC00 Rx 8  61 04 00 00 00 A4 FF DC 
    789      1653.455 DT 0CF00300 Rx 8  DF 00 4F FF 00 FF FF FF 
    790      1657.855 DT 18FFDC00 Rx 8  62 FF FF 9F D3 22 00 FF 
    791      1661.311 DT 04EF001C Rx 8  89 4C ED 02 74 0B 10 41 
    792      1662.875 DT 0CF00400 Rx 8  FF 7D 7D 00 00 00 FF FF 
    793      1667.886 DT 0CEF0100 Rx 8  B0 20 00 00 00 63 5C 00 
    794      1671.411 DT 04EF001C Rx 8  48 4F 32 09 B5 68 CF 2A 
    795      1672.875 DT 18FEF100 Rx 8  FF 07 00 F0 FF C7 1F FF 
    796      1681.538 DT 04EF001C Rx 8  2D 52 BC 3C D0 35 41 5F 
    797      1682.874 DT 0CF00400 Rx 8  FF 7D 7D 00 00 00 FF FF 
    798      1687.886 DT 0CEF0100 Rx 8  B0 20 00 00 00 63 5C 00 
    799      1691.630 DT 04EF001C Rx 8  C9 54 6F 1A 34 33 92 79 
    800      1692.846 DT 0CEF1100 Rx 8  F6 EA 45 8F D2 74 99 A7 
    801      1697.869 DT 18FFDC00 Rx 8  80 14 01 00 00 58 7B 19 
    802      1701.749 DT 04EF001C Rx 8  89 57 35 19 74 70 C8 3A 
    803      1702.869 DT 18FFDC00 Rx 8  81 04 00 00 00 A4 FF DC 
    804      1703.449 DT 0CF00300 Rx 8  DF 00 4F FF 00 FF FF FF 
    805      1704.025 DT 0CF00400 Rx 8  FF 7D 7D 00 00 00 FF FF 
    806      1707.865 DT 18FFDC00 Rx 8  82 FF FF 9F D3 22 00 FF 
    807      1708.461 DT 09F20000 Rx 8  00 00 00 FF FF FF FF FF 
    808      1709.041 DT 0CEF0100 Rx 8  B0 20 00 00 00 63 5C 00 
    809      1711.865 DT 04EF001C Rx 8  6C 5A BF 3C 90 BD 43 DF 
    810      1721.992 DT 04EF001C Rx 8  0A 5D E2 0B F7 7A 1F 28 
    811      1722.876 DT 0CF00400 Rx 8  FF 7D 7D 00 00 00 FF FF 
    812      1723.460 DT 18FECA00 Rx 8  40 FF 00 00 00 00 FF FF 
    813      1727.883 DT 0CEF0100 Rx 8  B0 20 00 00 00 63 5C 00 
    814      1729.671 DT 0CEF0017 Rx 8  81 04 00 00 00 00 FF FF 
    815      1732.063 DT 04EF001C Rx 8  5E 5F A4 A9 A3 78 59 8A 
    816      1732.887 DT 18FEF200 Rx 8  00 00 FF FF FF FF 37 FF 
    817      1734.059 DT 18FF1C17 Rx 8  00 01 50 00 00 00 00 00 
    818      1735.983 DT 15FD069B Rx 8  C3 14 73 FF FF FF FF FF 
    819      1737.875 DT 18E8FF00 Rx 8  02 FF FF FF FF 00 EF 00 
    820      1738.439 DT 19F10D13 Rx 8  FA 20 02 22 02 00 00 0C 
    821      1738.999 DT 19F21139 Rx 8  00 00 00 FF 38 8F 01 00 
    822      1742.183 DT 04EF001C Rx 8  20 42 31 44 DD 65 CC 67 
    823      1742.875 DT 0CF00400 Rx 8  FF 7D 7D 00 00 00 FF FF 
    824      1743.415 DT 0CEF1100 Rx 8  B4 ED AF 1E 33 A0 EE 28 
    825      1747.867 DT 18FFDC00 Rx 8  A0 14 01 00 00 58 7B 19 
    826      1748.447 DT 0CEF0100 Rx 8  B0 20 00 00 00 63 5C 00 
    827      1749.675 DT 18FF1CF3 Rx 8  00 00 00 00 00 00 00 00 
    828      1751.620 DT 18FF1080 Rx 8  00 00 00 FF FF FF FD 00 
    829      1752.292 DT 04EF001C Rx 8  E2 44 C5 52 1F 63 38 71 
    830      1752.881 DT 18FF1180 Rx 8  03 FF FB FF FF FF 00 FF 
    831      1753.461 DT 0CF00300 Rx 8  DF 00 4F FF 00 FF FF FF 
    832      1754.045 DT 18FF1380 Rx 8  00 00 00 00 3F C0 C0 06 
    833      1754.621 DT 18FFDC00 Rx 8  A1 04 00 00 00 A4 FF DC 
    834      1757.853 DT 18FFDC00 Rx 8  A2 FF FF 9F D3 22 00 FF 
    835      1762.401 DT 04EF001C Rx 8  9F 47 A3 B9 62 60 5E 9A 
    836      1762.977 DT 0CF00400 Rx 8  FF 7D 7D 00 00 00 FF FF 
    837      1767.885 DT 0CEF0100 Rx 8  B0 20 00 00 00 63 5C 00 
    838      1772.512 DT 04EF001C Rx 8  62 4A 31 5C 9F CD CC DF 
    839      1773.084 DT 18FEF100 Rx 8  FF 06 00 F0 FF C7 1F FF 
    840      1782.631 DT 04EF001C Rx 8  20 4D 49 4B DD CA B4 C8 
    841      1783.207 DT 0CF00400 Rx 8  FF 7D 7D 00 00 00 FF FF 
    842      1787.883 DT 0CEF0100 Rx 8  B0 20 00 00 00 63 5C 00 
    843      1789.675 DT 18FF1CF3 Rx 8  00 00 00 00 00 00 00 00 
    844      1792.739 DT 04EF001C Rx 8  E1 4F 9E 41 1C E8 63 E2 
    845      1793.283 DT 0CEF1100 Rx 8  08 9E DD E1 27 2B 59 90 
    846      1797.859 DT 18FFDC00 Rx 8  C0 14 01 00 00 58 7B 19 
    847      1799.859 DT 09F8021C Rx 8  7E FC 1E 02 04 00 FF FF 
    848      1800.823 DT 09F8011C Rx 8  A8 6D 26 18 4E 6B 5B C1 
    849      1801.866 DT 19FA031C Rx 8  7E D2 86 00 28 01 E5 00 
    850      1802.862 DT 18FFDC00 Rx 8  C1 03 00 00 00 A4 FF DC 
    851      1803.414 DT 04EF001C Rx 8  EE 52 79 24 13 F5 84 87 
    852      1803.994 DT 0CF00300 Rx 8  DF 00 4F FF 00 FF FF FF 
    853      1804.570 DT 0CF00400 Rx 8  FF 7D 7D 00 00 00 FF FF 
    854      1805.130 DT 0DF0101C Rx 8  7E F0 3C 4F D0 CA 58 20 
    855      1805.922 DT 18FEE81C Rx 8  8E 01 00 00 78 63 57 7E 
    856      1806.994 DT 19FA041C Rx 8  C0 C3 7E FF 10 05 38 31 
    857      1807.858 DT 18FFDC00 Rx 8  C2 FF FF 9F D3 22 00 FF 
    858      1808.454 DT 09F20000 Rx 8  00 00 00 FF FF FF FF FF 
    859      1809.034 DT 0CEF0100 Rx 8  B0 20 00 00 00 63 5C 00 
    860      1809.602 DT 19FA041C Rx 8  C1 46 69 04 10 FF FF FF 
    861      1811.013 DT 19FA041C Rx 8  C2 FF FF 06 5E 01 7C 2E 
    862      1812.029 DT 19FA041C Rx 8  C3 00 00 FF FF FF FF FF 
    863      1812.969 DT 04EF001C Rx 8  05 56 B5 78 F8 F1 48 DB 
    864      1814.049 DT 19FA041C Rx 8  C4 09 5E 01 24 13 00 00 
    865      1815.056 DT 19FA041C Rx 8  C5 FF FF FF FF FF 0B ED 
    866      1816.056 DT 19FA041C Rx 8  C6 17 A6 27 AC 0D FF FF 
    867      1817.064 DT 19FA041C Rx 8  C7 FF FF FF 0C 4B 19 84 
    868      1818.092 DT 19FA041C Rx 8  C8 80 68 10 FF FF FF FF 
    869      1819.095 DT 19FA041C Rx 8  C9 FF 0D BC 02 F8 5C 00 
    870      1820.119 DT 19FA041C Rx 8  CA 00 FF FF FF FF FF 0F 
    871      1821.115 DT 19FA041C Rx 8  CB 0D 02 D8 72 00 00 FF 
    872      1822.123 DT 19FA041C Rx 8  CC FF FF FF FF 12 E3 08 
    873      1822.871 DT 0CF00400 Rx 8  FF 7D 7D 00 00 00 FF FF 
    874      1823.423 DT 04EF001C Rx 8  C9 58 0F 16 34 FF F2 B5 
    875      1824.183 DT 19FA041C Rx 8  CD BC B1 00 00 FF FF FF 
    876      1825.158 DT 19FA041C Rx 8  CE FF FF 14 62 2A 04 29 
    877      1826.182 DT 19FA041C Rx 8  CF 48 0D FF FF FF FF FF 
    878      1827.178 DT 19FA041C Rx 8  D0 15 99 25 C0 2B 1C 0C 
    879      1827.882 DT 0CEF0100 Rx 8  B0 20 00 00 00 63 5C 00 
    880      1828.470 DT 19FA041C Rx 8  D1 FF FF FF FF FF 19 7F 
    881      1829.230 DT 19FA041C Rx 8  D2 21 F6 9F 04 10 FF FF 
    882      1830.222 DT 19FA041C Rx 8  D3 FF FF FF 1A 00 00 38 
    883      1831.246 DT 19FA041C Rx 8  D4 E0 00 00 FF FF FF FF 
    884      1832.238 DT 19FA041C Rx 8  D5 FF 1C AF 00 C6 C0 00 
    885      1832.882 DT 18FEF200 Rx 8  00 00 FF FF FF FF 37 FF 
    886      1833.426 DT 04EF001C Rx 8  98 5B 44 9D 65 9C B9 5E 
    887      1834.302 DT 19FA041C Rx 8  D6 00 FF FF FF FF FF 1D 
    888      1835.258 DT 19FA041C Rx 8  D7 2E 22 48 D5 74 0E FF 
    889      1836.285 DT 19FA041C Rx 8  D8 FF FF FF FF 1F AF 00 
    890      1837.305 DT 19FA041C Rx 8  D9 8C D2 00 00 FF FF FF 
    891      1838.073 DT 19F10D13 Rx 8  FB 20 02 22 02 00 00 0C 
    892      1838.637 DT 19F21139 Rx 8  00 00 00 FF 9C 8F 01 00 
    893      1839.189 DT 19FA041C Rx 8  DA FF FF 30 A9 1A 30 8E 
    894      1840.333 DT 19FA041C Rx 8  DB 3C 0F FF FF FF FF FF 
    895      1842.865 DT 0CF00400 Rx 8  FF 7D 7D 00 00 00 FF FF 
    896      1843.417 DT 04EF001C Rx 8  9F 5D 73 A3 62 9A 8E 60 
    897      1843.961 DT 0CEF1100 Rx 8  40 93 E5 A2 D8 F0 D4 6D 
    898      1847.861 DT 18FFDC00 Rx 8  E0 14 01 00 00 58 7B 19 
    899      1848.440 DT 0CEF0100 Rx 8  B0 20 00 00 00 63 5C 00 
    900      1851.633 DT 18FF1080 Rx 8  00 00 00 FF FF FF FD 00 
    901      1852.617 DT 18FF1180 Rx 8  03 FF FB FF FF FF 00 FF 
    902      1853.197 DT 0CF00300 Rx 8  DF 00 4F FF 00 FF FF FF 
    903      1853.749 DT 04EF001C Rx 8  61 40 62 4E 9C A7 9F AD 
    904      1854.321 DT 18FFDC00 Rx 8  E1 03 00 00 00 A4 FF DC 
    905      1857.849 DT 18FFDC00 Rx 8  E2 FF FF 9F D3 22 00 FF 
    906      1862.865 DT 0CF00400 Rx 8  FF 7D 7D 00 00 00 FF FF 
    907      1863.557 DT 04EF001C Rx 8  B1 43 AC CD 4C A4 51 2E 
    908      1867.877 DT 0CEF0100 Rx 8  B0 20 00 00 00 63 5C 00 
    909      1872.869 DT 18FEF100 Rx 8  FF 06 00 F0 FF C7 1F FF 
    910      1873.669 DT 04EF001C Rx 8  4C 46 7E 20 B2 41 80 23 
    911      1882.864 DT 0CF00400 Rx 8  FF 7D 7D 00 00 00 FF FF 
    912      1883.776 DT 04EF001C Rx 8  2D 49 64 27 D3 6E 9A 04 
    913      1887.876 DT 0CEF0100 Rx 8  B0 20 00 00 00 63 5C 00 
    914      1889.676 DT 18FF1CF3 Rx 8  00 00 00 00 00 00 00 00 
    915      1892.828 DT 0CEF1100 Rx 8  9C 8C EC 45 17 B8 65 10 
    916      1893.872 DT 04EF001C Rx 8  EC 4B B3 2D 12 6C 4D 0E 
    917      1897.856 DT 18FFDC00 Rx 8  00 14 01 00 00 58 7B 19 
    918      1902.860 DT 18FFDC00 Rx 8  01 03 00 00 00 A4 FF DC 
    919      1903.440 DT 0CF00300 Rx 8  DF 00 4F FF 00 FF FF FF 
    920      1904.016 DT 0CF00400 Rx 8  FF 7D 7D 00 00 00 FF FF 
    921      1904.568 DT 04EF001C Rx 8  89 4E FD 00 77 09 03 43 
    922      1907.861 DT 18FFDC00 Rx 8  02 FF FF 9F D3 22 00 FF 
    923      1908.457 DT 09F20000 Rx 8  00 00 00 FF FF FF FF FF 
    924      1909.037 DT 0CEF0100 Rx 8  B0 20 00 00 00 63 5C 00 
    925      1914.072 DT 04EF001C Rx 8  6C 51 E7 37 92 36 19 54 
    926      1922.864 DT 0CF00400 Rx 8  FF 7D 7D 00 00 00 FF FF 
    927      1924.224 DT 04EF001C Rx 8  59 54 FB 9A A7 93 05 59 
    928      1927.876 DT 0CEF0100 Rx 8  B0 20 00 00 00 63 5C 00 
    929      1932.875 DT 18FEF200 Rx 8  00 00 FF FF FF FF 37 FF 
    930      1934.315 DT 04EF001C Rx 8  84 56 30 70 7A F1 CE D3 
    931      1934.899 DT 18FF1C17 Rx 8  00 01 50 00 00 00 00 00 
    932      1938.063 DT 19F10D13 Rx 8  FC 20 02 22 02 00 00 0C 
    933      1938.635 DT 19F21139 Rx 8  00 00 00 FF 00 90 01 00 
    934      1942.863 DT 0CF00400 Rx 8  FF 7D 7D 00 00 00 FF FF 
    935      1943.411 DT 0CEF1100 Rx 8  CD 80 9A 8E 52 56 03 7C 
    936      1944.451 DT 04EF001C Rx 8  44 59 8E 7F BA FE 70 DC 
    937      1947.863 DT 18FFDC00 Rx 8  20 14 01 00 00 58 7B 19 
    938      1948.443 DT 0CEF0100 Rx 8  B0 20 00 00 00 63 5C 00 
    939      1952.631 DT 18FF1080 Rx 8  00 00 00 FF FF FF FD 00 
    940      1953.211 DT 0CF00300 Rx 8  DF 00 4F FF 00 FF FF FF 
    941      1953.800 DT 18FF1180 Rx 8  03 FF FB FF FF FF 00 FF 
    942      1954.376 DT 18FFDC00 Rx 8  21 03 00 00 00 A4 FF DC 
    943      1954.936 DT 04EF001C Rx 8  07 5C E7 62 F9 FB 19 C1 
    944      1955.521 DT 18FF1380 Rx 8  00 00 00 00 3F C0 C0 06 
    945      1957.845 DT 18FFDC00 Rx 8  22 FF FF 9F D3 22 00 FF 
    946      1962.860 DT 0CF00400 Rx 8  FF 7D 7D 00 00 00 FF FF 
    947      1964.620 DT 04EF001C Rx 8  D5 5E 23 F0 2B 99 DD 33 
    948      1967.872 DT 0CEF0100 Rx 8  B0 20 00 00 00 63 5C 00 
    949      1972.864 DT 18FEF100 Rx 8  FF 05 00 F0 FF C7 1F FF 
    950      1974.735 DT 04EF001C Rx 8  92 41 9E D7 6C E6 60 74 
    951      1982.859 DT 0CF00400 Rx 8  FF 7D 7D 00 00 00 FF FF 
    952      1984.835 DT 04EF001C Rx 8  53 44 71 DA AD E3 8F 79 
    953      1987.872 DT 0CEF0100 Rx 8  B0 20 00 00 00 63 5C 00 
    954      1989.680 DT 18FF1CF3 Rx 8  00 00 00 00 00 00 00 00 
    955      1992.836 DT 0CEF1100 Rx 8  38 B2 B0 6B C6 4D 62 90 
    956      1994.960 DT 04EF001C Rx 8  16 47 2E F1 E8 E0 D0 52 
    957      1997.851 DT 18FFDC00 Rx 8  40 14 01 00 00 58 7B 19 
    958      2002.847 DT 18FFDC00 Rx 8  41 03 00 00 00 A4 FF DC 
    959      2003.428 DT 0CF00300 Rx 8  DF 00 4F FF 00 FF FF FF 
    960      2004.004 DT 0CF00400 Rx 8  FF 7D 7D 00 00 00 FF FF 
    961      2005.088 DT 04EF001C Rx 8  37 4A 66 F4 C9 8D 98 37 
    962      2007.848 DT 18FFDC00 Rx 8  42 FF FF 9F D3 22 00 FF 
    963      2008.443 DT 09F20000 Rx 8  00 00 00 FF FF FF FF FF 
    964      2009.023 DT 0CEF0100 Rx 8  B0 20 00 00 00 63 5C 00 
    965      2012.867 DT 09F20100 Rx 8  00 16 00 07 00 FF FF 3C 
    966      2015.183 DT 04EF001C Rx 8  61 4C 02 42 9F AB FC A1 
    967      2017.847 DT 09F20100 Rx 8  01 75 C9 04 00 00 9F D3 
    968      2018.427 DT 18FEE500 Rx 8  87 31 00 00 FF FF FF FF 
    969      2022.859 DT 0CF00400 Rx 8  FF 7D 7D 00 00 00 FF FF 
    970      2023.439 DT 09F20100 Rx 8  02 22 00 FF FF FF FF 00 
    971      2024.019 DT 18FEEE00 Rx 8  43 FF FF FF FF FF 41 FF 
    972      2025.323 DT 04EF001C Rx 8  7D 4F 06 A1 83 A8 F8 42 
    973      2027.871 DT 09F20100 Rx 8  03 01 00 FF FF FF FF FF 
    974      2028.451 DT 0CEF0100 Rx 8  B0 20 00 00 00 63 5C 00 
    975      2029.031 DT 18FEEF00 Rx 8  FF FF FF 00 FF FF FF FF 
    976      2032.871 DT 18FEF200 Rx 8  00 00 FF FF FF FF 37 FF 
    977      2035.403 DT 04EF001C Rx 8  16 52 86 E4 E8 B5 78 07 
    978      2037.847 DT 18FEF700 Rx 8  FF FF 1A 01 F5 00 F6 00 
    979      2038.407 DT 19F10D13 Rx 8  FD 1F 02 23 02 00 00 0D 
    980      2038.971 DT 19F21139 Rx 8  00 00 00 FF 64 90 01 00 
    981      2042.859 DT 0CF00400 Rx 8  FF 7D 7D 00 00 00 FF FF 
    982      2043.403 DT 0CEF1100 Rx 8  73 B4 10 F2 27 89 D7 5F 
    983      2045.502 DT 04EF001C Rx 8  D7 54 71 EA 28 73 8E C9 
    984      2047.854 DT 18FFDC00 Rx 8  60 14 01 00 00 58 7B 19 
    985      2048.434 DT 0CEF0100 Rx 8  B0 20 00 00 00 63 5C 00 
    986      2052.623 DT 18FF1080 Rx 8  00 00 00 FF FF FF FD 00 
    987      2053.203 DT 0CF00300 Rx 8  DF 00 4F FF 00 FF FF FF 
    988      2053.791 DT 18FF1180 Rx 8  03 FF FB FF FF FF 00 FF 
    989      2054.367 DT 18FFDC00 Rx 8  61 03 00 00 00 A4 FF DC 
    990      2055.655 DT 04EF001C Rx 8  BE 57 03 A1 41 70 FC 82 
    991      2057.835 DT 18FFDC00 Rx 8  62 FF FF 9F D3 22 00 FF 
    992      2058.415 DT 0CEF1700 Rx 8  01 84 00 00 00 00 FF FF 
    993      2062.855 DT 0CF00400 Rx 8  FF 7D 7D 00 00 00 FF FF 
    994      2063.447 DT 18FEFC00 Rx 8  FF DC FF FF FF FF FF FF 
    995      2065.756 DT 04EF001C Rx 8  C0 5A 16 5C 3F 7D E9 7F 
    996      2067.868 DT 0CEF0100 Rx 8  B0 20 00 00 00 63 5C 00 
    997      2068.444 DT 18FEF600 Rx 8  FF FF 43 2A FF FF FF FF 
    998      2072.864 DT 18FEF100 Rx 8  FF 05 00 F0 FF C7 1F FF 
    999      2075.863 DT 04EF001C Rx 8  6F 5D 84 23 90 1A 7B 60 
   1000      2082.855 DT 0CF00400 Rx 8  FF 7D 7D 00 00 00 FF FF 
   1001      2085.975 DT 04EF001C Rx 8  2D 40 2C 2E D2 27 D3 4D 
   1002      2087.871 DT 0CEF0100 Rx 8  B0 20 00 00 00 63 5C 00 
   1003      2089.683 DT 18FF1CF3 Rx 8  00 00 00 00 00 00 00 00 
   1004      2092.842 DT 0CEF1100 Rx 8  A4 A0 83 8F FE D7 14 50 
   1005      2096.078 DT 04EF001C Rx 8  CB 42 DD 1C 34 C5 22 9F 
   1006      2097.854 DT 18FFDC00 Rx 8  80 14 01 00 00 58 7B 19 
   1007      2102.842 DT 18FFDC00 Rx 8  81 03 00 00 00 A4 FF DC 
   1008      2103.422 DT 0CF00300 Rx 8  DF 00 4F FF 00 FF FF FF 
   1009      2103.998 DT 0CF00400 Rx 8  FF 7D 7D 00 00 00 FF FF 
   1010      2106.194 DT 04EF001C Rx 8  E8 45 C7 03 17 82 38 C0 
   1011      2107.846 DT 18FFDC00 Rx 8  82 FF FF 9F D3 22 00 FF 
   1012      2108.442 DT 09F20000 Rx 8  00 00 00 FF FF FF FF FF 
   1013      2109.022 DT 0CEF0100 Rx 8  B0 20 00 00 00 63 5C 00 
   1014      2116.313 DT 04EF001C Rx 8  6F 48 2C 36 90 8F D3 F5 
   1015      2122.853 DT 0CF00400 Rx 8  FF 7D 7D 00 00 00 FF FF 
   1016      2126.417 DT 04EF001C Rx 8  09 4B 51 05 F6 EC AE A6 
   1017      2127.865 DT 0CEF0100 Rx 8  B0 20 00 00 00 63 5C 00 
   1018      2132.864 DT 18FEF200 Rx 8  00 00 FF FF FF FF 37 FF 
   1019      2136.512 DT 04EF001C Rx 8  5F 4D 35 B3 A0 8A CA 70 
   1020      2138.060 DT 19F10D13 Rx 8  FE 21 02 23 02 00 00 0C 
   1021      2138.632 DT 19F21139 Rx 8  00 00 00 FF C8 90 01 00 
   1022      2142.852 DT 0CF00400 Rx 8  FF 7D 7D 00 00 00 FF FF 
   1023      2143.392 DT 0CEF1100 Rx 8  E5 A4 B1 C6 13 1E 4B 7F 
   1024      2146.641 DT 04EF001C Rx 8  1F 50 9F AE E0 F7 60 0D 
   1025      2147.849 DT 18FFDC00 Rx 8  A0 14 01 00 00 58 7B 19 
   1026      2148.429 DT 0CEF0100 Rx 8  B0 20 00 00 00 63 5C 00 
   1027      2152.856 DT 18FFDC00 Rx 8  A1 02 00 00 00 A4 FF DC 
   1028      2153.436 DT 0CF00300 Rx 8  DF 00 4F FF 00 FF FF FF 
   1029      2154.025 DT 18FF1080 Rx 8  00 00 00 FF FF FF FD 00 
   1030      2155.617 DT 18FF1180 Rx 8  03 FF FB FF FF FF 00 FF 
   1031      2156.617 DT 18FF1380 Rx 8  00 00 00 00 3F C0 C0 06 
   1032      2157.165 DT 04EF001C Rx 8  DE 52 48 A4 21 35 B7 C7 
   1033      2157.837 DT 18FFDC00 Rx 8  A2 FF FF 9F D3 22 00 FF 
   1034      2162.853 DT 0CF00400 Rx 8  FF 7D 7D 00 00 00 FF FF 
   1035      2166.849 DT 04EF001C Rx 8  9F 55 33 AB 60 12 CC E8 
   1036      2167.869 DT 0CEF0100 Rx 8  B0 20 00 00 00 63 5C 00 
   1037      2172.869 DT 18FEF100 Rx 8  FF 04 00 F0 FF C7 1F FF 
   1038      2176.968 DT 04EF001C Rx 8  5F 58 9D A6 A0 7F 62 85 
   1039      2182.852 DT 0CF00400 Rx 8  FF 7D 7D 00 00 00 FF FF 
   1040      2187.064 DT 04EF001C Rx 8  1F 5B C7 A5 E1 BC 39 46 
   1041      2187.868 DT 0CEF0100 Rx 8  B0 20 00 00 00 63 5C 00 
   1042      2192.828 DT 0CEF1100 Rx 8  2A D4 04 61 1D 6F F0 D0 
   1043      2194.947 DT 18FF1C17 Rx 8  00 01 50 00 00 00 00 00 
   1044      2197.175 DT 04EF001C Rx 8  E1 5D 0E 53 1F BA F0 B0 
   1045      2197.843 DT 18FFDC00 Rx 8  C0 14 01 00 00 58 7B 19 
   1046      2202.843 DT 18FFDC00 Rx 8  C1 02 00 00 00 A4 FF DC 
   1047      2203.423 DT 0CF00300 Rx 8  DF 00 4F FF 00 FF FF FF 
   1048      2203.999 DT 0CF00400 Rx 8  FF 7D 7D 00 00 00 FF FF 
   1049      2207.283 DT 04EF001C Rx 8  A2 40 A7 56 5C 87 59 95 
   1050      2207.887 DT 09F20000 Rx 8  00 00 00 FF FF FF FF FF 
   1051      2208.467 DT 0CEF0100 Rx 8  B0 20 00 00 00 63 5C 00 
   1052      2209.031 DT 18FFDC00 Rx 8  C2 FF FF 9F D3 22 00 FF 
   1053      2209.767 DT 0CEF0017 Rx 8  81 04 00 00 00 00 FF FF 
   1054      2217.394 DT 04EF001C Rx 8  5E 43 44 B5 A0 84 BA 76 
   1055      2217.966 DT 18E8FF00 Rx 8  02 FF FF FF FF 00 EF 00 
   1056      2222.851 DT 0CF00400 Rx 8  FF 7D 7D 00 00 00 FF FF 
   1057      2227.518 DT 04EF001C Rx 8  1F 46 2F B8 E1 E1 D1 1B 
   1058      2228.098 DT 0CEF0100 Rx 8  B0 20 00 00 00 63 5C 00 
   1059      2229.682 DT 0CEA1C00 Rx 8  00 EE 00 00 00 00 00 00 
   1060      2230.598 DT 18EEFF1C Rx 8  02 04 45 0E 00 00 00 42 
   1061      2232.862 DT 18FEF200 Rx 8  00 00 FF FF FF FF 37 FF 
   1062      2233.942 DT 15FD069B Rx 8  C4 14 73 FF FF FF FF FF 
   1063      2237.622 DT 04EF001C Rx 8  E1 48 A6 46 1F 8F 58 85 
   1064      2238.182 DT 19F10D13 Rx 8  FF 1F 02 23 02 00 00 0D 
   1065      2238.742 DT 19F21139 Rx 8  00 00 00 FF 2C 91 01 00 
   1066      2242.850 DT 0CF00400 Rx 8  FF 7D 7D 00 00 00 FF FF 
   1067      2243.394 DT 0CEF1100 Rx 8  EF D4 33 09 67 8F C2 47 
   1068      2247.737 DT 04EF001C Rx 8  A0 4B FD 4D 5E EC 03 EE 
   1069      2248.317 DT 0CEF0100 Rx 8  B0 20 00 00 00 63 5C 00 
   1070      2248.878 DT 18FFDC00 Rx 8  E0 14 01 00 00 58 7B 19 
   1071      2249.685 DT 18FF1CF3 Rx 8  00 00 00 00 00 00 00 00 
   1072      2252.849 DT 18FFDC00 Rx 8  E1 02 00 00 00 A4 FF DC 
   1073      2253.430 DT 0CF00300 Rx 8  DF 00 4F FF 00 FF FF FF 
   1074      2254.018 DT 18FF1080 Rx 8  00 00 00 FF FF FF FD 00 
   1075      2255.610 DT 18FF1180 Rx 8  03 FF FB FF FF FF 00 FF 
   1076      2257.834 DT 18FFDC00 Rx 8  E2 FF FF 9F D3 22 00 FF 
   1077      2258.382 DT 04EF001C Rx 8  61 4E 12 40 9F E9 EC E3 
   1078      2262.850 DT 0CF00400 Rx 8  FF 7D 7D 00 00 00 FF FF 
   1079      2267.862 DT 0CEF0100 Rx 8  B0 20 00 00 00 63 5C 00 
   1080      2268.414 DT 04EF001C Rx 8  8A 51 06 07 74 D6 F8 84 
   1081      2272.866 DT 18FEF100 Rx 8  FF 04 00 F0 FF C7 1F FF 
   1082      2278.073 DT 04EF001C Rx 8  6D 54 CE 3A 93 33 30 59 
   1083      2282.845 DT 0CF00400 Rx 8  FF 7D 7D 00 00 00 FF FF 
   1084      2287.861 DT 0CEF0100 Rx 8  B0 20 00 00 00 63 5C 00 
   1085      2288.413 DT 04EF001C Rx 8  30 57 89 D1 CE D0 77 52 
   1086      2289.685 DT 18FF1CF3 Rx 8  00 00 00 00 00 00 00 00 
   1087      2292.829 DT 0CEF1100 Rx 8  BE C6 35 C5 93 FD C1 A0 
   1088      2297.841 DT 18FFDC00 Rx 8  00 14 01 00 00 59 7B 19 
   1089      2298.393 DT 04EF001C Rx 8  C8 59 06 1F 36 DE F8 9C 
   1090      2302.842 DT 18FFDC00 Rx 8  01 02 00 00 00 A4 FF DC 
   1091      2303.422 DT 0CF00300 Rx 8  DF 00 4F FF 00 FF FF FF 
   1092      2303.998 DT 0CF00400 Rx 8  FF 7D 7D 00 00 00 FF FF 
   1093      2307.434 DT 09F8021C Rx 8  7F FC AB 02 06 00 FF FF 
   1094      2308.030 DT 09F20000 Rx 8  00 00 00 FF FF FF FF FF 
   1095      2308.590 DT 04EF001C Rx 8  00 5D E8 5B FE FA 16 F8 
   1096      2309.170 DT 0CEF0100 Rx 8  B0 20 00 00 00 63 5C 00 
   1097      2309.710 DT 09F8011C Rx 8  AC 6D 26 18 4A 6B 5B C1 
   1098      2310.286 DT 18FFDC00 Rx 8  02 FF FF 9F D3 22 00 FF 
   1099      2310.850 DT 19FA031C Rx 8  7F D2 86 00 28 01 E5 00 
   1100      2311.506 DT 0DF0101C Rx 8  7F F0 3C 4F D0 CA 58 20 
   1101      2312.481 DT 18FEE81C Rx 8  F5 01 00 00 7A 63 56 7E 
   1102      2313.601 DT 19FA041C Rx 8  E0 C3 7F FF 10 05 38 31 
   1103      2314.553 DT 19FA041C Rx 8  E1 46 69 04 10 FF FF FF 
   1104      2315.573 DT 19FA041C Rx 8  E2 FF FF 06 5E 01 7C 2E 
   1105      2316.585 DT 19FA041C Rx 8  E3 00 00 FF FF FF FF FF 
   1106      2317.604 DT 19FA041C Rx 8  E4 09 5E 01 24 13 00 00 
   1107      2318.532 DT 04EF001C Rx 8  2D 40 2C 2E D3 A7 D2 CD 
   1108      2319.620 DT 19FA041C Rx 8  E5 FF FF FF FF FF 0B ED 
   1109      2320.608 DT 19FA041C Rx 8  E6 17 A6 27 AC 0D FF FF 
   1110      2321.623 DT 19FA041C Rx 8  E7 FF FF FF 0C 4B 19 84 
   1111      2322.647 DT 19FA041C Rx 8  E8 80 68 10 FF FF FF FF 
   1112      2323.223 DT 0CF00400 Rx 8  FF 7D 7D 00 00 00 FF FF 
   1113      2323.791 DT 19FA041C Rx 8  E9 FF 0D BC 02 F8 5C 00 
   1114      2324.727 DT 19FA041C Rx 8  EA 00 FF FF FF FF FF 0F 
   1115      2325.671 DT 19FA041C Rx 8  EB 0D 02 D8 72 00 00 FF 
   1116      2326.678 DT 19FA041C Rx 8  EC FF FF FF FF 12 E3 08 
   1117      2327.702 DT 19FA041C Rx 8  ED BC B1 00 00 FF FF FF 
   1118      2328.282 DT 0CEF0100 Rx 8  B0 20 00 00 00 63 5C 00 
   1119      2328.834 DT 04EF001C Rx 8  E3 42 F4 5C 1D A5 0A BF 
   1120      2329.762 DT 19FA041C Rx 8  EE FF FF 14 62 2A 04 29 
   1121      2330.718 DT 19FA041C Rx 8  EF 48 0D FF FF FF FF FF 
   1122      2331.713 DT 19FA041C Rx 8  F0 15 99 25 C0 2B 1C 0C 
   1123      2332.745 DT 19FA041C Rx 8  F1 FF FF FF FF FF 19 7F 
   1124      2333.329 DT 18FEF200 Rx 8  00 00 FF FF FF FF 37 FF 
   1125      2333.897 DT 19FA041C Rx 8  F2 21 F6 9F 04 10 FF FF 
   1126      2334.801 DT 19FA041C Rx 8  F3 FF FF FF 1A 00 00 38 
   1127      2335.785 DT 19FA041C Rx 8  F4 E0 00 00 FF FF FF FF 
   1128      2336.773 DT 19FA041C Rx 8  F5 FF 1C AF 00 C6 C0 00 
   1129      2337.796 DT 19FA041C Rx 8  F6 00 FF FF FF FF FF 1D 
   1130      2338.356 DT 19F10D13 Rx 8  00 15 02 23 02 00 00 12 
   1131      2338.908 DT 04EF001C Rx 8  05 45 2D 6B FB A2 D3 88 
   1132      2339.469 DT 19F21139 Rx 8  00 00 00 FF 90 91 01 00 
   1133      2340.016 DT 19FA041C Rx 8  F7 2E 22 48 D5 74 0E FF 
   1134      2340.840 DT 19FA041C Rx 8  F8 FF FF FF FF 1F AF 00 
   1135      2341.840 DT 19FA041C Rx 8  F9 8C D2 00 00 FF FF FF 
   1136      2342.848 DT 0CF00400 Rx 8  FF 7D 7D 00 00 00 FF FF 
   1137      2343.396 DT 0CEF1100 Rx 8  4E FB A6 4B 25 6F 28 1B 
   1138      2343.952 DT 19FA041C Rx 8  FA FF FF 30 A9 1A 30 8E 
   1139      2344.908 DT 19FA041C Rx 8  FB 3C 0F FF FF FF FF FF 
   1140      2347.848 DT 18FFDC00 Rx 8  20 14 01 00 00 59 7B 19 
   1141      2348.428 DT 0CEF0100 Rx 8  B0 20 00 00 00 63 5C 00 
   1142      2348.984 DT 04EF001C Rx 8  1F 47 27 B9 E1 A0 D9 5A 
   1143      2352.844 DT 18FFDC00 Rx 8  21 02 00 00 00 A4 FF DC 
   1144      2353.424 DT 0CF00300 Rx 8  DF 00 4F FF 00 FF FF FF 
   1145      2354.604 DT 18FF1080 Rx 8  00 00 00 FF FF FF FD 00 
   1146      2355.608 DT 18FF1180 Rx 8  03 FF FB FF FF FF 00 FF 
   1147      2356.609 DT 18FF1380 Rx 8  00 00 00 00 3F C0 C0 06 
   1148      2357.829 DT 18FFDC00 Rx 8  22 FF FF 9F D3 22 00 FF 
   1149      2358.977 DT 04EF001C Rx 8  DE 49 90 BF 20 AE 6E 5C 
   1150      2362.844 DT 0CF00400 Rx 8  FF 7D 7D 00 00 00 FF FF 
   1151      2367.856 DT 0CEF0100 Rx 8  B0 20 00 00 00 63 5C 00 
   1152      2369.088 DT 04EF001C Rx 8  0D 4D 65 23 F2 4A 9A 20 
   1153      2372.860 DT 18FEF100 Rx 8  FF 04 00 F0 FF C7 1F FF 
   1154      2379.167 DT 04EF001C Rx 8  62 4F 19 59 9D 48 E6 5A 
   1155      2382.844 DT 0CF00400 Rx 8  FF 7D 7D 00 00 00 FF FF 
   1156      2387.856 DT 0CEF0100 Rx 8  B0 20 00 00 00 63 5C 00 
   1157      2389.308 DT 04EF001C Rx 8  46 52 D4 64 B9 75 2B 47 
   1158      2392.824 DT 0CEF1100 Rx 8  06 F4 0E 08 EA 2E F4 62 
   1159      2394.124 DT 18FF1C17 Rx 8  00 01 50 00 00 00 00 00 
   1160      2397.831 DT 18FFDC00 Rx 8  40 14 01 00 00 58 7B 19 
   1161      2399.423 DT 04EF001C Rx 8  03 55 AB 4B FC 52 54 48 
   1162      2402.835 DT 18FFDC00 Rx 8  41 01 00 00 00 A4 FF DC 
   1163      2403.415 DT 0CF00300 Rx 8  DF 00 4F FF 00 FF FF FF 
   1164      2403.991 DT 0CF00400 Rx 8  FF 7D 7D 00 00 00 FF FF 
   1165      2407.831 DT 18FFDC00 Rx 8  42 FF FF 9F D3 22 00 FF 
   1166      2408.427 DT 09F20000 Rx 8  00 00 00 FF FF FF FF FF 
   1167      2409.007 DT 0CEF0100 Rx 8  B0 20 00 00 00 63 5C 00 
   1168      2409.571 DT 04EF001C Rx 8  00 58 C0 5E FF 1F 3F 1D 
   1169      2419.610 DT 04EF001C Rx 8  61 5A B2 54 9E DD 4D D7 
   1170      2422.842 DT 0CF00400 Rx 8  FF 7D 7D 00 00 00 FF FF 
   1171      2427.853 DT 0CEF0100 Rx 8  B0 20 00 00 00 63 5C 00 
   1172      2429.689 DT 18FF1CF3 Rx 8  00 00 00 00 00 00 00 00 
   1173      2430.237 DT 04EF001C Rx 8  53 5D B9 C3 AC DA 46 40 
   1174      2432.849 DT 18FEF200 Rx 8  00 00 FF FF FF FF 37 FF 
   1175      2438.069 DT 19F10D13 Rx 8  01 08 02 23 02 00 00 19 
   1176      2438.637 DT 19F21139 Rx 8  00 00 00 FF F4 91 01 00 
   1177      2439.845 DT 04EF001C Rx 8  E1 5F 1E 51 1E F8 E1 F2 
   1178      2442.841 DT 0CF00400 Rx 8  FF 7D 7D 00 00 00 FF FF 
   1179      2443.389 DT 0CEF1100 Rx 8  C7 E8 D8 47 10 C1 BB F2 
   1180      2447.833 DT 18FFDC00 Rx 8  60 14 01 00 00 59 7B 19 
   1181      2448.413 DT 0CEF0100 Rx 8  B0 20 00 00 00 63 5C 00 
   1182      2449.984 DT 04EF001C Rx 8  FC 42 EB A4 03 E5 14 07 
   1183      2452.828 DT 18FFDC00 Rx 8  61 01 00 00 00 A4 FF DC 
   1184      2453.408 DT 0CF00300 Rx 8  DF 00 4F FF 00 FF FF FF 
   1185      2454.609 DT 18FF1080 Rx 8  00 00 00 FF FF FF FD 00 
   1186      2455.593 DT 18FF1180 Rx 8  03 FF FB FF FF FF 00 FF 
   1187      2457.817 DT 18FFDC00 Rx 8  62 FF FF 9F D3 22 00 FF 
   1188      2460.074 DT 04EF001C Rx 8  26 46 17 70 D9 E1 E8 D3 
   1189      2462.842 DT 0CF00400 Rx 8  FF 7D 7D 00 00 00 FF FF 
   1190      2467.854 DT 0CEF0100 Rx 8  B0 20 00 00 00 63 5C 00 
   1191      2470.181 DT 04EF001C Rx 8  E8 48 AF 0E 17 8F 50 CD 
   1192      2472.841 DT 18FEF100 Rx 8  FF 03 00 F0 FF C7 1F FF 
   1193      2480.289 DT 04EF001C Rx 8  4A 4B 10 1D B5 AC EF FE 
   1194      2482.836 DT 0CF00400 Rx 8  FF 7D 7D 00 00 00 FF FF 
   1195      2487.852 DT 0CEF0100 Rx 8  B0 20 00 00 00 63 5C 00 
   1196      2489.692 DT 18FF1CF3 Rx 8  00 00 00 00 00 00 00 00 
   1197      2490.404 DT 04EF001C Rx 8  68 4E 1B 08 97 89 E4 CB 
   1198      2492.812 DT 0CEF1100 Rx 8  F6 9A C5 90 24 73 A6 0B 
   1199      2497.836 DT 18FFDC00 Rx 8  80 14 01 00 00 58 7B 19 
   1200      2500.540 DT 04EF001C Rx 8  F0 50 77 D6 0F B7 88 35 
   1201      2502.828 DT 18FFDC00 Rx 8  81 01 00 00 00 A4 FF DC 
   1202      2503.408 DT 0CF00300 Rx 8  DF 00 4F FF 00 FF FF FF 
   1203      2503.984 DT 0CF00400 Rx 8  FF 7D 7D 00 00 00 FF FF 
   1204      2507.828 DT 18FFDC00 Rx 8  82 FF FF 9F D3 22 00 FF 
   1205      2508.424 DT 09F20000 Rx 8  00 00 00 FF FF FF FF FF 
   1206      2509.004 DT 0CEF0100 Rx 8  B0 20 00 00 00 63 5C 00 
   1207      2509.860 DT 18FF2117 Rx 8  06 FF FF FF 00 FF FF FF 
   1208      2510.608 DT 04EF001C Rx 8  E8 53 77 15 17 94 88 D6 
   1209      2520.743 DT 04EF001C Rx 8  6F 56 DC 28 90 91 23 EB 
   1210      2522.835 DT 0CF00400 Rx 8  FF 7D 7D 00 00 00 FF FF 
   1211      2527.843 DT 18FEEF00 Rx 8  FF FF FF 00 FF FF FF FF 
   1212      2528.423 DT 0CEF0100 Rx 8  B0 20 00 00 00 63 5C 00 
   1213      2530.851 DT 04EF001C Rx 8  D6 58 10 EE 29 BF EF 0D 
   1214      2532.846 DT 18FEF200 Rx 8  00 00 FF FF FF FF 37 FF 
   1215      2538.067 DT 19F10D13 Rx 8  02 F5 01 23 02 00 00 24 
   1216      2538.631 DT 19F21139 Rx 8  00 00 00 FF 58 92 01 00 
   1217      2540.951 DT 04EF001C Rx 8  5F 5B 85 A5 A0 BC 7A 46 
   1218      2542.835 DT 0CF00400 Rx 8  FF 7D 7D 00 00 00 FF FF 
   1219      2543.375 DT 0CEF1100 Rx 8  37 9E D3 D9 56 9B D5 DD 
   1220      2547.831 DT 18FFDC00 Rx 8  A0 14 01 00 00 58 7B 19 
   1221      2548.411 DT 0CEF0100 Rx 8  B0 20 00 00 00 63 5C 00 
   1222      2551.067 DT 04EF001C Rx 8  20 5E D1 58 DF 99 2E 9B 
   1223      2552.831 DT 18FFDC00 Rx 8  A1 01 00 00 00 A4 FF DC 
   1224      2553.411 DT 0CF00300 Rx 8  DF 00 4F FF 00 FF FF FF 
   1225      2555.603 DT 18FF1080 Rx 8  00 00 00 FF FF FF FD 00 
   1226      2556.607 DT 18FF1180 Rx 8  03 FF FB FF FF FF 00 FF 
   1227      2557.588 DT 18FF1380 Rx 8  00 00 00 00 3F C0 C0 06 
   1228      2558.168 DT 0CEF1700 Rx 8  01 84 00 00 00 00 FF FF 
   1229      2558.732 DT 18FFDC00 Rx 8  A2 FF FF 9F D3 22 00 FF 
   1230      2561.175 DT 04EF001C Rx 8  12 41 1A D7 ED 86 E5 14 
   1231      2562.835 DT 0CF00400 Rx 8  FF 7D 7D 00 00 00 FF FF 
   1232      2567.847 DT 0CEF0100 Rx 8  B0 20 00 00 00 63 5C 00 
   1233      2568.423 DT 18FEF600 Rx 8  FF FF 43 2A FF FF FF FF 
   1234      2571.295 DT 04EF001C Rx 8  9F 43 83 BD 60 84 7C 7E 
   1235      2572.835 DT 18FEF100 Rx 8  FF 03 00 F0 FF C7 1F FF 
   1236      2581.390 DT 04EF001C Rx 8  5E 46 6C B0 A1 A1 93 53 
   1237      2582.834 DT 0CF00400 Rx 8  FF 7D 7D 00 00 00 FF FF 
   1238      2587.846 DT 0CEF0100 Rx 8  B0 20 00 00 00 63 5C 00 
   1239      2589.694 DT 18FF1CF3 Rx 8  00 00 00 00 00 00 00 00 
   1240      2591.517 DT 04EF001C Rx 8  1F 49 57 B7 E0 8E A8 74 
   1241      2592.797 DT 0CEF1100 Rx 8  6E 88 F7 54 A9 FA 4C 63 
   1242      2597.817 DT 18FFDC00 Rx 8  C0 14 01 00 00 58 7B 19 
   1243      2601.617 DT 04EF001C Rx 8  DE 4B 80 BD 21 8C 7F 7E 
   1244      2602.817 DT 18FFDC00 Rx 8  C1 01 00 00 00 A4 FF DC 
   1245      2603.397 DT 0CF00300 Rx 8  DF 00 4F FF 00 FF FF FF 
   1246      2603.973 DT 0CF00400 Rx 8  FF 7D 7D 00 00 00 FF FF 
   1247      2607.813 DT 18FFDC00 Rx 8  C2 FF FF 9F D3 22 00 FF 
   1248      2608.409 DT 09F20000 Rx 8  00 00 00 FF FF FF FF FF 
   1249      2608.989 DT 0CEF0100 Rx 8  B0 20 00 00 00 63 5C 00 
   1250      2611.720 DT 04EF001C Rx 8  A2 4E D7 58 5D 89 28 9B 
   1251      2621.831 DT 04EF001C Rx 8  61 51 EA 5F 9E B6 15 BC 
   1252      2622.831 DT 0CF00400 Rx 8  FF 7D 7D 00 00 00 FF FF 
   1253      2627.839 DT 0CEF0100 Rx 8  B0 20 00 00 00 63 5C 00 
   1254      2631.958 DT 04EF001C Rx 8  1F 54 BF AA 1F 54 BF AE 
   1255      2632.843 DT 18FEF200 Rx 8  00 00 FF FF FF FF 37 FF 
   1256      2633.634 DT 0DF50B9B Rx 8  63 FF FF FF FF 00 00 FF 
   1257      2638.054 DT 19F10D13 Rx 8  03 E7 01 23 02 00 00 2B 
   1258      2638.618 DT 19F21139 Rx 8  00 00 00 FF BC 92 01 00 
   1259      2642.062 DT 04EF001C Rx 8  E0 56 57 50 1F B1 A8 B3 
   1260      2642.830 DT 0CF00400 Rx 8  FF 7D 7D 00 00 00 FF FF 
   1261      2643.374 DT 0CEF1100 Rx 8  AF 8C E1 1D 6F 08 EA 15 
   1262      2647.822 DT 18FFDC00 Rx 8  E0 14 01 00 00 58 7B 19 
   1263      2648.402 DT 0CEF0100 Rx 8  B0 20 00 00 00 63 5C 00 
   1264      2652.169 DT 04EF001C Rx 8  9F 59 53 A7 60 BE AC 44 
   1265      2652.825 DT 18FFDC00 Rx 8  E1 01 00 00 00 A4 FF DC 
   1266      2653.406 DT 0CF00300 Rx 8  DF 00 4F FF 00 FF FF FF 
   1267      2655.582 DT 18FF1080 Rx 8  00 00 00 FF FF FF FD 00 
   1268      2656.586 DT 18FF1180 Rx 8  03 FF FB FF FF FF 00 FF 
   1269      2657.810 DT 18FFDC00 Rx 8  E2 FF FF 9F D3 22 00 FF 
   1270      2662.282 DT 04EF001C Rx 8  CB 5C 2D 02 CB 5C 2D 06 
   1271      2662.866 DT 0CF00400 Rx 8  FF 7D 7D 00 00 00 FF FF 
   1272      2667.838 DT 0CEF0100 Rx 8  B0 20 00 00 00 63 5C 00 
   1273      2669.686 DT 0CEF0017 Rx 8  81 04 00 00 00 00 FF FF 
   1274      2672.406 DT 04EF001C Rx 8  AF 5F 52 21 AF 1F 52 65 
   1275      2672.974 DT 18FEF100 Rx 8  FF 03 00 F0 FF C7 1F FF 
   1276      2677.838 DT 18E8FF00 Rx 8  02 FF FF FF FF 00 EF 00 
   1277      2682.510 DT 04EF001C Rx 8  72 42 61 D4 72 22 61 B0 
   1278      2683.086 DT 0CF00400 Rx 8  FF 7D 7D 00 00 00 FF FF 
   1279      2687.838 DT 0CEF0100 Rx 8  B0 20 00 00 00 63 5C 00 
   1280      2689.690 DT 18FF1CF3 Rx 8  00 00 00 00 00 00 00 00 
   1281      2692.610 DT 04EF001C Rx 8  0A 45 22 13 0A 25 22 77 
   1282      2693.158 DT 0CEF1100 Rx 8  DC BC 7E 48 DF 3E 43 58 
   1283      2697.817 DT 18FFDC00 Rx 8  00 14 01 00 00 58 7B 19 
   1284      2702.745 DT 04EF001C Rx 8  EF 47 D0 39 EF 27 D0 5D 
   1285      2703.325 DT 0CF00300 Rx 8  DF 00 4F FF 00 FF FF FF 
   1286      2703.901 DT 0CF00400 Rx 8  FF 7D 7D 00 00 00 FF FF 
   1287      2704.477 DT 18FFDC00 Rx 8  01 01 00 00 00 A4 FF DC 
   1288      2707.821 DT 18FFDC00 Rx 8  02 FF FF 9F D3 22 00 FF 
   1289      2708.417 DT 09F20000 Rx 8  00 00 00 FF FF FF FF FF 
   1290      2708.997 DT 0CEF0100 Rx 8  B0 20 00 00 00 63 5C 00 
   1291      2712.848 DT 04EF001C Rx 8  B0 4A E5 CC B0 CA E5 48 
   1292      2719.888 DT 18FF1C17 Rx 8  00 01 50 00 00 00 00 00 
   1293      2722.823 DT 0CF00400 Rx 8  FF 7D 7D 00 00 00 FF FF 
   1294      2723.363 DT 04EF001C Rx 8  4C 4D 26 2B 4C ED 26 8F 
   1295      2723.947 DT 18FECA00 Rx 8  40 FF 00 00 00 00 FF FF 
   1296      2727.835 DT 0CEF0100 Rx 8  B0 20 00 00 00 63 5C 00 
   1297      2731.987 DT 15FD069B Rx 8  C5 14 73 FF FF FF FF FF 
   1298      2732.839 DT 18FEF200 Rx 8  00 00 FF FF FF FF 37 FF 
   1299      2733.399 DT 04EF001C Rx 8  A2 4F DF 59 A2 8F DF 9D 
   1300      2738.058 DT 19F10D13 Rx 8  04 D6 01 23 02 00 00 35 
   1301      2738.630 DT 19F21139 Rx 8  00 00 00 FF 20 93 01 00 
   1302      2742.822 DT 0CF00400 Rx 8  FF 7D 7D 00 00 00 FF FF 
   1303      2743.366 DT 04EF001C Rx 8  61 52 F2 5C 61 B2 F2 B8 
   1304      2743.922 DT 0CEF1100 Rx 8  2D B0 25 83 0D B9 41 8F 
   1305      2747.822 DT 18FFDC00 Rx 8  20 14 01 00 00 58 7B 19 
   1306      2748.402 DT 0CEF0100 Rx 8  B0 20 00 00 00 63 5C 00 
   1307      2752.819 DT 18FFDC00 Rx 8  21 01 00 00 00 A4 FF DC 
   1308      2753.371 DT 04EF001C Rx 8  21 55 88 5B 20 55 89 5F 
   1309      2753.951 DT 0CF00300 Rx 8  DF 00 4F FF 00 FF FF FF 
   1310      2756.584 DT 18FF1080 Rx 8  00 00 00 FF FF FF FD 00 
   1311      2757.588 DT 18FF1180 Rx 8  03 FF FB FF FF FF 00 FF 
   1312      2758.156 DT 18FFDC00 Rx 8  22 FF FF 9F D3 22 00 FF 
   1313      2758.741 DT 18FF1380 Rx 8  00 00 00 00 3F C0 C0 06 
   1314      2762.821 DT 0CF00400 Rx 8  FF 7D 7D 00 00 00 FF FF 
   1315      2763.405 DT 04EF001C Rx 8  E2 57 5D 41 E3 57 5C 45 
   1316      2767.833 DT 0CEF0100 Rx 8  B0 20 00 00 00 63 5C 00 
   1317      2772.821 DT 18FEF100 Rx 8  FF 02 00 F0 FF C7 1F FF 
   1318      2773.537 DT 04EF001C Rx 8  9F 5A 4B A4 9E 5A 4A A0 
   1319      2782.820 DT 0CF00400 Rx 8  FF 7D 7D 00 00 00 FF FF 
   1320      2783.628 DT 04EF001C Rx 8  61 5D 8A 53 60 5D 8B 57 
   1321      2787.832 DT 0CEF0100 Rx 8  B0 20 00 00 00 63 5C 00 
   1322      2789.692 DT 18FF1CF3 Rx 8  00 00 00 00 00 00 00 00 
   1323      2792.796 DT 0CEF1100 Rx 8  78 A2 22 6F F8 C2 0B 60 
   1324      2793.776 DT 04EF001C Rx 8  1F 40 1F BE 1F A0 1F 5A 
   1325      2797.808 DT 18FFDC00 Rx 8  40 14 01 00 00 58 7B 19 
   1326      2802.812 DT 18FFDC00 Rx 8  41 01 00 00 00 A4 FF DC 
   1327      2803.392 DT 0CF00300 Rx 8  DF 00 4F FF 00 FF FF FF 
   1328      2803.931 DT 04EF001C Rx 8  E2 42 F5 54 E2 A2 F5 B0 
   1329      2804.507 DT 0CF00400 Rx 8  FF 7D 7D 00 00 00 FF FF 
   1330      2807.807 DT 18FFDC00 Rx 8  42 FF FF 9F D3 22 00 FF 
   1331      2808.403 DT 09F20000 Rx 8  00 00 00 FF FF FF FF FF 
   1332      2808.983 DT 0CEF0100 Rx 8  B0 20 00 00 00 63 5C 00 
   1333      2811.959 DT 09F8021C Rx 8  80 FC 18 04 03 00 FF FF 
   1334      2812.931 DT 09F8011C Rx 8  B4 6D 26 18 44 6B 5B C1 
   1335      2813.963 DT 04EF001C Rx 8  DE 45 F0 B3 DE A5 F0 57 
   1336      2814.982 DT 19FA031C Rx 8  80 D2 86 00 28 01 E5 00 
   1337      2815.994 DT 0DF0101C Rx 8  80 F0 3C 4F E0 F1 58 20 
   1338      2817.010 DT 18FEE81C Rx 8  01 03 00 00 80 63 55 7E 
   1339      2818.098 DT 19FA041C Rx 8  00 C3 80 FF 10 05 38 31 
   1340      2819.081 DT 19FA041C Rx 8  01 46 69 04 10 FF FF FF 
   1341      2820.089 DT 19FA041C Rx 8  02 FF FF 06 5E 01 7C 2E 
   1342      2821.113 DT 19FA041C Rx 8  03 00 00 FF FF FF FF FF 
   1343      2822.113 DT 19FA041C Rx 8  04 09 5E 01 24 13 00 00 
   1344      2822.821 DT 0CF00400 Rx 8  FF 7D 7D 00 00 00 FF FF 
   1345      2823.401 DT 19FA041C Rx 8  05 FF FF FF FF FF 0B ED 
   1346      2824.084 DT 04EF001C Rx 8  2C 49 65 2F 2C E9 65 8B 
   1347      2825.140 DT 19FA041C Rx 8  06 17 A6 27 AC 0D FF FF 
   1348      2826.148 DT 19FA041C Rx 8  07 FF FF FF 0C 4B 19 84 
   1349      2827.168 DT 19FA041C Rx 8  08 80 68 10 FF FF FF FF 
   1350      2827.836 DT 0CEF0100 Rx 8  B0 20 00 00 00 63 5C 00 
   1351      2828.404 DT 19FA041C Rx 8  09 FF 0D BC 02 F8 5C 00 
   1352      2829.219 DT 19FA041C Rx 8  0A 00 FF FF FF FF FF 0F 
   1353      2830.195 DT 19FA041C Rx 8  0B 0D 02 D8 72 00 00 FF 
   1354      2831.203 DT 19FA041C Rx 8  0C FF FF FF FF 12 E3 08 
   1355      2832.224 DT 19FA041C Rx 8  0D BC B1 00 00 FF FF FF 
   1356      2832.832 DT 18FEF200 Rx 8  00 00 FF FF FF FF 37 FF 
   1357      2833.392 DT 19FA041C Rx 8  0E FF FF 14 62 2A 04 29 
   1358      2834.208 DT 04EF001C Rx 8  FF 4B A0 B5 FF 2B A0 D1 
   1359      2835.276 DT 19FA041C Rx 8  0F 48 0D FF FF FF FF FF 
   1360      2836.255 DT 19FA041C Rx 8  10 15 99 25 C0 2B 1C 0C 
   1361      2837.279 DT 19FA041C Rx 8  11 FF FF FF FF FF 19 7F 
   1362      2838.063 DT 19F10D13 Rx 8  05 C5 01 23 02 00 00 3E 
   1363      2838.623 DT 19F21139 Rx 8  00 00 00 FF 84 93 01 00 
   1364      2839.195 DT 19FA041C Rx 8  12 21 F6 9F 04 10 FF FF 
   1365      2840.315 DT 19FA041C Rx 8  13 FF FF FF 1A 00 00 38 
   1366      2841.331 DT 19FA041C Rx 8  14 E0 00 00 FF FF FF FF 
   1367      2842.322 DT 19FA041C Rx 8  15 FF 1C AF 00 C6 C0 00 
   1368      2842.866 DT 0CEF1100 Rx 8  B1 A6 36 66 88 38 EA A6 
   1369      2843.442 DT 0CF00400 Rx 8  FF 7D 7D 00 00 00 FF FF 
   1370      2844.022 DT 19FA041C Rx 8  16 00 FF FF FF FF FF 1D 
   1371      2845.290 DT 04EF001C Rx 8  AB 4E DE 10 AB 6E DE 34 
   1372      2846.386 DT 19FA041C Rx 8  16 00 FF FF FF FF FF 1D 
   1373      2847.378 DT 19FA041C Rx 8  17 2E 22 48 D5 74 0E FF 
   1374      2847.958 DT 0CEF0100 Rx 8  B0 20 00 00 00 63 5C 00 
   1375      2848.518 DT 18FFDC00 Rx 8  60 14 01 00 00 59 7B 19 
   1376      2849.094 DT 19FA041C Rx 8  18 FF FF FF FF 1F AF 00 
   1377      2850.421 DT 19FA041C Rx 8  19 8C D2 00 00 FF FF FF 
   1378      2851.421 DT 19FA041C Rx 8  1A FF FF 30 A9 1A 30 8E 
   1379      2852.453 DT 19FA041C Rx 8  1B 3C 0F FF FF FF FF FF 
   1380      2853.033 DT 0CF00300 Rx 8  DF 00 4F FF 00 FF FF FF 
   1381      2853.601 DT 18FFDC00 Rx 8  61 01 00 00 00 A4 FF DC 
   1382      2854.445 DT 04EF001C Rx 8  C4 50 42 76 C4 70 42 52 
   1383      2856.578 DT 18FF1080 Rx 8  00 00 00 FF FF FF FD 00 
   1384      2857.582 DT 18FF1180 Rx 8  03 FF FB FF FF FF 00 FF 
   1385      2858.146 DT 18FFDC00 Rx 8  62 FF FF 9F D3 22 00 FF 
   1386      2862.818 DT 0CF00400 Rx 8  FF 7D 7D 00 00 00 FF FF 
   1387      2864.510 DT 04EF001C Rx 8  4F 54 ED 2A 4F 54 ED 2E 
   1388      2867.830 DT 0CEF0100 Rx 8  B0 20 00 00 00 63 5C 00 
   1389      2872.817 DT 18FEF100 Rx 8  FF 02 00 F0 FF C7 1F FF 
   1390      2874.625 DT 04EF001C Rx 8  E7 56 50 68 E7 56 50 6C 
   1391      2882.817 DT 0CF00400 Rx 8  FF 7D 7D 00 00 00 FF FF 
   1392      2884.737 DT 04EF001C Rx 8  89 59 45 17 89 59 45 13 
   1393      2887.829 DT 0CEF0100 Rx 8  B0 20 00 00 00 63 5C 00 
   1394      2892.801 DT 0CEF1100 Rx 8  05 D0 2E D8 D5 E0 85 55 
   1395      2894.853 DT 04EF001C Rx 8  42 5C A0 4A BD BB 5F A9 
   1396      2897.812 DT 18FFDC00 Rx 8  80 14 01 00 00 58 7B 19 
   1397      2902.808 DT 18FFDC00 Rx 8  81 01 00 00 00 A4 FF DC 
   1398      2903.389 DT 0CF00300 Rx 8  DF 00 4F FF 00 FF FF FF 
   1399      2903.965 DT 0CF00400 Rx 8  FF 7D 7D 00 00 00 FF FF 
   1400      2904.548 DT 18FF1C17 Rx 8  00 01 50 00 00 00 00 00 
   1401      2905.096 DT 04EF001C Rx 8  87 5F 7B 61 87 5F 7B 65 
   1402      2907.808 DT 18FFDC00 Rx 8  82 FF FF 9F D3 22 00 FF 
   1403      2908.404 DT 09F20000 Rx 8  00 00 00 FF FF FF FF FF 
   1404      2908.984 DT 0CEF0100 Rx 8  B0 20 00 00 00 63 5C 00 
   1405      2909.724 DT 18FF1CF3 Rx 8  00 00 00 00 00 00 00 00 
   1406      2915.069 DT 04EF001C Rx 8  91 41 9D CF 91 61 9D EB 
   1407      2922.812 DT 0CF00400 Rx 8  FF 7D 7D 00 00 00 FF FF 
   1408      2925.184 DT 04EF001C Rx 8  80 44 A4 42 80 64 A4 66 
   1409      2927.828 DT 0CEF0100 Rx 8  B0 20 00 00 00 63 5C 00 
   1410      2932.824 DT 18FEF200 Rx 8  00 00 FF FF FF FF 37 FF 
   1411      2935.283 DT 04EF001C Rx 8  D6 46 E0 F0 D6 66 E0 D4 
   1412      2938.063 DT 19F10D13 Rx 8  06 B3 01 23 02 00 00 48 
   1413      2938.635 DT 19F21139 Rx 8  00 00 00 FF E8 93 01 00 
   1414      2942.811 DT 0CF00400 Rx 8  FF 7D 7D 00 00 00 FF FF 
   1415      2943.367 DT 0CEF1100 Rx 8  C6 D4 38 01 93 96 07 A7 
   1416      2945.399 DT 04EF001C Rx 8  CD 49 83 27 CD 69 83 03 
   1417      2947.807 DT 18FFDC00 Rx 8  A0 14 01 00 00 58 7B 19 
   1418      2948.387 DT 0CEF0100 Rx 8  B0 20 00 00 00 63 5C 00 
   1419      2952.806 DT 18FFDC00 Rx 8  A1 01 00 00 00 A4 FF DC 
   1420      2953.386 DT 0CF00300 Rx 8  DF 00 4F FF 00 FF FF FF 
   1421      2955.502 DT 04EF001C Rx 8  56 4C 34 FA 56 6C 34 DE 
   1422      2957.575 DT 18FF1080 Rx 8  00 00 00 FF FF FF FD 00 
   1423      2958.139 DT 18FFDC00 Rx 8  A2 FF FF 9F D3 22 00 FF 
   1424      2958.727 DT 18FF1180 Rx 8  03 FF FB FF FF FF 00 FF 
   1425      2959.579 DT 18FF1380 Rx 8  00 00 00 00 3F C0 C0 06 
   1426      2962.811 DT 0CF00400 Rx 8  FF 7D 7D 00 00 00 FF FF 
   1427      2965.611 DT 04EF001C Rx 8  DF 4E A9 B0 20 A9 56 53 
   1428      2967.823 DT 0CEF0100 Rx 8  B0 20 00 00 00 63 5C 00 
   1429      2972.811 DT 18FEF100 Rx 8  FF 02 00 F0 FF C7 1F FF 
   1430      2975.719 DT 04EF001C Rx 8  9F 51 13 AF 60 B6 EC 4C 
   1431      2982.810 DT 0CF00400 Rx 8  FF 7D 7D 00 00 00 FF FF 
   1432      2985.838 DT 04EF001C Rx 8  5E 54 FC A2 A1 F3 03 01 
   1433      2987.822 DT 0CEF0100 Rx 8  B0 20 00 00 00 63 5C 00 
   1434      2989.694 DT 18FF1CF3 Rx 8  00 00 00 00 00 00 00 00 
   1435      2992.791 DT 0CEF1100 Rx 8  89 C6 39 BD E0 5F DF FD 
   1436      2995.959 DT 04EF001C Rx 8  20 57 99 51 DF F0 66 F2 
   1437      2997.799 DT 18FFDC00 Rx 8  C0 14 01 00 00 58 7B 19 
   1438      3002.799 DT 18FFDC00 Rx 8  C1 01 00 00 00 A4 FF DC 
   1439      3003.379 DT 0CF00300 Rx 8  DF 00 4F FF 00 FF FF FF 
   1440      3003.955 DT 0CF00400 Rx 8  FF 7D 7D 00 00 00 FF FF 
   1441      3006.054 DT 04EF001C Rx 8  13 5A C3 C4 EC DD 3C 47 
   1442      3007.794 DT 18FFDC00 Rx 8  C2 FF FF 9F D3 22 00 FF 
   1443      3008.390 DT 09F20000 Rx 8  00 00 00 FF FF FF FF FF 
   1444      3008.970 DT 0CEF0100 Rx 8  B0 20 00 00 00 63 5C 00 
   1445      3012.822 DT 09F20100 Rx 8  20 16 00 07 00 FF FF 3C 
   1446      3016.174 DT 04EF001C Rx 8  9F 5C 7B A2 60 3B 84 C1 
   1447      3017.790 DT 09F20100 Rx 8  21 75 C9 04 00 00 9F D3 
   1448      3022.810 DT 0CF00400 Rx 8  FF 7D 7D 00 00 00 FF FF 
   1449      3023.386 DT 09F20100 Rx 8  22 22 00 FF FF FF FF 00 
   1450      3023.966 DT 18FEEE00 Rx 8  43 FF FF FF FF FF 41 FF 
   1451      3026.278 DT 04EF001C Rx 8  93 5F 6F C1 6C 78 90 E2 
   1452      3027.818 DT 09F20100 Rx 8  23 01 00 FF FF FF FF FF 
   1453      3028.397 DT 0CEF0100 Rx 8  B0 20 00 00 00 63 5C 00 
   1454      3028.977 DT 18FEEF00 Rx 8  FF FF FF 00 FF FF FF FF 
   1455      3032.821 DT 18FEF200 Rx 8  00 00 FF FF FF FF 37 FF 
   1456      3036.409 DT 04EF001C Rx 8  1F 42 0F BC E1 A5 F1 5F 
   1457      3037.797 DT 18FEF700 Rx 8  FF FF 1A 01 F5 00 F6 00 
   1458      3038.357 DT 19F10D13 Rx 8  07 A4 01 23 02 00 00 50 
   1459      3038.921 DT 19F21139 Rx 8  00 00 00 FF 4C 94 01 00 
   1460      3042.809 DT 0CF00400 Rx 8  FF 7D 7D 00 00 00 FF FF 
   1461      3043.357 DT 0CEF1100 Rx 8  74 F8 71 1B D9 4F E1 7A 
   1462      3046.509 DT 04EF001C Rx 8  DE 44 F8 B2 20 83 06 71 
   1463      3047.805 DT 18FFDC00 Rx 8  E0 14 01 00 00 58 7B 19 
   1464      3048.385 DT 0CEF0100 Rx 8  B0 20 00 00 00 63 5C 00 
   1465      3052.804 DT 18FFDC00 Rx 8  E1 01 00 00 00 A4 FF DC 
   1466      3053.384 DT 0CF00300 Rx 8  DF 00 4F FF 00 FF FF FF 
   1467      3056.608 DT 04EF001C Rx 8  9F 47 A3 B9 61 20 5D DA 
   1468      3057.577 DT 18FF1080 Rx 8  00 00 00 FF FF FF FD 00 
   1469      3058.157 DT 0CEF1700 Rx 8  01 84 00 00 00 00 FF FF 
   1470      3058.745 DT 18FF1180 Rx 8  03 FF FB FF FF FF 00 FF 
   1471      3059.313 DT 18FFDC00 Rx 8  E2 FF FF 9F D3 22 00 FF 
   1472      3062.809 DT 0CF00400 Rx 8  FF 7D 7D 00 00 00 FF FF 
   1473      3063.401 DT 18FEFC00 Rx 8  FF DC FF FF FF FF FF FF 
   1474      3066.741 DT 04EF001C Rx 8  EE 4A B9 3C 10 6D 47 1F 
   1475      3067.825 DT 0CEF0100 Rx 8  B0 20 00 00 00 63 5C 00 
   1476      3068.401 DT 18FEF600 Rx 8  FF FF 43 2A FF FF FF FF 
   1477      3072.809 DT 18FEF100 Rx 8  FF 02 00 F0 FF C7 1F FF 
   1478      3076.841 DT 04EF001C Rx 8  AF 4D C2 33 51 4A 3C 30 
   1479      3082.809 DT 0CF00400 Rx 8  FF 7D 7D 00 00 00 FF FF 
   1480      3086.952 DT 04EF001C Rx 8  48 50 CA 16 B5 97 37 D5 
   1481      3087.824 DT 0CEF0100 Rx 8  B0 20 00 00 00 63 5C 00 
   1482      3092.780 DT 0CEF1100 Rx 8  23 EA 76 67 AC B0 8F 11 
   1483      3097.076 DT 04EF001C Rx 8  30 53 A9 D5 CD F4 54 76 
   1484      3097.804 DT 18FFDC00 Rx 8  00 14 01 00 00 58 7B 19 
   1485      3102.800 DT 18FFDC00 Rx 8  01 01 00 00 00 A4 FF DC 
   1486      3103.380 DT 0CF00300 Rx 8  DF 00 4F FF 00 FF FF FF 
   1487      3103.956 DT 0CF00400 Rx 8  FF 7D 7D 00 00 00 FF FF 
   1488      3104.540 DT 18FF1C17 Rx 8  00 01 50 00 00 00 00 00 
   1489      3107.176 DT 04EF001C Rx 8  EC 55 43 33 11 D2 BE B0 
   1490      3107.808 DT 18FFDC00 Rx 8  02 FF FF 9F D3 22 00 FF 
   1491      3108.404 DT 09F20000 Rx 8  00 00 00 FF FF FF FF FF 
   1492      3108.984 DT 0CEF0100 Rx 8  B0 20 00 00 00 63 5C 00 
   1493      3117.291 DT 04EF001C Rx 8  8B 58 4F 06 76 FF B2 A5 
   1494      3122.803 DT 0CF00400 Rx 8  FF 7D 7D 00 00 00 FF FF 
   1495      3127.394 DT 04EF001C Rx 8  6D 5B B6 35 90 9C 4B F6 
   1496      3127.974 DT 0CEF0100 Rx 8  B0 20 00 00 00 63 5C 00 
   1497      3132.814 DT 18FEF200 Rx 8  00 00 FF FF FF FF 37 FF 
   1498      3137.506 DT 04EF001C Rx 8  9F 5D 73 A3 62 FA 8E 00 
   1499      3138.070 DT 19F10D13 Rx 8  08 95 01 23 02 00 00 58 
   1500      3138.630 DT 19F21139 Rx 8  00 00 00 FF B0 94 01 00 
   1501      3142.802 DT 0CF00400 Rx 8  FF 7D 7D 00 00 00 FF FF 
   1502      3143.350 DT 0CEF1100 Rx 8  EC EA 43 DF 54 C6 0B 12 
   1503      3147.613 DT 04EF001C Rx 8  5F 40 5D BE A2 27 A0 DD 
   1504      3148.193 DT 0CEF0100 Rx 8  B0 20 00 00 00 63 5C 00 
   1505      3148.762 DT 18FFDC00 Rx 8  20 14 01 00 00 58 7B 19 
   1506      3149.697 DT 18FF1CF3 Rx 8  00 00 00 00 00 00 00 00 
   1507      3152.802 DT 18FFDC00 Rx 8  21 01 00 00 00 A4 FF DC 
   1508      3153.382 DT 0CF00300 Rx 8  DF 00 4F FF 00 FF FF FF 
   1509      3157.567 DT 18FF1080 Rx 8  00 00 00 FF FF FF FD 00 
   1510      3158.139 DT 04EF001C Rx 8  1F 43 07 BD E2 04 FA FE 
   1511      3158.727 DT 18FF1180 Rx 8  03 FF FB FF FF FF 00 FF 
   1512      3159.295 DT 18FFDC00 Rx 8  22 FF FF 9F D3 22 00 FF 
   1513      3159.880 DT 18FF1380 Rx 8  00 00 00 00 3F C0 C0 06 
   1514      3162.804 DT 0CF00400 Rx 8  FF 7D 7D 00 00 00 FF FF 
   1515      3167.815 DT 0CEF0100 Rx 8  B0 20 00 00 00 63 5C 00 
   1516      3168.384 DT 04EF001C Rx 8  DE 45 F0 B3 23 02 0D F0 
   1517      3169.696 DT 0CEF0017 Rx 8  81 04 00 00 00 00 FF FF 
   1518      3172.803 DT 18FEF100 Rx 8  FF 02 00 F0 FF C7 1F FF 
   1519      3177.807 DT 18E8FF00 Rx 8  02 FF FF FF FF 00 EF 00 
   1520      3178.351 DT 04EF001C Rx 8  A0 48 E5 4E 5D 4F 18 4D 
   1521      3182.803 DT 0CF00400 Rx 8  FF 7D 7D 00 00 00 FF FF 
   1522      3187.815 DT 0CEF0100 Rx 8  B0 20 00 00 00 63 5C 00 
   1523      3188.367 DT 04EF001C Rx 8  5F 4B 05 B5 A3 AC F9 56 
   1524      3189.695 DT 0CEA1C00 Rx 8  00 EE 00 00 00 00 00 00 
   1525      3191.139 DT 18EEFF1C Rx 8  02 04 45 0E 00 00 00 42 
   1526      3192.783 DT 0CEF1100 Rx 8  A7 E4 A3 44 19 01 A3 BF 
   1527      3197.790 DT 18FFDC00 Rx 8  40 14 01 00 00 58 7B 19 
   1528      3198.343 DT 04EF001C Rx 8  20 4E 51 48 DC 89 AD 8B 
   1529      3202.795 DT 18FFDC00 Rx 8  41 01 00 00 00 A4 FF DC 
   1530      3203.375 DT 0CF00300 Rx 8  DF 00 4F FF 00 FF FF FF 
   1531      3203.951 DT 0CF00400 Rx 8  FF 7D 7D 00 00 00 FF FF 
   1532      3207.790 DT 18FFDC00 Rx 8  42 FF FF 9F D3 22 00 FF 
