(1753137123.090007) can0 18F01D21#21D0128000D91280
(1753137123.091234) can0 0CF00400#FF7D7F481200FFFF
(1753137123.092246) can0 04EF001C#A14AFF34577D0277
(1753137123.096092) can0 18FF50E0#018BBC747E008061
(1753137123.096204) can0 0CF34155#38FC128045FFFFFF
(1753137123.096358) can0 0CEF0100#A020024900269A1F
(1753137123.101268) can0 18FEF100#FFC205F0FFC71FFF
(1753137123.102252) can0 04EF001C#874DE013716A1D50
(1753137123.111208) can0 0CF00400#FF7D7F601200FFFF
(1753137123.112219) can0 04EF001C#2B50A16EDDD75C8D
(1753137123.116248) can0 0CEF0100#A020024900269A1F
(1753137123.117277) can0 18FF1CF3#0000000000000000
(1753137123.121241) can0 0CEF1100#DBD43FA960F1BF7C
(1753137123.122245) can0 04EF001C#E2527E2417158007
(1753137123.124424) can0 19F10D13#0B6E0159025A006D
(1753137123.125401) can0 19F21139#000000FFDC491600
(1753137123.126405) can0 18FFDC00#0014014F02948C4E
(1753137123.131236) can0 18FFDC00#019303A400A0FFA3
(1753137123.132248) can0 0CF00300#DF000EFF00FFFFFF
(1753137123.133223) can0 04EF001C#C655630333B29D80
(1753137123.133224) can0 0CF00400#FF7D7F781200FFFF
(1753137123.136196) can0 18FFDC00#02FFFF4B2A2300FF
(1753137123.137222) can0 09F20000#003C09FFFFFFFFFF
(1753137123.138217) can0 0CEF0100#A020024D00269A1F
(1753137123.142170) can0 04EF001C#F8574CF10DD0B212
(1753137123.151297) can0 0CF00400#FF7D7F701200FFFF
(1753137123.152338) can0 04EF001C#B95A67F44CFD9937
(1753137123.156264) can0 0CEF0100#A020024E00269A1F
(1753137123.157288) can0 0CEF0017#810400000000FFFF
(1753137123.159493) can0 18FF2117#06FFFFFF00FFFFFF
(1753137123.161245) can0 18FEF200#3000FFFFFFFF10FF
(1753137123.162418) can0 04EF001C#795D99F38D3A66F0
(1753137123.166320) can0 18E8FF00#02FFFFFFFF00EF00
(1753137123.171334) can0 0CF00400#FF7D7F701200FFFF
(1753137123.172281) can0 0CEF1100#88C4A9F59A9CC46B
(1753137123.173278) can0 04EF001C#5D4054CEA907ABED
(1753137123.174321) can0 18FF1080#000000FFFFFFFC00
(1753137123.175315) can0 18FF1180#FDFFF4FFFFFF23FF
(1753137123.176315) can0 18FFDC00#2014014D02948B4E
(1753137123.177334) can0 0CEF0100#A020024E00269A1F
(1753137123.181246) can0 18FFDC00#219303A400A0FFA3
(1753137123.182266) can0 0CF00300#DF000EFF00FFFFFF
(1753137123.183297) can0 04EF001C#1D430ECDE924F1CE
(1753137123.186274) can0 18FFDC00#22FFFF4B2A2300FF
(1753137123.190415) can0 18F01D21#ACF9128000FC1280
(1753137123.191469) can0 0CF00400#FF7D7F701200FFFF
(1753137123.192445) can0 09F112F8#FF4D6C0000FF7FFD
(1753137123.193486) can0 04EF001C#DC45F9D328B20650
(1753137123.196224) can0 0CEF0100#A020024D00269A1F
(1753137123.197602) can0 18FF50E0#018BBC7E7E008062
(1753137123.197700) can0 0CF34155#1B15138045FFFFFF
(1753137123.201232) can0 18FEF100#FFC005F0FFC71FFF
(1753137123.202904) can0 04EF001C#D448999E20BF661D
(1753137123.211259) can0 0CF00400#FF7D7F701200FFFF
(1753137123.212983) can0 04EF001C#6C4B3C5D98DCC3BE
(1753137123.216229) can0 0CEF0100#A020024D00269A1F
(1753137123.217266) can0 18FF1CF3#0000000000000000
(1753137123.221230) can0 0CEF1100#49C0BFBCE26F6FED
(1753137123.223087) can0 04EF001C#2D4E5750267E5714
(1753137123.224426) can0 19F10D13#0C6E0159025A006D
(1753137123.225443) can0 19F21139#000000FF404A1600
(1753137123.226462) can0 18FFDC00#4014014E02948C4E
(1753137123.231210) can0 18FFDC00#419203A600A0FF91
(1753137123.232224) can0 0CF00300#DF000EFF00FFFFFF
(1753137123.233263) can0 0CF00400#FF7D7F701200FFFF
(1753137123.233266) can0 04EF001C#145197871FC19763
(1753137123.236276) can0 18FFDC00#42FFFF4B2A2300FF
(1753137123.237246) can0 09F20000#003809FFFFFFFFFF
(1753137123.238218) can0 0CEF0100#A020024D00279A1F
(1753137123.243270) can0 04EF001C#7853E8E572A3E961
(1753137123.251307) can0 0CF00400#FF7D7F701200FFFF
(1753137123.253396) can0 04EF001C#6D56D5486766D40C
(1753137123.256298) can0 0CEF0100#A020024E00279A1F
(1753137123.261291) can0 18FEF200#3000FFFFFFFF0FFF
(1753137123.263498) can0 04EF001C#2C59EE4F2669EF0B
(1753137123.267275) can0 18FF1C17#0000000000000000
(1753137123.271296) can0 0CF00400#FF7D7F301200FFFF
(1753137123.272266) can0 0CEF1100#37F16BC1ED414018
(1753137123.273595) can0 04EF001C#915C7EA29BAC7F26
(1753137123.274623) can0 18FF1080#000000FFFFFFFC00
(1753137123.275716) can0 18FF1180#FDFFF4FFFFFF23FF
(1753137123.276689) can0 0CEF0100#A020024B00269A1F
(1753137123.277702) can0 18FF1380#000000003FC0C006
(1753137123.277704) can0 18FFDC00#6014014402948B4E
(1753137123.281184) can0 18FFDC00#619203A100A0FF82
(1753137123.282208) can0 0CF00300#DF000EFF00FFFFFF
(1753137123.283725) can0 04EF001C#755F85817F0F84A5
(1753137123.286208) can0 18FFDC00#62FFFF4B2A2300FF
(1753137123.289746) can0 18F01D21#7F21138000151380
(1753137123.291202) can0 0CF00400#FF7D7F101200FFFF
(1753137123.293885) can0 04EF001C#C741C20FCDB1C38B
(1753137123.296278) can0 0CEF0100#A020024400269A1F
(1753137123.299456) can0 18FF50E0#018BBC7E7E008063
(1753137123.299612) can0 0CF34155#0B07138045FFFFFF
(1753137123.301317) can0 18FEF100#FFBF05F0FFC71FFF
(1753137123.303953) can0 04EF001C#62444A2268F44BE6
(1753137123.311256) can0 0CF00400#FF7D7F181200FFFF
(1753137123.314060) can0 04EF001C#234711292A77136D
(1753137123.316271) can0 0CEF0100#A020024200279A1F
(1753137123.317269) can0 18FF1CF3#0000000000000000
(1753137123.321210) can0 0CEF1100#EFECF306A7803C49
(1753137123.322458) can0 1DEFFFF8#000CE5986C070202
(1753137123.323457) can0 1DEFFFF8#01410089000000FF
(1753137123.324534) can0 04EF001C#064A5D0C0FDA5FE8
(1753137123.325505) can0 19F10D13#0D6E0159025A006D
(1753137123.325507) can0 19F21139#000000FFA44A1600
(1753137123.326501) can0 1DEFFFF8#200CE5986C070202
(1753137123.326501) can0 18FFDC00#8014014602948B4E
(1753137123.327498) can0 1DEFFFF8#21430001000000FF
(1753137123.328548) can0 1DEFFFF8#4009E5986C070202
(1753137123.329540) can0 1DEFFFF8#41280000FFFFFFFF
(1753137123.331205) can0 18FFDC00#819203A300A0FF7D
(1753137123.332208) can0 0CF00300#DF000EFF00FFFFFF
(1753137123.333200) can0 0CF00400#FF7D7F381200FFFF
(1753137123.333201) can0 1DEFFFF8#6009E5986C070202
(1753137123.334227) can0 1DEFFFF8#61340000FFFFFFFF
(1753137123.335226) can0 04EF001C#104D73BB181D709F
(1753137123.335227) can0 1DEFFFF8#8009E5986C070202
(1753137123.336248) can0 1DEFFFF8#811B00FFFFFFFFFF
(1753137123.336249) can0 18FFDC00#82FFFF4B2A2300FF
(1753137123.337273) can0 09F20000#001809FFFFFFFFFF
(1753137123.338285) can0 0CEF0100#A020024400279A1F
(1753137123.338286) can0 1DEFFFF8#A009E5986C070202
(1753137123.339276) can0 1DEFFFF8#A11D00FFFFFFFFFF
(1753137123.340267) can0 09F112F8#FF486C0000FF7FFD
(1753137123.344403) can0 04EF001C#F84E84F8F0FE873C
(1753137123.349508) can0 09F8021C#72FC6E72A000FFFF
(1753137123.350491) can0 09F8011C#74D02818A67853C1
(1753137123.351519) can0 0CF00400#FF7D7F201200FFFF
(1753137123.352544) can0 19FA031C#72D25C00A2006800
(1753137123.353542) can0 0DF0101C#72F0424F30635A30
(1753137123.353547) can0 18FEE81C#EE53C8059A634C81
(1753137123.354565) can0 04EF001C#0852939400729030
(1753137123.355606) can0 19FA041C#809372FF0C013E17
(1753137123.356645) can0 18FEEF00#FFFFFF34FFFFFFFF
(1753137123.357661) can0 0CEF0100#A020024500279A1F
(1753137123.357664) can0 19FA041C#81D0CF0410FFFFFF
(1753137123.358658) can0 19FA041C#82FFFF02212034B7
(1753137123.359685) can0 19FA041C#830410FFFFFFFFFF
(1753137123.360665) can0 19FA041C#84038507D0CF100E
(1753137123.361669) can0 18FEF200#3000FFFFFFFF0FFF
(1753137123.362696) can0 19FA041C#85FFFFFFFFFF0A14
(1753137123.363734) can0 19FA041C#861E324B100EFFFF
(1753137123.363737) can0 19FA041C#87FFFFFF0C27068C
(1753137123.364722) can0 04EF001C#28558A9320758937
(1753137123.365706) can0 19FA041C#88230000FFFFFFFF
(1753137123.366706) can0 19FA041C#89FF175E01085248
(1753137123.367729) can0 19FA041C#8A0DFFFFFFFFFF19
(1753137123.368739) can0 19FA041C#8B4E0C0E38AC0DFF
(1753137123.369725) can0 19FA041C#8CFFFFFFFF1C2B2F
(1753137123.370730) can0 19FA041C#8D8A663C0FFFFFFF
(1753137123.371785) can0 0CEF1100#A5E5EBD4D1DE9D79
(1753137123.372783) can0 0CF00400#FF7D7F201200FFFF
(1753137123.372785) can0 19FA041C#8EFFFF1F651D8480
(1753137123.373853) can0 19FA041C#8F6810FFFFFFFFFF
(1753137123.374817) can0 18FF1080#000000FFFFFFFC00
(1753137123.375798) can0 04EF001C#DD576839D5376BDD
(1753137123.375799) can0 18FF1180#FCFFF4FFFFFF23FF
(1753137123.376811) can0 0CEF0100#A020024300279A1F
(1753137123.377885) can0 18FFDC00#A014014502948A4E
(1753137123.377888) can0 19FA041C#9020A627141E9411
(1753137123.378832) can0 19FA041C#91FFFFFFFFFF2CB6
(1753137123.379878) can0 19FA041C#921CFC853C0FFFFF
(1753137123.380884) can0 19FA041C#93FFFFFF30A91A30
(1753137123.381923) can0 0CF00300#DF000EFF00FFFFFF
(1753137123.382889) can0 18FFDC00#A19203A300A0FF7B
(1753137123.382891) can0 19FA041C#948ED80EFFFFFFFF
(1753137123.383930) can0 19FA041C#95FFFFFFFFFFFFFF
(1753137123.384915) can0 04EF001C#5D5A8434557A8790
(1753137123.386249) can0 18FFDC00#A2FFFF4B2A2300FF
(1753137123.387221) can0 0CEF1700#018400000000FFFF
(1753137123.390149) can0 18F01D21#B005138000071380
(1753137123.391251) can0 0CF00400#FF7D80581200FFFF
(1753137123.394984) can0 04EF001C#B75C5962B8FC5D46
(1753137123.396241) can0 0CEF0100#A020024600279A1F
(1753137123.397254) can0 18FEF600#FFFF5910FFFFFFFF
(1753137123.401251) can0 18FEF100#FFBF05F0FFC71FFF
(1753137123.401603) can0 18FF50E0#018BBCFB7A008064
(1753137123.401710) can0 0CF34155#DA7F0D8045FFFFFF
(1753137123.405048) can0 04EF001C#795F8911765F8D95
(1753137123.411238) can0 0CF00400#FF7D80901200FFFF
(1753137123.415237) can0 04EF001C#38422204370226C0
(1753137123.416184) can0 0CEF0100#A020024E00279A1F
(1753137123.421204) can0 0CEF1100#E79AC15860151068
(1753137123.424458) can0 19F10D13#0E6D0159025A006D
(1753137123.425405) can0 19F21139#000000FF084B1600
(1753137123.426458) can0 04EF001C#F844D402F6C4D106
(1753137123.426459) can0 18FFDC00#C014015302948B4D
(1753137123.431228) can0 18FFDC00#C19203A900A0FF7B
(1753137123.432237) can0 0CF00300#DF000EFF00FFFFFF
(1753137123.433210) can0 0CF00400#FF7D7F981200FFFF
(1753137123.435373) can0 04EF001C#B7478169B9D7846D
(1753137123.436375) can0 18FFDC00#C2FFFF4B2A2300FF
(1753137123.437395) can0 09F20000#005009FFFFFFFFFF
(1753137123.437396) can0 0CEF0100#A020025200279A1F
(1753137123.438394) can0 18FF1CF3#0000000000000000
(1753137123.445514) can0 04EF001C#784A201C769A2558
(1753137123.451270) can0 0CF00400#FF7D7FA01200FFFF
(1753137123.455624) can0 04EF001C#374D556339BD5007
(1753137123.456610) can0 0CEF0100#A020025300279A1F
(1753137123.461211) can0 18FEF200#3200FFFFFFFF0DFF
(1753137123.465782) can0 04EF001C#F84F8C19F67F89BD
(1753137123.468609) can0 09F112F8#FF4E6C0000FF7FFD
(1753137123.471282) can0 0CF00400#FF7D7F981200FFFF
(1753137123.472248) can0 0CEF1100#249ED7819279473A
(1753137123.474723) can0 18FF1080#000000FFFFFFFC00
(1753137123.475717) can0 18FF1180#FCFFF4FFFFFF23FF
(1753137123.476794) can0 04EF001C#2153B3CD2F03B609
(1753137123.477736) can0 0CEF0100#A020025300269A1F
(1753137123.477739) can0 18FF1380#000000003FC0C006
(1753137123.478758) can0 18FFDC00#E014015202948B4E
(1753137123.481767) can0 18FFDC00#E19203A700A0FF7A
(1753137123.482247) can0 0CF00300#DF000EFF00FFFFFF
(1753137123.484442) can0 18FF2D21#01868BEE7F980B00
(1753137123.485965) can0 04EF001C#0656BDF00866B854
(1753137123.487032) can0 18FFDC00#E2FFFF4B2A2300FF
(1753137123.490553) can0 18F01D21#84AF128000800D80
(1753137123.491605) can0 0CF00400#FF7D7F801200FFFF
(1753137123.496089) can0 04EF001C#C6580BCEC8780E4A
(1753137123.497107) can0 0CEF0100#A020025100279A1F
(1753137123.501351) can0 18FEF100#FFC005F0FFC71FFF
(1753137123.504628) can0 18FF50E0#018BBC7D7E008065
(1753137123.504894) can0 0CF34155#4A02138045FFFFFF
(1753137123.506512) can0 04EF001C#625BB2ED6C5BB749
(1753137123.511252) can0 0CF00400#FF7D7F901200FFFF
(1753137123.516294) can0 0CEF0100#A020025100279A1F
(1753137123.517266) can0 04EF001C#465EBFC84BDEB9EC
(1753137123.518242) can0 18FF1CF3#0000000000000000
(1753137123.521226) can0 0CEF1100#7B8CD2BDE594BB41
(1753137123.524444) can0 19F10D13#0F6F0159025A006C
(1753137123.525442) can0 19F21139#000000FF6C4B1600
(1753137123.526446) can0 18FFDC00#0014015602948B4E
(1753137123.527441) can0 04EF001C#064105D70B610353
(1753137123.531254) can0 18FFDC00#019203A800A0FF7A
(1753137123.532265) can0 0CF00300#DF000EFF00FFFFFF
(1753137123.533281) can0 0CF00400#FF7D7FB81200FFFF
(1753137123.536256) can0 18FFDC00#02FFFF4B2A2300FF
(1753137123.537240) can0 04EF001C#39432B2D34232DE9
(1753137123.538245) can0 09F20000#005C09FFFFFFFFFF
(1753137123.538247) can0 0CEF0100#A020025400269A1F
(1753137123.546611) can0 04EF001C#FB45DF3BF7A5D87F
(1753137123.551320) can0 0CF00400#FF7D7FA01200FFFF
(1753137123.552282) can0 18FECA00#00FF00000000FFFF
(1753137123.556230) can0 0CEF0100#A020025500269A1F
(1753137123.557211) can0 04EF001C#B948F736B418F1D2
(1753137123.559615) can0 15FD069B#237074FFFFFFFFFF
(1753137123.561265) can0 18FEF200#3100FFFFFFFF0EFF
(1753137123.566819) can0 04EF001C#7A4B2A2D773B2CE9
(1753137123.571254) can0 0CF00400#FF7D7F981200FFFF
(1753137123.572234) can0 0CEF1100#B88CE465AAE331FA
(1753137123.575719) can0 18FF1080#000000FFFFFFFC00
(1753137123.576753) can0 0CEF0100#A020025300269A1F
(1753137123.577729) can0 18FF1180#FCFFF4FFFFFF23FF
(1753137123.577731) can0 04EF001C#394E4330345E4594
(1753137123.578759) can0 18FF1C17#0000000000000000
(1753137123.578762) can0 18FFDC00#2014015502948A4E
(1753137123.581224) can0 18FFDC00#219303A800A0FF7A
(1753137123.582211) can0 0CF00300#DF000EFF00FFFFFF
(1753137123.586245) can0 18FFDC00#22FFFF4B2A2300FF
(1753137123.587232) can0 04EF001C#F950752EF480734A
(1753137123.589776) can0 18F01D21#AAB4128000021380
(1753137123.591229) can0 0CF00400#FF7D7FD01200FFFF
(1753137123.596282) can0 0CEF0100#A020025500269A1F
(1753137123.597237) can0 04EF001C#BA532C35B7832A51
(1753137123.601318) can0 18FEF100#FFC205F0FFC71FFF
(1753137123.602972) can0 09F112F8#FF596C0000FF7FFD
(1753137123.607335) can0 04EF001C#7956C1287466C7AC
(1753137123.611218) can0 18FF50E0#018BBC777E008066
(1753137123.611323) can0 0CF00400#FF7D7FF81200FFFF
(1753137123.611747) can0 0CF34155#46FF128045FFFFFF
(1753137123.616210) can0 0CEF0100#A020025B00269A1F
(1753137123.617256) can0 18FF1CF3#0000000000000000
(1753137123.618260) can0 04EF001C#A45962BFA9F964DB
(1753137123.621207) can0 0CEF1100#C3B2897387449658
(1753137123.624434) can0 19F10D13#10700159025A006C
(1753137123.625448) can0 19F21139#000000FFD04B1600
(1753137123.626429) can0 18FFDC00#4014015B02948B4E
(1753137123.627559) can0 04EF001C#205CCA9A2DFCCCFE
(1753137123.631223) can0 18FFDC00#419303A900A0FF7A
(1753137123.632222) can0 0CF00300#DF000EFF00FFFFFF
(1753137123.633243) can0 0CF00400#FF7D7FD01200FFFF
(1753137123.636254) can0 18FFDC00#42FFFF4B2A2300FF
(1753137123.637246) can0 09F20000#006009FFFFFFFFFF
(1753137123.638250) can0 0CEF0017#810400000000FFFF
(1753137123.638253) can0 04EF001C#DE5E2368D31E25EC
(1753137123.639252) can0 0CEF0100#A020025C00269A1F
(1753137123.646224) can0 18E8FF00#02FFFFFFFF00EF00
(1753137123.647800) can0 04EF001C#9F41987F92419EBB
(1753137123.651340) can0 0CF00400#FF7D7FC01200FFFF
(1753137123.656280) can0 0CEF0100#A020025800269A1F
(1753137123.657906) can0 04EF001C#9644B9329B04BFB6
(1753137123.661296) can0 18FEF200#3200FFFFFFFF0FFF
(1753137123.667964) can0 04EF001C#F946C548F4A6C36C
(1753137123.671222) can0 0CF00400#FF7D7F901200FFFF
(1753137123.672230) can0 0CEF1100#04AA7E8DF527BC0D
(1753137123.675735) can0 18FF1080#000000FFFFFFFC00
(1753137123.676728) can0 0CEF0100#A020025500269A1F
(1753137123.677743) can0 18FF1180#FCFFF4FFFFFF23FF
(1753137123.677744) can0 18FFDC00#6014014F02948B4E
(1753137123.678752) can0 18FF1380#000000003FC0C006
(1753137123.678756) can0 04EF001C#7F4A2764713A22C0
(1753137123.681210) can0 18FFDC00#619503A500A0FF94
(1753137123.682211) can0 0CF00300#DF000EFF00FFFFFF
(1753137123.686240) can0 18FFDC00#62FFFF4B2A2300FF
(1753137123.688227) can0 04EF001C#1A4D794B14DD7C0F
(1753137123.690155) can0 18F01D21#82FF128000FF1280
(1753137123.691208) can0 0CF00400#FF7D7F601200FFFF
(1753137123.696183) can0 0CEF0100#A020024E00269A1F
(1753137123.698335) can0 04EF001C#00508B860E008E02
(1753137123.701266) can0 18FEF100#FFC405F0FFC71FFF
(1753137123.708412) can0 04EF001C#885217C4868212C0
(1753137123.711188) can0 0CF00400#FF7D7F981200FFFF
(1753137123.716222) can0 0CEF0100#A020024E00279A1F
(1753137123.716746) can0 18FF50E0#018BBC777E008067
(1753137123.716979) can0 0CF34155#0E06138045FFFFFF
(1753137123.718603) can0 04EF001C#5B55FA5B55A5FF7F
(1753137123.721188) can0 0CEF1100#43A8FD75A0F8D763
(1753137123.724520) can0 19F10D13#116E0159025A006D
(1753137123.725458) can0 19F21139#000000FF344C1600
(1753137123.726455) can0 18FFDC00#8014015602948A4E
(1753137123.728643) can0 04EF001C#4058898E4EC88CCA
(1753137123.731192) can0 18FFDC00#819503A900A0FF9E
(1753137123.732191) can0 0CF00300#DF000EFF00FFFFFF
(1753137123.733252) can0 0CF00400#FF7D7FB81200FFFF
(1753137123.736238) can0 18FFDC00#82FFFF4B2A2300FF
(1753137123.737215) can0 09F20000#006009FFFFFFFFFF
(1753137123.738219) can0 0CEF0100#A020025400279A1F
(1753137123.738222) can0 18FF1CF3#0000000000000000
(1753137123.739226) can0 04EF001C#955A4A249BAA4F00
(1753137123.745600) can0 09F112F8#FF696C0000FF7FFD
(1753137123.748866) can0 04EF001C#FA5C165AF42C13FE
(1753137123.751266) can0 0CF00400#FF7D7FC81200FFFF
(1753137123.756222) can0 0CEF0100#A020025700279A1F
(1753137123.758966) can0 04EF001C#B95F4F71B65F4B95
(1753137123.761201) can0 18FEF200#3200FFFFFFFF10FF
(1753137123.769113) can0 04EF001C#7A42627475C26610
(1753137123.771212) can0 0CF00400#FF7D7FE01200FFFF
(1753137123.772252) can0 0CEF1100#8EA6385E4789EB1B
(1753137123.776287) can0 18FFDC00#A014015D02948A4E
(1753137123.777255) can0 0CEF0100#A020025900279A1F
(1753137123.778236) can0 18FF1080#000000FFFFFFFC00
(1753137123.779232) can0 18FF1180#FCFFF4FFFFFF23FF
(1753137123.779233) can0 04EF001C#6D454DCB62A549CF
(1753137123.781231) can0 18FFDC00#A19703AC00A0FF8F
(1753137123.782244) can0 0CF00300#DF000EFF00FFFFFF
(1753137123.786211) can0 18FFDC00#A2FFFF4B2A2300FF
(1753137123.789280) can0 04EF001C#FA47CE71F2C7CD15
(1753137123.790306) can0 18F01D21#960D138000061380
(1753137123.791352) can0 0CF00400#FF7D80001300FFFF
(1753137123.796237) can0 0CEF0100#A020025D00279A1F
(1753137123.797247) can0 0CEA1C00#00EE000000000000
(1753137123.798216) can0 18EEFF1C#0204450E00000042
(1753137123.799450) can0 04EF001C#B94AE764B12AE4E0
(1753137123.801276) can0 18FEF100#FFC805F0FFC71FFF
(1753137123.806990) can0 18FF1C17#0000000000000000
(1753137123.809492) can0 04EF001C#794D196371ED1A27
(1753137123.811269) can0 0CF00400#FF7D80201300FFFF
(1753137123.816272) can0 0CEF0100#A020026100279A1F
(1753137123.817239) can0 18FF1CF3#0000000000000000
(1753137123.819639) can0 04EF001C#3950B37E31B0B07A
(1753137123.819651) can0 18FF50E0#018BBC6E7E008068
(1753137123.820037) can0 0CF34155#EBED128045FFFFFF
(1753137123.821530) can0 0CEF1100#33D692E9D58088D7
(1753137123.824413) can0 19F10D13#126D0159025A006D
(1753137123.825432) can0 19F21139#000000FF984C1600
(1753137123.826475) can0 18FFDC00#C014016402948B4E
(1753137123.829746) can0 04EF001C#FB52676CF2526588
(1753137123.831242) can0 18FFDC00#C19803AE00A0FF82
(1753137123.832283) can0 0CF00300#DF000EFF00FFFFFF
(1753137123.833254) can0 0CF00400#FF7D7F201300FFFF
(1753137123.833255) can0 1DEFFFF8#C00CE5986C070202
(1753137123.834270) can0 1DEFFFF8#C1410089000000FF
(1753137123.835259) can0 1DEFFFF8#E00CE5986C070202
(1753137123.836294) can0 1DEFFFF8#E1430001000000FF
(1753137123.836298) can0 18FFDC00#C2FFFF4B2A2300FF
(1753137123.837310) can0 09F20000#009009FFFFFFFFFF
(1753137123.838302) can0 0CEF0100#A020026300279A1F
(1753137123.838303) can0 1DEFFFF8#0009E5986C070202
(1753137123.839285) can0 1DEFFFF8#01280000FFFFFFFF
(1753137123.840303) can0 1DEFFFF8#2009E5986C070202
(1753137123.840303) can0 04EF001C#EE554AC3E7754807
(1753137123.841328) can0 09F20100#E016005508FFFF8E
(1753137123.842366) can0 1DEFFFF8#21340000FFFFFFFF
(1753137123.843406) can0 1DEFFFF8#4009E5986C070202
(1753137123.844622) can0 1DEFFFF8#411B00FFFFFFFFFF
(1753137123.845580) can0 1DEFFFF8#6009E5986C070202
(1753137123.846600) can0 09F20100#E186740519004B2A
(1753137123.847624) can0 1DEFFFF8#611D00FFFFFFFFFF
(1753137123.849982) can0 04EF001C#7958B1767038B3F2
(1753137123.851203) can0 0CF00400#FF7D7F201300FFFF
(1753137123.852236) can0 09F20100#E22300FFFFFFFF00
(1753137123.853231) can0 18FEEE00#6FFFFFFFFFFF54FF
(1753137123.856190) can0 09F20100#E30000FFFFFFFFFF
(1753137123.857221) can0 0CEF0100#A020026400269A1F
(1753137123.858208) can0 09F8021C#73FC05759D00FFFF
(1753137123.858208) can0 18FEEF00#FFFFFF35FFFFFFFF
(1753137123.859217) can0 09F8011C#3AD02818B67853C1
(1753137123.859218) can0 19FA031C#73D25C00A2006800
(1753137123.860238) can0 04EF001C#BF5B6955B6AB6B51
(1753137123.861229) can0 0DF0101C#73F0424F30635A30
(1753137123.862239) can0 18FEF200#3300FFFFFFFF0FFF
(1753137123.862240) can0 18FEE81C#D455A8058A634C81
(1753137123.863245) can0 19FA041C#A09373FF0C013E17
(1753137123.864241) can0 19FA041C#A1D0CF6810FFFFFF
(1753137123.865260) can0 19FA041C#A2FFFF02212034B7
(1753137123.866287) can0 19FA041C#A3A00FFFFFFFFFFF
(1753137123.867348) can0 18FEF700#FFFF1A0115011101
(1753137123.868306) can0 19FA041C#A4038507D0CFD80E
(1753137123.868310) can0 19FA041C#A5FFFFFFFFFF0A14
(1753137123.869286) can0 19FA041C#A61E324BE40CFFFF
(1753137123.870288) can0 04EF001C#3F5FCD41357FCC85
(1753137123.871298) can0 0CF00400#FF7D7F081300FFFF
(1753137123.872331) can0 0CEF1100#E9CB0ABEA1C4DDF2
(1753137123.872332) can0 19FA041C#A7FFFFFF0C27068C
(1753137123.873366) can0 19FA041C#A8230000FFFFFFFF
(1753137123.874369) can0 19FA041C#A9FF175E01085248
(1753137123.875360) can0 19FA041C#AA0DFFFFFFFFFF19
(1753137123.876383) can0 18FFDC00#E014016002948A4E
(1753137123.877372) can0 0CEF0100#A020026200269A1F
(1753137123.877374) can0 18FF1080#000000FFFFFFFC00
(1753137123.878399) can0 19FA041C#AB4E0C0E38740EFF
(1753137123.879390) can0 18FF1180#FCFFF4FFFFFF23FF
(1753137123.879392) can0 19FA041C#ACFFFFFFFF1C2B2F
(1753137123.880406) can0 18FF1380#000000003FC0C006
(1753137123.881413) can0 04EF001C#CF41CADFC5C1CBBB
(1753137123.881414) can0 18FFDC00#E19903AC00A0FF7D
(1753137123.882424) can0 0CF00300#DF000EFF00FFFFFF
(1753137123.882425) can0 19FA041C#AD8A663C0FFFFFFF
(1753137123.883435) can0 19FA041C#AEFFFF1F651D8480
(1753137123.884510) can0 19FA041C#AF6810FFFFFFFFFF
(1753137123.885479) can0 09F112F8#FF7C6C0000FF7FFD
(1753137123.886477) can0 19FA041C#B020A627141E9411
(1753137123.886479) can0 18FFDC00#E2FFFF4B2A2300FF
(1753137123.887508) can0 0CEF1700#018400000000FFFF
(1753137123.887510) can0 19FA041C#B1FFFFFFFFFF2CB6
(1753137123.888526) can0 19FA041C#B21CFC85A00FFFFF
(1753137123.889470) can0 19FA041C#B3FFFFFF30A91A30
(1753137123.890515) can0 18F01D21#D9E8128000EE1280
(1753137123.891538) can0 04EF001C#BB44957AB02495FE
(1753137123.891544) can0 0CF00400#FF7D7FE01200FFFF
(1753137123.892544) can0 18FEFC00#FF7DFFFFFFFFFFFF
(1753137123.892545) can0 19FA041C#B48E3C0FFFFFFFFF
(1753137123.893538) can0 19FA041C#B5FFFFFFFFFFFFFF
(1753137123.896221) can0 0CEF0100#A020025F00269A1F
(1753137123.897225) can0 18FEF600#FFFF5910FFFFFFFF
(1753137123.900602) can0 04EF001C#C746FA98CC86FABC
(1753137123.901581) can0 18FEF100#FFCC05F0FFC71FFF
(1753137123.910637) can0 04EF001C#6449248F906EDB4C
(1753137123.911645) can0 0CF00400#FF7D7F901200FFFF
(1753137123.916228) can0 0CEF0100#A020025700279A1F
(1753137123.917233) can0 18FF1CF3#0000000000000000
(1753137123.920818) can0 04EF001C#234C49B2288C4996
(1753137123.921769) can0 0CEF1100#92CDA7A7F26D09AE
(1753137123.923075) can0 18FF50E0#018BBC637E008069
(1753137123.923300) can0 0CF34155#DCDC128045FFFFFF
(1753137123.924969) can0 19F10D13#136D0159025A006D
(1753137123.925959) can0 19F21139#000000FFFC4C1600
(1753137123.926973) can0 18FFDC00#0014015202948B4E
(1753137123.930845) can0 04EF001C#E54E998011496663
(1753137123.931871) can0 0CF00300#DF000EFF00FFFFFF
(1753137123.932877) can0 0CF00400#FF7D7F901200FFFF
(1753137123.932882) can0 18FFDC00#019A03A600A0FF7B
(1753137123.936223) can0 18FFDC00#02FFFF4B2A2300FF
(1753137123.937207) can0 09F20000#004C09FFFFFFFFFF
(1753137123.938191) can0 0CEF0100#A020025200279A1F
(1753137123.941008) can0 04EF001C#3951BB7F32F1BB3B
(1753137123.951115) can0 04EF001C#FB536F6DF0936F49
(1753137123.952060) can0 0CF00400#FF7D7FA81200FFFF
(1753137123.956193) can0 0CEF0100#A020025300279A1F
(1753137123.959284) can0 0DF50B9B#90570F00000000FF
(1753137123.961276) can0 04EF001C#BA5604604EF1FB23
(1753137123.962201) can0 18FEF200#3200FFFFFFFF10FF
(1753137123.971249) can0 0CF00400#FF7D7FA01200FFFF
(1753137123.972226) can0 04EF001C#7A59BA6F8E9E454C
(1753137123.973223) can0 0CEF1100#64F8759BDD6B455B
(1753137123.976208) can0 18FFDC00#2014015402948B4E
(1753137123.977208) can0 0CEF0100#A020025400279A1F
(1753137123.978221) can0 18FF1080#000000FFFFFFFC00
(1753137123.979241) can0 18FF1180#FCFFF4FFFFFF23FF
(1753137123.981238) can0 18FFDC00#219B03A800A0FF7A
(1753137123.982319) can0 04EF001C#395CD372CC1B2DD1
(1753137123.983266) can0 0CF00300#DF000EFF00FFFFFF
(1753137123.986243) can0 18FFDC00#22FFFF4C2A2300FF
(1753137123.990226) can0 18F01D21#DDDD128000DD1280
(1753137123.991222) can0 0CF00400#FF7D7FA01200FFFF
(1753137123.992242) can0 04EF001C#F95E05700CB9FB73
(1753137123.996224) can0 0CEF0100#A020025400279A1F
(1753137124.001245) can0 18FEF100#FFCF05F0FFC71FFF
(1753137124.002300) can0 04EF001C#B941BF6F4F6642AC
(1753137124.011279) can0 0CF00400#FF7D7FB01200FFFF
(1753137124.012243) can0 04EF001C#7B44537A8D43AE99
(1753137124.016298) can0 0CEF0100#A020025400279A1F
(1753137124.019638) can0 1DF011F8#307522CCFFFFFFFF
(1753137124.021236) can0 0CEF1100#30E9AA3FAE92DBC0
(1753137124.022200) can0 04EF001C#39470B69CCA0F56A
(1753137124.023222) can0 09F112F8#FF926C0000FF7FFD
(1753137124.024227) can0 1DEFFFF8#800AE598EE040404
(1753137124.025275) can0 19F10D13#146D0159025A006D
(1753137124.025276) can0 19F21139#000000FF604D1600
(1753137124.026265) can0 1DEFFFF8#8103000000FFFFFF
(1753137124.026266) can0 18FFDC00#4014015902948B4E
(1753137124.026635) can0 18FF50E0#018BBC637E00806A
(1753137124.026734) can0 0CF34155#E4DC128045FFFFFF
(1753137124.031229) can0 18FFDC00#419C03AA00A0FF7A
(1753137124.032261) can0 0CF00300#DF000EFF00FFFFFF
(1753137124.033227) can0 04EF001C#FA49BE7F0C6E43BC
(1753137124.033229) can0 0CF00400#FF7D7FC81200FFFF
(1753137124.036238) can0 18FFDC00#42FFFF4C2A2300FF
(1753137124.037198) can0 09F20000#006809FFFFFFFFFF
(1753137124.038212) can0 0CEF0100#A020025700279A1F
(1753137124.042065) can0 04EF001C#B94CD7624FCB2A01
(1753137124.051300) can0 0CF00400#FF7D7FC01200FFFF
(1753137124.052223) can0 04EF001C#7B4F0B718D88F652
(1753137124.056237) can0 0CEF0100#A020025900279A1F
(1753137124.057239) can0 18FF1CF3#0000000000000000
(1753137124.061293) can0 18FEF200#3200FFFFFFFF0FFF
(1753137124.062371) can0 04EF001C#3952A34CCE655FAF
(1753137124.064174) can0 15FD069B#247074FFFFFFFFFF
(1753137124.071255) can0 0CF00400#FF7D7F881200FFFF
(1753137124.072234) can0 0CEF1100#F0E6243C48FA6CF0
(1753137124.073286) can0 04EF001C#6355C39B94023F18
(1753137124.076247) can0 18FFDC00#6014014E02948B4E
(1753137124.077219) can0 0CEF0100#A020025500279A1F
(1753137124.078291) can0 18FF1080#000000FFFFFFFC00
(1753137124.079282) can0 18FF1180#FCFFF4FFFFFF23FF
(1753137124.080301) can0 18FF1380#000000003FC0C006
(1753137124.081364) can0 18FFDC00#619D03A600A0FF7A
(1753137124.082575) can0 0CF00300#DF000EFF00FFFFFF
(1753137124.083336) can0 04EF001C#4B5882D6BCAF7EF5
(1753137124.086200) can0 18FFDC00#62FFFF4C2A2300FF
(1753137124.089607) can0 18F01D21#35DE128000DD1280
(1753137124.091198) can0 0CF00400#FF7D7F481200FFFF
(1753137124.092687) can0 04EF001C#305BE20DC02C19AE
(1753137124.096210) can0 0CEF0100#A020024D00279A1F
(1753137124.101225) can0 18FEF100#FFD205F0FFC71FFF
(1753137124.102782) can0 04EF001C#F05D140B00EAEF68
(1753137124.111253) can0 0CF00400#FF7D7F681200FFFF
(1753137124.112854) can0 04EF001C#C240CF8632D734C5
(1753137124.116257) can0 0CEF0100#A020024B00279A1F
(1753137124.117204) can0 0CEF0017#810400000000FFFF
(1753137124.119419) can0 18FF1C17#0000000000000000
(1753137124.121164) can0 0CEF1100#B5E637541921A73E
(1753137124.123027) can0 04EF001C#7F436F6D8F5494AE
(1753137124.124455) can0 19F10D13#156E0159025A006D
(1753137124.125465) can0 19F21139#000000FFC44D1600
(1753137124.126457) can0 18FFDC00#8014014E02948B4E
(1753137124.127459) can0 18E8FF00#02FFFFFFFF00EF00
(1753137124.130868) can0 18FF50E0#018BBC567E00806B
(1753137124.130976) can0 0CF34155#3CC9128045FFFFFF
(1753137124.131186) can0 18FFDC00#819E03A600A0FF7C
(1753137124.132186) can0 0CF00300#DF000EFF00FFFFFF
(1753137124.133193) can0 0CF00400#FF7D7F701200FFFF
(1753137124.134187) can0 04EF001C#67465FB89701A43B
(1753137124.136200) can0 18FFDC00#82FFFF4C2A2300FF
(1753137124.137191) can0 09F20000#003C09FFFFFFFFFF
(1753137124.138198) can0 0CEF0100#A020024D00279A1F
(1753137124.138199) can0 18FF1CF3#0000000000000000
(1753137124.143162) can0 04EF001C#39487346C96F88A5
(1753137124.151226) can0 0CF00400#FF7D80881200FFFF
(1753137124.153347) can0 04EF001C#2F4B7DF5DF4C8636
(1753137124.156216) can0 0CEF0100#A020024F00279A1F
(1753137124.161223) can0 18FEF200#3200FFFFFFFF10FF
(1753137124.163389) can0 04EF001C#ED4D89E31C6A7300
(1753137124.164658) can0 09F112F8#FFAE6C0000FF7FFD
(1753137124.171258) can0 0CF00400#FF7D80781200FFFF
(1753137124.172243) can0 0CEF1100#059546CBB0B0C66E
(1753137124.173517) can0 04EF001C#E7506BAE16B7918D
(1753137124.176225) can0 18FFDC00#A014014D02948B4E
(1753137124.177244) can0 0CEF0100#A020025000279A1F
(1753137124.178715) can0 18FF1080#000000FFFFFFFC00
(1753137124.179726) can0 18FF1180#FCFFF4FFFFFF23FF
(1753137124.181209) can0 18FFDC00#A19F03A700A0FF95
(1753137124.182221) can0 0CF00300#DF000EFF00FFFFFF
(1753137124.183618) can0 04EF001C#A55333BD54B4C99E
(1753137124.186211) can0 18FFDC00#A2FFFF4C2A2300FF
(1753137124.189975) can0 18F01D21#29D1128000C91280
(1753137124.191189) can0 0CF00400#FF7D80481200FFFF
(1753137124.193734) can0 04EF001C#2E5694E0DC516D23
(1753137124.196247) can0 0CEF0100#A020024C00279A1F
(1753137124.201187) can0 18FEF100#FFD405F0FFC71FFF
(1753137124.203828) can0 04EF001C#B958772648EF8D25
(1753137124.211220) can0 0CF00400#FF7D80781200FFFF
(1753137124.213981) can0 04EF001C#795BA9258B4C5086
(1753137124.216207) can0 0CEF0100#A020024B00279A1F
(1753137124.217188) can0 18FF1CF3#0000000000000000
(1753137124.221141) can0 0CEF1100#58955363E75DBB91
(1753137124.224131) can0 04EF001C#3A5EC038CBC93A1B
(1753137124.225093) can0 19F10D13#166E0159025A006D
(1753137124.226089) can0 19F21139#000000FF284E1600
(1753137124.227109) can0 18FFDC00#C014014F02948B4E
(1753137124.231267) can0 18FFDC00#C19F03A800A0FF9E
(1753137124.232243) can0 0CF00300#DF000EFF00FFFFFF
(1753137124.233197) can0 0CF00400#FF7D80781200FFFF
(1753137124.233920) can0 18FF50E0#018BBC467E00806C
(1753137124.234005) can0 0CF34155#55B0128045FFFFFF
(1753137124.234185) can0 04EF001C#674167CF96D69DEC
(1753137124.236179) can0 18FFDC00#C2FFFF4C2A2300FF
(1753137124.237205) can0 09F20000#003C09FFFFFFFFFF
(1753137124.238195) can0 0CEF0100#A020024E00279A1F
(1753137124.244306) can0 04EF001C#BA43AC254BF45626
(1753137124.251237) can0 0CF00400#FF7D80681200FFFF
(1753137124.254439) can0 04EF001C#7B4643388921BAFB
(1753137124.256223) can0 0CEF0100#A020024E00279A1F
(1753137124.261240) can0 18FEF200#3100FFFFFFFF0FFF
(1753137124.264520) can0 04EF001C#3A49783FC86E81BC
(1753137124.271248) can0 0CF00400#FF7D80301200FFFF
(1753137124.272246) can0 0CEF1100#898351AE8F144496
(1753137124.274627) can0 04EF001C#874CE8D2754B1171
(1753137124.276193) can0 18FFDC00#E014014502948B4E
(1753137124.277161) can0 0CEF0100#A020024900279A1F
(1753137124.278667) can0 18FF1080#000000FFFFFFFC00
(1753137124.279708) can0 18FF1180#FCFFF4FFFFFF23FF
(1753137124.280705) can0 18FF1380#000000003FC0C006
(1753137124.281691) can0 0CF00300#DF000EFF00FFFFFF
(1753137124.282713) can0 18FFDC00#E19F03A400A0FFA1
(1753137124.284724) can0 04EF001C#474F36D1B548CF72
(1753137124.286195) can0 18FFDC00#E2FFFF4C2A2300FF
(1753137124.290312) can0 18F01D21#93B1128000B01280
(1753137124.291309) can0 0CF00400#FF7D80401200FFFF
(1753137124.294845) can0 04EF001C#E55161DF179698BC
(1753137124.296170) can0 0CEF0100#A020024600279A1F
(1753137124.301217) can0 18FEF100#FFD405F0FFC71FFF
(1753137124.304967) can0 04EF001C#C7546AFA35439379
(1753137124.307585) can0 09F112F8#FFC96C0000FF7FFD
(1753137124.311225) can0 0CF00400#FF7D80801200FFFF
(1753137124.315104) can0 04EF001C#875730F97540C97A
(1753137124.316271) can0 0CEF0100#A020024A00279A1F
(1753137124.321169) can0 0CEF1100#F1B6A462B6B70356
(1753137124.324434) can0 19F10D13#176E0159025A006D
(1753137124.325424) can0 19F21139#000000FF8C4E1600
(1753137124.326408) can0 04EF001C#235AF9D4D10D0017
(1753137124.326414) can0 18FFDC00#0014015002948B4E
(1753137124.327454) can0 18FF1C17#0000000000000000
(1753137124.331217) can0 18FFDC00#019F03A900A0FFA2
(1753137124.332230) can0 0CF00300#DF000EFF00FFFFFF
(1753137124.333230) can0 0CF00400#FF7D80801200FFFF
(1753137124.335297) can0 04EF001C#9B5C7412692B8DF1
(1753137124.336312) can0 18FFDC00#02FFFF4C2A2300FF
(1753137124.336535) can0 18FF50E0#018BBC377E00806D
(1753137124.336642) can0 0CF34155#7A98128045FFFFFF
(1753137124.337343) can0 09F20000#003C09FFFFFFFFFF
(1753137124.338344) can0 0CEF0100#A020024F00279A1F
(1753137124.342266) can0 1DEFFFF8#A00CE5986C070202
(1753137124.343244) can0 1DEFFFF8#A1410089000000FF
(1753137124.344594) can0 1DEFFFF8#C00CE5986C070202
(1753137124.345578) can0 04EF001C#3A5FC819CBE8323A
(1753137124.346590) can0 1DEFFFF8#C1430001000000FF
(1753137124.347598) can0 1DEFFFF8#E009E5986C070202
(1753137124.347599) can0 1DEFFFF8#E1280000FFFFFFFF
(1753137124.348610) can0 1DEFFFF8#0009E5986C070202
(1753137124.349625) can0 1DEFFFF8#01340000FFFFFFFF
(1753137124.351244) can0 0CF00400#FF7D80781200FFFF
(1753137124.352231) can0 1DEFFFF8#2009E5986C070202
(1753137124.353218) can0 1DEFFFF8#211B00FFFFFFFFFF
(1753137124.354211) can0 1DEFFFF8#4009E5986C070202
(1753137124.355203) can0 1DEFFFF8#411D00FFFFFFFFFF
(1753137124.356240) can0 04EF001C#FA41FE170B860454
(1753137124.356241) can0 18FEEF00#FFFFFF35FFFFFFFF
(1753137124.357269) can0 0CEF0100#A020024F00279A1F
(1753137124.361195) can0 18FEF200#3100FFFFFFFF0EFF
(1753137124.365604) can0 04EF001C#B944970A48E36D29
(1753137124.366645) can0 09F8021C#74FCCB759A00FFFF
(1753137124.367648) can0 09F8011C#E4CF2818C27853C1
(1753137124.368695) can0 19FA031C#74D25C00A2006800
(1753137124.369693) can0 0DF0101C#74F0424F408A5A30
(1753137124.370695) can0 18FEE81C#65569005A1634E81
(1753137124.371692) can0 0CEF1100#32B692BA4DDA5C4D
(1753137124.372705) can0 0CF00400#FF7D80801200FFFF
(1753137124.372706) can0 19FA041C#C09374FF0C013E17
(1753137124.373790) can0 19FA041C#C1D0CFD80EFFFFFF
(1753137124.374790) can0 19FA041C#C2FFFF02212034B7
(1753137124.375814) can0 04EF001C#2F4865B6DECF9FB5
(1753137124.376816) can0 0CEF0100#A020024F00279A1F
(1753137124.377817) can0 18FF1CF3#0000000000000000
(1753137124.377818) can0 18FFDC00#2014015102948B4E
(1753137124.378839) can0 19FA041C#C3A00FFFFFFFFFFF
(1753137124.379821) can0 19FA041C#C4038507D0CFAC0D
(1753137124.379822) can0 18FF1080#000000FFFFFFFC00
(1753137124.380825) can0 19FA041C#C5FFFFFFFFFF0A14
(1753137124.380825) can0 18FF1180#FDFFF4FFFFFF23FF
(1753137124.381890) can0 0CF00300#DF000EFF00FFFFFF
(1753137124.382863) can0 18FFDC00#219E03A900A0FF8B
(1753137124.382866) can0 19FA041C#C61E324B480DFFFF
(1753137124.383936) can0 19FA041C#C7FFFFFF0C27068C
(1753137124.384965) can0 19FA041C#C8230000FFFFFFFF
(1753137124.385950) can0 04EF001C#E54AB9E414CD43E7
(1753137124.386958) can0 0CEF1700#018400000000FFFF
(1753137124.387944) can0 18FFDC00#22FFFF4C2A2300FF
(1753137124.387945) can0 19FA041C#C9FF175E01085248
(1753137124.388956) can0 19FA041C#CA0DFFFFFFFFFF19
(1753137124.390026) can0 18F01D21#8398128000981280
(1753137124.391014) can0 19FA041C#CB4E0C0E38740EFF
(1753137124.391016) can0 19FA041C#CCFFFFFFFF1C2B2F
(1753137124.392003) can0 0CF00400#FF7D80981200FFFF
(1753137124.393014) can0 19FA041C#CD8A663C0FFFFFFF
(1753137124.393015) can0 19FA041C#CEFFFF1F651D8480
(1753137124.394019) can0 19FA041C#CF0410FFFFFFFFFF
(1753137124.395028) can0 19FA041C#D020A627141E9411
(1753137124.396023) can0 04EF001C#B54DD363476A2AC0
(1753137124.397068) can0 0CEF0100#A020025100279A1F
(1753137124.398038) can0 18FEF600#FFFF5910FFFFFFFF
(1753137124.398039) can0 19FA041C#D1FFFFFFFFFF2CB6
(1753137124.399073) can0 19FA041C#D21CFC85A00FFFFF
(1753137124.400073) can0 19FA041C#D3FFFFFF30A91A30
(1753137124.401093) can0 19FA041C#D48E3C0FFFFFFFFF
(1753137124.402104) can0 18FEF100#FFD205F0FFC71FFF
(1753137124.403132) can0 19FA041C#D5FFFFFFFFFFFFFF
(1753137124.406105) can0 04EF001C#B94FCFF14B983652
(1753137124.411176) can0 0CF00400#FF7D7F881200FFFF
(1753137124.416238) can0 0CEF0100#A020025200279A1F
(1753137124.417210) can0 04EF001C#7B52E3FC8A0519DF
(1753137124.418220) can0 18FF1CF3#0000000000000000
(1753137124.421158) can0 0CEF1100#6BAA663524395145
(1753137124.424470) can0 19F10D13#18700159025A006C
(1753137124.425504) can0 19F21139#000000FFF04E1600
(1753137124.426491) can0 18FFDC00#4014015502948B4E
(1753137124.427481) can0 04EF001C#3A5598F3CBE26230
(1753137124.431230) can0 18FFDC00#419D03A900A0FF80
(1753137124.432220) can0 0CF00300#DF000EFF00FFFFFF
(1753137124.433270) can0 0CF00400#FF7D7FB81200FFFF
(1753137124.436178) can0 18FFDC00#42FFFF4C2A2300FF
(1753137124.437198) can0 04EF001C#FA574EF10A20B5F2
(1753137124.438162) can0 09F20000#006409FFFFFFFFFF
(1753137124.438163) can0 0CEF0100#A020025300279A1F
(1753137124.438349) can0 18FF50E0#018BBC0D7900806E
(1753137124.438458) can0 0CF34155#39790A8045FFFFFF
(1753137124.446572) can0 04EF001C#B95A67E4496D9CA7
(1753137124.448898) can0 09F112F8#FFE16C0000FF7FFD
(1753137124.451197) can0 0CF00400#FF7D7FE81200FFFF
(1753137124.456173) can0 0CEF0100#A020025900279A1F
(1753137124.457196) can0 04EF001C#7B5D9BE38BDA6000
(1753137124.461205) can0 18FEF200#3300FFFFFFFF0EFF
(1753137124.466763) can0 04EF001C#394033EEC9C7C80D
(1753137124.471207) can0 0CF00400#FF7D7FF01200FFFF
(1753137124.472216) can0 0CEF1100#5FA1F297439FAF7A
(1753137124.476192) can0 18FFDC00#6014015E02948B4E
(1753137124.477186) can0 0CEF0100#A020025D00279A1F
(1753137124.478171) can0 04EF001C#8743901D70A46C9E
(1753137124.479711) can0 18FF1080#000000FFFFFFFC00
(1753137124.480725) can0 18FF1180#FDFFF4FFFFFF23FF
(1753137124.481742) can0 0CF00300#DF000EFF00FFFFFF
(1753137124.482735) can0 18FF1380#000000003FC0C006
(1753137124.482737) can0 18FFDC00#619D03AC00A0FF7D
(1753137124.483929) can0 18FF2D21#01868BEE7F980B00
(1753137124.486253) can0 18FFDC00#62FFFF4C2A2300FF
(1753137124.487233) can0 04EF001C#45467C08B2A1808B
(1753137124.490144) can0 18F01D21#0F72128000790A80
(1753137124.491221) can0 0CF00400#FF7D7FF01200FFFF
(1753137124.496196) can0 0CEF0100#A020025E00279A1F
(1753137124.497194) can0 04EF001C#E348AF3614EF53F5
(1753137124.501221) can0 18FEF100#FFD005F0FFC71FFF
(1753137124.507226) can0 04EF001C#C74B9215314C6F76
(1753137124.511253) can0 0CF00400#FF7D7F181300FFFF
(1753137124.516240) can0 0CEF0100#A020026000279A1F
(1753137124.517232) can0 18FF1CF3#0000000000000000
(1753137124.518220) can0 04EF001C#874EF81072290613
(1753137124.521254) can0 0CEF1100#6DD17F98336B0061
(1753137124.524475) can0 19F10D13#19710159025A006B
(1753137124.525435) can0 19F21139#000000FF544F1600
(1753137124.526436) can0 18FFDC00#8014016102948B4E
(1753137124.527444) can0 04EF001C#4951C87FBC9636DC
(1753137124.531222) can0 18FFDC00#819B03AD00A0FF7B
(1753137124.532221) can0 0CF00300#DF000EFF00FFFFFF
(1753137124.533245) can0 0CF00400#FF7D7F001300FFFF
(1753137124.536169) can0 18FFDC00#82FFFF4C2A2300FF
(1753137124.537167) can0 09F20000#007C09FFFFFFFFFF
(1753137124.538197) can0 0CEF0100#A020026100269A1F
(1753137124.538197) can0 04EF001C#9F5308CD6AF4F60E
(1753137124.540232) can0 18FF50E0#018BBC297E00806F
(1753137124.540353) can0 0CF34155#2E7E128045FFFFFF
(1753137124.547061) can0 18FF1C17#0000000000000000
(1753137124.548071) can0 04EF001C#385682F0CCB17D73
(1753137124.551210) can0 0CF00400#FF7D7FF81200FFFF
(1753137124.552246) can0 18FECA00#00FF00000000FFFF
(1753137124.556199) can0 0CEF0100#A020025F00269A1F
(1753137124.557767) can0 04EF001C#1D59DEE71629DEC3
(1753137124.561171) can0 18FEF200#3300FFFFFFFF0FFF
(1753137124.562235) can0 15FD069B#257074FFFFFFFFFF
(1753137124.567906) can0 04EF001C#B75B61B5BC0B61B1
(1753137124.571215) can0 0CF00400#FF7D7FF81200FFFF
(1753137124.572195) can0 0CEF1100#2FD69509D8A4AFBE
(1753137124.576185) can0 18FFDC00#A014015F02948A4E
(1753137124.577164) can0 0CEF0100#A020025F00269A1F
(1753137124.578151) can0 04EF001C#D55E28A0DE8E2824
(1753137124.580680) can0 18FF1080#000000FFFFFFFC00
(1753137124.581674) can0 0CF00300#DF000EFF00FFFFFF
(1753137124.582720) can0 18FF1180#FDFFF4FFFFFF23FF
(1753137124.582723) can0 18FFDC00#A19A03AB00A0FF7B
(1753137124.585606) can0 09F112F8#FFED6C0000FF7FFD
(1753137124.586605) can0 18FFDC00#A2FFFF4C2A2300FF
(1753137124.588082) can0 04EF001C#6D416D7F66916DFB
(1753137124.590443) can0 18F01D21#F0561280007E1280
(1753137124.591420) can0 0CF00400#FF7D7FF01200FFFF
(1753137124.596172) can0 0CEF0100#A020025E00279A1F
(1753137124.598185) can0 04EF001C#2C44067227F40696
(1753137124.601216) can0 18FEF100#FFCC05F0FFC71FFF
(1753137124.608327) can0 04EF001C#B74689A8BDB6880C
(1753137124.611221) can0 0CF00400#FF7D7F281300FFFF
(1753137124.616242) can0 0CEF0100#A020026000269A1F
(1753137124.618425) can0 04EF001C#AC49EA7FA6D9EBBB
(1753137124.621207) can0 0CEF1100#F7C1DDCC04E74759
(1753137124.624455) can0 19F10D13#1A710159025A006B
(1753137124.625468) can0 19F21139#000000FFB84F1600
(1753137124.626465) can0 18FFDC00#C014016702948B4E
(1753137124.628537) can0 04EF001C#6E4C066A675C042E
(1753137124.631170) can0 18FFDC00#C19903AE00A0FF7A
(1753137124.632227) can0 0CF00300#DF000EFF00FFFFFF
(1753137124.633222) can0 0CF00400#FF7D7F401300FFFF
(1753137124.636183) can0 18FFDC00#C2FFFF4C2A2300FF
(1753137124.637155) can0 09F20000#00A009FFFFFFFFFF
(1753137124.638204) can0 0CEF0100#A020026500269A1F
(1753137124.639178) can0 04EF001C#554F24B15CBF2615
(1753137124.642009) can0 18FF50E0#018BBC227E008070
(1753137124.642113) can0 0CF34155#9C7D128045FFFFFF
(1753137124.648794) can0 04EF001C#B75131BFBF81323B
(1753137124.651247) can0 0CF00400#FF7D7F401300FFFF
(1753137124.656212) can0 0CEF0100#A020026700269A1F
(1753137124.658867) can0 04EF001C#7854D0F270D4D316
(1753137124.661178) can0 18FEF200#3300FFFFFFFF0FFF
(1753137124.669039) can0 04EF001C#37578589387781CD
(1753137124.671226) can0 0CF00400#FF7D7F281300FFFF
(1753137124.672209) can0 0CEF1100#B5C6375D5129E576
(1753137124.676249) can0 18FFDC00#E014016402938A4E
(1753137124.677215) can0 0CEF0100#A020026600269A1F
(1753137124.679106) can0 04EF001C#BD5A63D4B2BA6750
(1753137124.680694) can0 18FF1080#000000FFFFFFFC00
(1753137124.681701) can0 0CF00300#DF000EFF00FFFFFF
(1753137124.682693) can0 18FF1180#FCFFF4FFFFFF23FF
(1753137124.682696) can0 18FFDC00#E19803AD00A0FF7A
(1753137124.683685) can0 18FF1380#000000003FC0C006
(1753137124.686215) can0 18FFDC00#E2FFFF4C2A2300FF
(1753137124.689218) can0 04EF001C#455DA4134ABDA097
(1753137124.690218) can0 18F01D21#CB7F1280007E1280
(1753137124.691224) can0 0CF00400#FF7D7F281300FFFF
(1753137124.696219) can0 0CEF0100#A020026400269A1F
(1753137124.697223) can0 0CEF0017#810400000000FFFF
(1753137124.699303) can0 04EF001C#E25F1629EDDF12CD
(1753137124.701212) can0 18FEF100#FFC905F0FFC71FFF
(1753137124.706176) can0 18E8FF00#02FFFFFFFF00EF00
(1753137124.709505) can0 04EF001C#C442D904CA42DC60
(1753137124.711155) can0 0CF00400#FF7D7F581300FFFF
(1753137124.716218) can0 0CEF0100#A020026700269A1F
(1753137124.717202) can0 18FF1CF3#0000000000000000
(1753137124.719567) can0 04EF001C#8645A1138B25A717
(1753137124.721160) can0 0CEF1100#4CFC5EDAD42B4F10
(1753137124.722363) can0 09F112F8#FFEE6C0000FF7FFD
(1753137124.724481) can0 19F10D13#1B710159025A006B
(1753137124.725458) can0 19F21139#000000FF1C501600
(1753137124.726468) can0 18FFDC00#0014016F02938B4E
(1753137124.729661) can0 04EF001C#20486A2E2D486C4A
(1753137124.731159) can0 18FFDC00#019803AF00A0FF7A
(1753137124.732223) can0 0CF00300#DF000EFF00FFFFFF
(1753137124.733199) can0 0CF00400#FF7D7F781300FFFF
(1753137124.736195) can0 18FFDC00#02FFFF4C2A2300FF
(1753137124.737219) can0 09F20000#00BC09FFFFFFFFFF
(1753137124.738218) can0 0CEF0100#A020026C00269A1F
(1753137124.738220) can0 18FF1CF3#0000000000000000
(1753137124.739755) can0 04EF001C#AB4AF574A6EAF3B0
(1753137124.747621) can0 18FF50E0#018BBC217E008071
(1753137124.747978) can0 0CF34155#EF86128045FFFFFF
(1753137124.749866) can0 04EF001C#374D55933B6D52D7
(1753137124.751211) can0 0CF00400#FF7D7F781300FFFF
(1753137124.756140) can0 0CEF0100#A020026F00269A1F
(1753137124.759984) can0 04EF001C#F74F8391FBAF8415
(1753137124.761222) can0 18FEF200#3400FFFFFFFF0FFF
(1753137124.770125) can0 04EF001C#B85226F4B4B22170
(1753137124.771209) can0 0CF00400#FF7D7F701300FFFF
(1753137124.772276) can0 0CEF1100#07EA7E4711EBDBFB
(1753137124.776228) can0 18FFDC00#2014016E02948A4E
(1753137124.777217) can0 0CEF0100#A020026E00269A1F
(1753137124.780188) can0 04EF001C#7855D8F374D5DF17
(1753137124.781217) can0 18FFDC00#219703AE00A0FF7A
(1753137124.782242) can0 0CF00300#DF000EFF00FFFFFF
(1753137124.783220) can0 18FF1080#000000FFFFFFFC00
(1753137124.784217) can0 18FF1180#FCFFF4FFFFFF23FF
(1753137124.786203) can0 18FFDC00#22FFFF4C2A2300FF
(1753137124.790075) can0 18F01D21#6889128000871280
(1753137124.791110) can0 04EF001C#3658FC8E3AF8FB4A
(1753137124.792115) can0 0CF00400#FF7D7F681300FFFF
(1753137124.796228) can0 0CEF0100#A020026D00269A1F
(1753137124.797180) can0 0CEA1C00#00EE000000000000
(1753137124.798205) can0 18EEFF1C#0204450E00000042
(1753137124.800445) can0 04EF001C#F75A2B84F4BA2300
(1753137124.801425) can0 18FEF100#FFC705F0FFC71FFF
(1753137124.810530) can0 04EF001C#B65D509BB5ED585F
(1753137124.811535) can0 0CF00400#FF7D7F681300FFFF
(1753137124.816182) can0 0CEF0100#A020026D00269A1F
(1753137124.817214) can0 18FF1CF3#0000000000000000
(1753137124.820658) can0 04EF001C#77407F8E7530768A
(1753137124.821652) can0 0CEF1100#C8E20BFDF184973A
(1753137124.824464) can0 19F10D13#1C710159025A006B
(1753137124.825421) can0 19F21139#000000FF80501600
(1753137124.826461) can0 18FFDC00#4014016902938C4F
(1753137124.830722) can0 04EF001C#3643248534932D21
(1753137124.831746) can0 0CF00300#DF000EFF00FFFFFF
(1753137124.832767) can0 0CF00400#FF7D7F401300FFFF
(1753137124.832768) can0 18FFDC00#419603AD00A0FF7A
(1753137124.836215) can0 18FFDC00#42FFFF4C2A2300FF
(1753137124.837196) can0 09F20000#00A009FFFFFFFFFF
(1753137124.838200) can0 0CEF0100#A020026A00269A1F
(1753137124.840851) can0 04EF001C#F745D38BF615D9AF
(1753137124.841852) can0 09F20100#0016006E08FFFF88
(1753137124.846226) can0 09F20100#0186720519004C2A
(1753137124.847252) can0 18FEE500#03320000FFFFFFFF
(1753137124.850990) can0 04EF001C#B848F6FEB978FCBA
(1753137124.851980) can0 09F20100#022300FFFFFFFF00
(1753137124.852766) can0 18FF50E0#018BBC217E008072
(1753137124.852868) can0 0CF34155#5278128045FFFFFF
(1753137124.853103) can0 0CF00400#FF7D7F481300FFFF
(1753137124.853104) can0 18FEEE00#6FFFFFFFFFFF54FF
(1753137124.854081) can0 18FF2117#06FFFFFF00FFFFFF
(1753137124.855088) can0 1DEFFFF8#600CE5986C070202
(1753137124.856130) can0 1DEFFFF8#61410089000000FF
(1753137124.857142) can0 09F20100#030000FFFFFFFFFF
(1753137124.857144) can0 0CEF0100#A020026800269A1F
(1753137124.858143) can0 18FEEF00#FFFFFF35FFFFFFFF
(1753137124.858144) can0 1DEFFFF8#800CE5986C070202
(1753137124.859133) can0 1DEFFFF8#81430001000000FF
(1753137124.860160) can0 1DEFFFF8#A009E5986C070202
(1753137124.861171) can0 04EF001C#794B29F5781B23D1
(1753137124.862228) can0 18FEF200#3300FFFFFFFF0FFF
(1753137124.863184) can0 1DEFFFF8#A1280000FFFFFFFF
(1753137124.863185) can0 1DEFFFF8#C009E5986C070202
(1753137124.864220) can0 1DEFFFF8#C1340000FFFFFFFF
(1753137124.865253) can0 1DEFFFF8#E009E5986C070202
(1753137124.866226) can0 1DEFFFF8#E11B00FFFFFFFFFF
(1753137124.866229) can0 18FEF700#FFFF1A0117011601
(1753137124.867248) can0 1DEFFFF8#0009E5986C070202
(1753137124.868247) can0 1DEFFFF8#011D00FFFFFFFFFF
(1753137124.869279) can0 09F112F8#FFE86C0000FF7FFD
(1753137124.871227) can0 0CF00400#FF7D7F281300FFFF
(1753137124.872236) can0 04EF001C#A14EDFC0A32ED624
(1753137124.873234) can0 0CEF1100#FA9D3EF1E8A9336C
(1753137124.875274) can0 09F8021C#75FCD1749E00FFFF
(1753137124.876317) can0 18FFDC00#6014016402938A4F
(1753137124.877298) can0 09F8011C#AACF2818CC7853C1
(1753137124.877301) can0 0CEF0100#A020026700269A1F
(1753137124.878297) can0 19FA031C#75D25C00A2006800
(1753137124.879311) can0 0DF0101C#75F0424F408A5A30
(1753137124.880338) can0 18FEE81C#AE55B80554634E81
(1753137124.881355) can0 18FFDC00#619603AB00A0FF7A
(1753137124.882378) can0 04EF001C#D8515D17DA3154F3
(1753137124.882379) can0 0CF00300#DF000EFF00FFFFFF
(1753137124.883386) can0 18FF1080#000000FFFFFFFC00
(1753137124.884380) can0 19FA041C#E09375FF0C013E17
(1753137124.884383) can0 18FF1180#FCFFF4FFFFFF23FF
(1753137124.885425) can0 19FA041C#E1D0CF6810FFFFFF
(1753137124.885429) can0 18FF1380#000000003FC0C006
(1753137124.886414) can0 19FA041C#E2FFFF02212034B7
(1753137124.886416) can0 0CEF1700#018400000000FFFF
(1753137124.887448) can0 18FFDC00#62FFFF4C2A2300FF
(1753137124.888444) can0 19FA041C#E33C0FFFFFFFFFFF
(1753137124.889453) can0 19FA041C#E4038507D0CF100E
(1753137124.890462) can0 19FA041C#E5FFFFFFFFFF0A14
(1753137124.891483) can0 19FA041C#E61E324B1C0CFFFF
(1753137124.891486) can0 18F01D21#ED78128000781280
(1753137124.892478) can0 04EF001C#E55449FAE734401E
(1753137124.892479) can0 0CF00400#FF7D7F301300FFFF
(1753137124.893484) can0 18FEFC00#FF7AFFFFFFFFFFFF
(1753137124.893491) can0 19FA041C#E7FFFFFF0C27068C
(1753137124.894572) can0 19FA041C#E8230000FFFFFFFF
(1753137124.895568) can0 19FA041C#E9FF175E01085248
(1753137124.896560) can0 0CEF0100#A020026400269A1F
(1753137124.897591) can0 18FEF600#FFFF5910FFFFFFFF
(1753137124.897592) can0 19FA041C#EA0DFFFFFFFFFF19
(1753137124.898580) can0 19FA041C#EB4E0C0E38480DFF
(1753137124.899587) can0 19FA041C#ECFFFFFFFF1C2B2F
(1753137124.900587) can0 19FA041C#ED8A66A00FFFFFFF
(1753137124.901636) can0 18FEF100#FFC605F0FFC71FFF
(1753137124.902650) can0 04EF001C#B8570E11B9F70435
(1753137124.903684) can0 19FA041C#EEFFFF1F651D8480
(1753137124.904704) can0 19FA041C#EF0410FFFFFFFFFF
(1753137124.905659) can0 19FA041C#F020A627141E3011
(1753137124.905661) can0 19FA041C#F1FFFFFFFFFF2CB6
(1753137124.906670) can0 19FA041C#F21CFC85A00FFFFF
(1753137124.907675) can0 18FF1C17#0000000000000000
(1753137124.908710) can0 19FA041C#F3FFFFFF30A91A30
(1753137124.908712) can0 19FA041C#F48EAC0DFFFFFFFF
(1753137124.909711) can0 19FA041C#F5FFFFFFFFFFFFFF
(1753137124.911213) can0 0CF00400#FF7D7F501300FFFF
(1753137124.912221) can0 04EF001C#C45901FFC5990BBB
(1753137124.916160) can0 0CEF0100#A020026700269A1F
(1753137124.921203) can0 0CEF1100#3397DAFB0DCB9605
(1753137124.922226) can0 04EF001C#6D5C85A26C6C8F06
(1753137124.924516) can0 19F10D13#1D730159025A006A
(1753137124.925422) can0 19F21139#000000FFE4501600
(1753137124.926426) can0 18FFDC00#8014016C02938B4F
(1753137124.931179) can0 18FFDC00#819503AD00A0FF7A
(1753137124.932184) can0 0CF00300#DF000EFF00FFFFFF
(1753137124.933178) can0 04EF001C#215FD3C1202FD925
(1753137124.933179) can0 0CF00400#FF7D7F681300FFFF
(1753137124.936231) can0 18FFDC00#82FFFF4C2A2300FF
(1753137124.937192) can0 09F20000#00B809FFFFFFFFFF
(1753137124.938181) can0 0CEF0100#A020026B00269A1F
(1753137124.941990) can0 04EF001C#7741776F77B17C0B
(1753137124.951211) can0 0CF00400#FF7D7F801300FFFF
(1753137124.952207) can0 04EF001C#36441C6236B41706
(1753137124.955384) can0 18FF50E0#018BBC9D79008073
(1753137124.956685) can0 0CEF0100#A020026D00269A1F
(1753137124.961085) can0 0CF34155#E05B0B8045FFFFFF
(1753137124.961171) can0 18FEF200#3300FFFFFFFF0FFF
(1753137124.962298) can0 04EF001C#F946C518F9D6CE1C
(1753137124.963332) can0 0DF50B9B#915E0F00000000FF
(1753137124.971204) can0 0CF00400#FF7D7F401300FFFF
(1753137124.972197) can0 0CEF1100#6180B4EE7825312F
(1753137124.973185) can0 04EF001C#B849FE2FB8E9F52B
(1753137124.976144) can0 18FFDC00#A014016602938A4E
(1753137124.977171) can0 0CEF0100#A020026C00269A1F
(1753137124.981145) can0 18FFDC00#A19603AB00A0FF94
(1753137124.982173) can0 0CF00300#DF000EFF00FFFFFF
(1753137124.983162) can0 18FF1080#000000FFFFFFFC00
(1753137124.983163) can0 04EF001C#9D4CF2029C6CF886
(1753137124.984179) can0 18FF1180#FCFFF4FFFFFF23FF
(1753137124.986231) can0 18FFDC00#A2FFFF4D2A2300FF
(1753137124.989984) can0 18F01D21#7D5E1280005C0B80
(1753137124.991210) can0 0CF00400#FF7D7F201300FFFF
(1753137124.992559) can0 04EF001C#5D4F2C015C6F2685
(1753137124.993584) can0 09F112F8#FFDD6C0000FF7FFD
(1753137124.996145) can0 0CEF0100#A020026600269A1F
(1753137124.997138) can0 18FF1CF3#0000000000000000
(1753137125.001187) can0 18FEF100#FFC605F0FFC71FFF
(1753137125.002704) can0 04EF001C#1F52840C1E728E88
(1753137125.011235) can0 0CF00400#FF7D7F401300FFFF
(1753137125.012776) can0 04EF001C#DE547302DFD47926
(1753137125.016233) can0 0CEF0100#A020026500269A1F
(1753137125.017221) can0 18FF1CF3#0000000000000000
(1753137125.021198) can0 0CEF1100#A8B6B0EAEA48EFF1
(1753137125.022864) can0 04EF001C#D7576259D6E7685D
(1753137125.024461) can0 19F10D13#1E720159025A006B
(1753137125.025431) can0 19F21139#000000FF48511600
(1753137125.026433) can0 18FFDC00#C014016B02938B4E
(1753137125.031177) can0 18FFDC00#C19603AD00A0FF9E
(1753137125.032177) can0 0CF00300#DF000EFF00FFFFFF
(1753137125.033200) can0 0CF00400#FF7D7F601300FFFF
(1753137125.033202) can0 04EF001C#965A495C97CA4378
(1753137125.036227) can0 18FFDC00#C2FFFF4D2A2300FF
(1753137125.037158) can0 09F20000#00B009FFFFFFFFFF
(1753137125.038155) can0 0CEF0100#A020026900269A1F
(1753137125.043165) can0 04EF001C#F95C1522F88C1F46
(1753137125.051204) can0 0CF00400#FF7D7F601300FFFF
(1753137125.053219) can0 04EF001C#EE5F1A99EC8F13FD
(1753137125.056160) can0 0CEF0100#A020026B00269A1F
(1753137125.060206) can0 15FD069B#267074FFFFFFFFFF
(1753137125.061199) can0 18FEF200#3200FFFFFFFF0FFF
(1753137125.063337) can0 04EF001C#AD42B39CAE92BBF8
(1753137125.071920) can0 0CF00400#FF7D7F201300FFFF
(1753137125.072181) can0 0CEF1100#F5AE654435A2AE48
(1753137125.073446) can0 04EF001C#5F4666085CB66E4C
(1753137125.075671) can0 18FF50E0#018BBC2B7E008074
(1753137125.075672) can0 0CF34155#DE83128045FFFFFF
(1753137125.076211) can0 18FFDC00#E014016202938A4E
(1753137125.077225) can0 0CEF0100#A020026800269A1F
(1753137125.078183) can0 0CEF0017#810400000000FFFF
(1753137125.081190) can0 18FFDC00#E19703A900A0FFA1
(1753137125.082239) can0 0CF00300#DF000DFF00FFFFFF
(1753137125.084127) can0 18FF1080#000000FFFFFFFC00
(1753137125.084236) can0 04EF001C#D1489C06D2C89442
(1753137125.084237) can0 18FF1180#FCFFF4FFFFFF23FF
(1753137125.085675) can0 18FF1380#000000003FC0C006
(1753137125.086702) can0 18E8FF00#02FFFFFFFF00EF00
(1753137125.088931) can0 18FFDC00#E2FFFF4D2A2300FF
(1753137125.090327) can0 18F01D21#2825128000841280
(1753137125.091277) can0 0CF00400#FF7D7F181300FFFF
(1753137125.093634) can0 04EF001C#7D4B2D657ECB2521
(1753137125.096172) can0 0CEF0100#A020026300269A1F
(1753137125.101158) can0 18FEF100#FFC705F0FFC71FFF
(1753137125.104051) can0 04EF001C#3E4E4478326E439C
(1753137125.111568) can0 0CF00400#FF7D7F181300FFFF
(1753137125.113889) can0 04EF001C#A2502C86AEF02BE2
(1753137125.117089) can0 0CEF0100#A020026300269A1F
(1753137125.117225) can0 18FF1CF3#0000000000000000
(1753137125.121193) can0 0CEF1100#34ACC30CC0D089A3
(1753137125.124019) can0 04EF001C#88531FD584531811
(1753137125.125000) can0 19F10D13#1F730159025A006A
(1753137125.125991) can0 19F21139#000000FFAC511600
(1753137125.126995) can0 18FFDC00#0014016202938B4E
(1753137125.127990) can0 18FF1C17#0000000000000000
(1753137125.131148) can0 18FFDC00#019703A900A0FFA2
(1753137125.132163) can0 0CF00300#DF000DFF00FFFFFF
(1753137125.133173) can0 0CF00400#FF7D7F101300FFFF
(1753137125.134199) can0 04EF001C#25569FB82956987C
(1753137125.135627) can0 09F112F8#FFD46C0000FF7FFD
(1753137125.136624) can0 18FFDC00#02FFFF4D2A2300FF
(1753137125.137640) can0 09F20000#008809FFFFFFFFFF
(1753137125.137641) can0 0CEF0100#A020026200269A1F
(1753137125.144160) can0 04EF001C#7958B15675D8B612
(1753137125.151227) can0 0CF00400#FF7D7F101300FFFF
(1753137125.154288) can0 04EF001C#395BEB55341BEDD1
(1753137125.156214) can0 0CEF0100#A020026200269A1F
(1753137125.161203) can0 18FEF200#3200FFFFFFFF0FFF
(1753137125.164440) can0 04EF001C#F85D1C5BF65D199F
(1753137125.171165) can0 0CF00400#FF7D7F081300FFFF
(1753137125.172187) can0 0CEF1100#88DD21F3E4C16F9F
(1753137125.174552) can0 04EF001C#B940B74EB7E0B22A
(1753137125.176161) can0 18FFDC00#2014016202938C4E
(1753137125.177170) can0 18FF50E0#018BBC307E008075
(1753137125.177182) can0 0CEF0100#A020026100269A1F
(1753137125.177286) can0 0CF34155#2A94128045FFFFFF
(1753137125.181178) can0 18FFDC00#219803A900A0FF8C
(1753137125.182193) can0 0CF00300#DF000DFF00FFFFFF
(1753137125.183227) can0 18FF1080#000000FFFFFFFC00
(1753137125.184246) can0 18FF1180#FCFFF4FFFFFF23FF
(1753137125.185270) can0 04EF001C#7843685577736CB1
(1753137125.186267) can0 18FFDC00#22FFFF4D2A2300FF
(1753137125.190543) can0 18F01D21#2430128000941280
(1753137125.191561) can0 0CF00400#FF7D7F301300FFFF
(1753137125.194794) can0 04EF001C#39460358363607FC
(1753137125.196175) can0 0CEF0100#A020026300269A1F
(1753137125.201148) can0 18FEF100#FFCA05F0FFC71FFF
(1753137125.204894) can0 04EF001C#FA48B64EF5B8B26A
(1753137125.211168) can0 0CF00400#FF7D7F381300FFFF
(1753137125.214974) can0 04EF001C#B94BEF55B69BEB51
(1753137125.216148) can0 0CEF0100#A020026600269A1F
(1753137125.221120) can0 0CEF1100#4CDECED312B8512C
(1753137125.224417) can0 19F10D13#20750159025A0069
(1753137125.225462) can0 19F21139#000000FF10521600
(1753137125.226471) can0 04EF001C#794E0150717E02B4
(1753137125.226473) can0 18FFDC00#401401670293894E
(1753137125.231171) can0 18FFDC00#419903AB00A0FF81
(1753137125.232166) can0 0CF00300#DF000DFF00FFFFFF
(1753137125.233174) can0 0CF00400#FF7D7F301300FFFF
(1753137125.235169) can0 04EF001C#3A51B8573201BBD3
(1753137125.236185) can0 18FFDC00#42FFFF4D2A2300FF
(1753137125.237217) can0 09F20000#009409FFFFFFFFFF
(1753137125.238239) can0 0CEF0100#A020026700269A1F
(1753137125.245321) can0 04EF001C#FB536F5DF2036DD9
(1753137125.251177) can0 0CF00400#FF7D7F001300FFFF
(1753137125.255456) can0 04EF001C#B9560748B086054C
(1753137125.256438) can0 0CEF0100#A020026300269A1F
(1753137125.261278) can0 18FEF200#3100FFFFFFFF0FFF
(1753137125.265561) can0 04EF001C#7959B9477309B8C3
(1753137125.271211) can0 0CF00400#FF7D7FC01200FFFF
(1753137125.272197) can0 0CEF1100#00CF17B76D6CA1D6
(1753137125.275647) can0 09F112F8#FFCF6C0000FF7FFD
(1753137125.276643) can0 04EF001C#BC5C526AB76C528E
(1753137125.277620) can0 0CEF0100#A020025C00269A1F
(1753137125.277622) can0 18FFDC00#6014015702938B4E
(1753137125.279220) can0 18FF50E0#018BBC337E008076
(1753137125.281212) can0 18FFDC00#619A03A600A0FF7D
(1753137125.282230) can0 0CF00300#DF000DFF00FFFFFF
(1753137125.283515) can0 0CF34155#5DA1128045FFFFFF
(1753137125.283720) can0 18FF1080#000000FFFFFFFC00
(1753137125.284835) can0 18FF1180#FCFFF4FFFFFF23FF
(1753137125.285844) can0 18FF1380#000000003FC0C006
(1753137125.286866) can0 04EF001C#655F95A16EEF95C5
(1753137125.286867) can0 18FFDC00#62FFFF4D2A2300FF
(1753137125.289922) can0 18F01D21#5D93128000A11280
(1753137125.291200) can0 0CF00400#FF7D7FC01200FFFF
(1753137125.295908) can0 04EF001C#484251C4BC65AE27
(1753137125.296889) can0 0CEF0100#A020025700269A1F
(1753137125.297902) can0 18FF1CF3#0000000000000000
(1753137125.301215) can0 18FEF100#FFCD05F0FFC71FFF
(1753137125.305976) can0 04EF001C#FD44D16A09232EC9
(1753137125.311224) can0 0CF00400#FF7D7FD81200FFFF
(1753137125.316166) can0 04EF001C#A44792A150E06DC2
(1753137125.317134) can0 0CEF0100#A020025900269A1F
(1753137125.318139) can0 18FF1CF3#0000000000000000
(1753137125.321212) can0 0CEF1100#CCC09AD4820415AE
(1753137125.324444) can0 19F10D13#21720159025A006B
(1753137125.325522) can0 19F21139#000000FF74521600
(1753137125.326512) can0 18FFDC00#8014015C02938A4E
(1753137125.327465) can0 04EF001C#884AD7CC7CCD288F
(1753137125.331129) can0 18FFDC00#819A03A800A0FF7B
(1753137125.332174) can0 0CF00300#DF000DFF00FFFFFF
(1753137125.333192) can0 0CF00400#FF7D7FD81200FFFF
(1753137125.336221) can0 18FFDC00#82FFFF4D2A2300FF
(1753137125.337207) can0 04EF001C#B94CD7424C4B2981
(1753137125.338234) can0 09F20000#006809FFFFFFFFFF
(1753137125.338237) can0 0CEF0100#A020025B00269A1F
(1753137125.346495) can0 04EF001C#794F09418CC8F702
(1753137125.351216) can0 0CF00400#FF7D7FC81200FFFF
(1753137125.356253) can0 18FEEF00#FFFFFF35FFFFFFFF
(1753137125.357222) can0 04EF001C#3952A35CCF755EBF
(1753137125.358211) can0 0CEF0100#A020025A00269A1F
(1753137125.361236) can0 18FEF200#3100FFFFFFFF10FF
(1753137125.362565) can0 1DEFFFF8#200CE5986C070202
(1753137125.363541) can0 1DEFFFF8#21410089000000FF
(1753137125.364626) can0 1DEFFFF8#400CE5986C070202
(1753137125.365667) can0 1DEFFFF8#41430001000000FF
(1753137125.366681) can0 1DEFFFF8#6009E5986C070202
(1753137125.367687) can0 04EF001C#FA5456420CD3AB01
(1753137125.368668) can0 1DEFFFF8#61280000FFFFFFFF
(1753137125.368669) can0 1DEFFFF8#8009E5986C070202
(1753137125.369663) can0 1DEFFFF8#81340000FFFFFFFF
(1753137125.371174) can0 0CF00400#FF7D7FB81200FFFF
(1753137125.372192) can0 0CEF1100#B0F90E3B1FAC0E4D
(1753137125.373195) can0 1DEFFFF8#A009E5986C070202
(1753137125.373198) can0 1DEFFFF8#A11B00FFFFFFFFFF
(1753137125.374635) can0 1DEFFFF8#C009E5986C070202
(1753137125.375626) can0 1DEFFFF8#C11D00FFFFFFFFFF
(1753137125.376644) can0 18FFDC00#A014015602938B4E
(1753137125.377652) can0 0CEF0100#A020025800269A1F
(1753137125.377657) can0 04EF001C#B9570F594E10F3DA
(1753137125.381203) can0 18FFDC00#A19B03A600A0FF7A
(1753137125.382193) can0 0CF00300#DF000DFF00FFFFFF
(1753137125.383200) can0 09F8021C#76FC4B739D00FFFF
(1753137125.384186) can0 18FF1080#000000FFFFFFFC00
(1753137125.384187) can0 09F8011C#56CF2818E07853C1
(1753137125.385248) can0 18FF1180#FCFFF4FFFFFF23FF
(1753137125.386234) can0 19FA031C#76D25C00A2006800
(1753137125.386235) can0 18FFDC00#A2FFFF4D2A2300FF
(1753137125.386248) can0 18FF50E0#018BBC337E008077
(1753137125.386563) can0 0CF34155#6A94128045FFFFFF
(1753137125.387266) can0 0CEF1700#018400000000FFFF
(1753137125.388264) can0 04EF001C#6E5AB6EC999D4AEF
(1753137125.389262) can0 0DF0101C#76F0424F50B15A30
(1753137125.390290) can0 18FEE81C#9054B00563634F81
(1753137125.391310) can0 18F01D21#E3B0128000941280
(1753137125.391313) can0 19FA041C#009376FF0C013E17
(1753137125.392307) can0 0CF00400#FF7D7F981200FFFF
(1753137125.392311) can0 19FA041C#01D0CF0410FFFFFF
(1753137125.393311) can0 19FA041C#02FFFF02212034B7
(1753137125.394287) can0 19FA041C#033C0FFFFFFFFFFF
(1753137125.395311) can0 19FA041C#04038507D0CF100E
(1753137125.396331) can0 19FA041C#05FFFFFFFFFF0A14
(1753137125.397340) can0 0CEF0100#A020025500269A1F
(1753137125.397341) can0 04EF001C#DE5D3B6B2E1AC0E8
(1753137125.398340) can0 18FEF600#FFFF5910FFFFFFFF
(1753137125.398341) can0 19FA041C#061E324B480DFFFF
(1753137125.399382) can0 19FA041C#07FFFFFF0C27068C
(1753137125.400463) can0 19FA041C#08230000FFFFFFFF
(1753137125.401404) can0 19FA041C#09FF175E01085248
(1753137125.402395) can0 18FEF100#FFCF05F0FFC71FFF
(1753137125.402396) can0 19FA041C#0A0DFFFFFFFFFF19
(1753137125.403424) can0 19FA041C#0B4E0C0E38E40CFF
(1753137125.404438) can0 19FA041C#0CFFFFFFFF1C2B2F
(1753137125.405438) can0 19FA041C#0D8A663C0FFFFFFF
(1753137125.406451) can0 19FA041C#0EFFFF1F651D8480
(1753137125.407458) can0 04EF001C#B040BE0640874505
(1753137125.408435) can0 19FA041C#0FA00FFFFFFFFFFF
(1753137125.409465) can0 09F112F8#FFD26C0000FF7FFD
(1753137125.409466) can0 19FA041C#1020A627141E9411
(1753137125.410497) can0 1DEFFFF8#E00AE598EE040404
(1753137125.410498) can0 19FA041C#11FFFFFFFFFF2CB6
(1753137125.411486) can0 0CF00400#FF7D7F801200FFFF
(1753137125.412499) can0 19FA041C#121CFC853C0FFFFF
(1753137125.412500) can0 1DEFFFF8#E103000000FFFFFF
(1753137125.413536) can0 19FA041C#13FFFFFF30A91A30
(1753137125.414529) can0 19FA041C#148EA00FFFFFFFFF
(1753137125.415530) can0 19FA041C#15FFFFFFFFFFFFFF
(1753137125.416555) can0 0CEF0100#A020025200269A1F
(1753137125.417594) can0 18FF1CF3#0000000000000000
(1753137125.417598) can0 04EF001C#B942A74C48255DEF
(1753137125.421165) can0 0CEF1100#79FF8A32E1CDB3FF
(1753137125.424478) can0 19F10D13#22720159025A006B
(1753137125.425490) can0 19F21139#000000FFD8521600
(1753137125.426452) can0 18FFDC00#C014014E02938A4E
(1753137125.427456) can0 04EF001C#E345C79B12023D18
(1753137125.431161) can0 18FFDC00#C19B03A300A0FF7A
(1753137125.432151) can0 0CF00300#DF000DFF00FFFFFF
(1753137125.433151) can0 0CF00400#FF7D7F701200FFFF
(1753137125.436155) can0 18FFDC00#C2FFFF4D2A2300FF
(1753137125.437175) can0 09F20000#003809FFFFFFFFFF
(1753137125.438211) can0 0CEF0100#A020024E00269A1F
(1753137125.438213) can0 04EF001C#5E48170EAC1FEEED
(1753137125.439769) can0 18FF1C17#0000000000000000
(1753137125.447590) can0 04EF001C#FA4AA62C089D5F4F
(1753137125.451176) can0 0CF00400#FF7D7F701200FFFF
(1753137125.456197) can0 0CEF0100#A020024E00269A1F
(1753137125.457667) can0 04EF001C#DE4DBB0B2CDA4228
(1753137125.461195) can0 18FEF200#2F00FFFFFFFF0FFF
(1753137125.467761) can0 04EF001C#7A50F23689470A95
(1753137125.471168) can0 0CF00400#FF7D7F381200FFFF
(1753137125.472184) can0 0CEF1100#2FECC506222A5864
(1753137125.476153) can0 18FFDC00#E014014502938B4E
(1753137125.477223) can0 0CEF0100#A020024A00269A1F
(1753137125.478191) can0 04EF001C#4E54E792B2431031
(1753137125.481202) can0 18FFDC00#E19C03A100A0FF7A
(1753137125.482209) can0 0CF00300#DF000DFF00FFFFFF
(1753137125.484592) can0 18FF2D21#01868BEE7F980B00
(1753137125.485553) can0 18FF1080#000000FFFFFFFC00
(1753137125.486586) can0 18FFDC00#E2FFFF4D2A2300FF
(1753137125.487593) can0 18FF1180#FCFFF4FFFFFF23FF
(1753137125.488619) can0 18FF1380#000000003FC0C006
(1753137125.488621) can0 04EF001C#C0567DF03CD18AD3
(1753137125.488920) can0 18FF50E0#018BBC317E008078
(1753137125.489248) can0 0CF34155#A491128045FFFFFF
(1753137125.490808) can0 18F01D21#4985128000941280
(1753137125.491840) can0 0CF00400#FF7D7F201200FFFF
(1753137125.496182) can0 0CEF0100#A020024500269A1F
(1753137125.498120) can0 04EF001C#5A599B2FA6DE6C0C
(1753137125.501179) can0 18FEF100#FFD005F0FFC71FFF
(1753137125.508236) can0 04EF001C#085CE3BAF49B14D9
(1753137125.511182) can0 0CF00400#FF7D7F401200FFFF
(1753137125.516198) can0 0CEF0100#A020024500269A1F
(1753137125.517193) can0 18FF1CF3#0000000000000000
(1753137125.518347) can0 04EF001C#FF5E030003B9F443
(1753137125.521168) can0 0CEF1100#E6E6210CC748FD0D
(1753137125.524453) can0 19F10D13#23720159025A006B
(1753137125.525441) can0 19F21139#000000FF3C531600
(1753137125.526471) can0 18FFDC00#0014014A02938B4E
(1753137125.528448) can0 04EF001C#9B419C0F66366AEC
(1753137125.531194) can0 18FFDC00#019C03A200A0FF7A
(1753137125.532179) can0 0CF00300#DF000DFF00FFFFFF
(1753137125.533194) can0 0CF00400#FF7D7F401200FFFF
(1753137125.536199) can0 18FFDC00#02FFFF4D2A2300FF
(1753137125.537191) can0 09F20000#001C09FFFFFFFFFF
(1753137125.538142) can0 0CEF0100#A020024800269A1F
(1753137125.539141) can0 04EF001C#17443C6AEBD3CB69
(1753137125.548680) can0 09F112F8#FFD36C0000FF7FFD
(1753137125.549708) can0 04EF001C#794641188411B7DB
(1753137125.551173) can0 0CF00400#FF7D7F081200FFFF
(1753137125.552164) can0 18FECA00#00FF00000000FFFF
(1753137125.556152) can0 0CEF0100#A020024500269A1F
(1753137125.558248) can0 15FD069B#277074FFFFFFFFFF
(1753137125.559253) can0 04EF001C#39497B17C45E8D94
(1753137125.561213) can0 18FEF200#2F00FFFFFFFF0FFF
(1753137125.568877) can0 04EF001C#F94BAD05072C58E6
(1753137125.571155) can0 0CF00400#FF7D7F081200FFFF
(1753137125.572177) can0 0CEF1100#AA97F8736084CB2F
(1753137125.576179) can0 18FFDC00#2014014202938B4E
(1753137125.577202) can0 0CEF0100#A020024000269A1F
(1753137125.578990) can0 04EF001C#EE4E92B810E9679B
(1753137125.581189) can0 18FFDC00#219B03A000A0FF7A
(1753137125.582186) can0 0CF00300#DF000DFF00FFFFFF
(1753137125.584683) can0 18FF1080#000000FFFFFFFC00
(1753137125.585655) can0 18FF1180#FCFEF4FEFFFF23FF
(1753137125.586669) can0 18FFDC00#22FFFF4D2A2300FF
(1753137125.589090) can0 04EF001C#7951F91F87B60C7C
(1753137125.590157) can0 18F01D21#0593128000921280
(1753137125.591191) can0 0CF00400#FF7D7F301200FFFF
(1753137125.592447) can0 18FF50E0#018BBC317E008079
(1753137125.592599) can0 0CF34155#B590128045FFFFFF
(1753137125.596173) can0 0CEF0100#A020024300269A1F
(1753137125.599237) can0 04EF001C#3954931AC7D36619
(1753137125.601150) can0 18FEF100#FFCF05F0FFC71FFF
(1753137125.609324) can0 04EF001C#FA5646F005C1B213
(1753137125.611167) can0 0CF00400#FF7D7F481200FFFF
(1753137125.616159) can0 0CEF0100#A020024700269A1F
(1753137125.617161) can0 0CEF0017#810400000000FFFF
(1753137125.619426) can0 04EF001C#B9597FE7470E8AC4
(1753137125.621156) can0 0CEF1100#ED97EB8BB1DB2465
(1753137125.624510) can0 19F10D13#24710159025A006B
(1753137125.625458) can0 19F21139#000000FFA0531600
(1753137125.626486) can0 18FFDC00#4014014A02938B4D
(1753137125.627471) can0 18E8FF00#02FFFFFFFF00EF00
(1753137125.629538) can0 04EF001C#7A5C92FA842B67F9
(1753137125.631193) can0 18FFDC00#419B03A400A0FF7A
(1753137125.632151) can0 0CF00300#DF000EFF00FFFFFF
(1753137125.633205) can0 0CF00400#FF7D7F481200FFFF
(1753137125.636205) can0 18FFDC00#42FFFF4D2A2300FF
(1753137125.637180) can0 09F20000#002409FFFFFFFFFF
(1753137125.638192) can0 0CEF0100#A020024900279A1F
(1753137125.638194) can0 18FF1CF3#0000000000000000
(1753137125.639615) can0 04EF001C#6E5F9E5990A86BDA
(1753137125.647057) can0 18FF1C17#0000000000000000
(1753137125.649774) can0 04EF001C#FB41FFFF05060ADC
(1753137125.651219) can0 0CF00400#FF7D7F481200FFFF
(1753137125.656183) can0 0CEF0100#A020024900279A1F
(1753137125.659905) can0 04EF001C#B94497EA46E36329
(1753137125.661170) can0 18FEF200#3000FFFFFFFF0FFF
(1753137125.670022) can0 04EF001C#7B474BF98480BF5A
(1753137125.671181) can0 0CF00400#FF7D7F281200FFFF
(1753137125.672201) can0 0CEF1100#3F88E19C430D6774
(1753137125.676172) can0 18FFDC00#6014014402938B4D
(1753137125.677133) can0 0CEF0100#A020024700269A1F
(1753137125.680118) can0 04EF001C#A24AFC3C5D6D087F
(1753137125.681169) can0 18FFDC00#619A03A200A0FF7A
(1753137125.682152) can0 0CF00300#DF000EFF00FFFFFF
(1753137125.685701) can0 18FF1080#000000FFFFFFFC00
(1753137125.686713) can0 18FFDC00#62FFFF4D2A2300FF
(1753137125.687691) can0 18FF1180#FCFEF4FEFFFF23FF
(1753137125.687693) can0 18FF1380#000000003FC0C006
(1753137125.688651) can0 09F112F8#FFCC6C0000FF7FFD
(1753137125.690225) can0 04EF001C#874DE023781A1420
(1753137125.691238) can0 18F01D21#0593128000911280
(1753137125.692267) can0 0CF00400#FF7D7F201200FFFF
(1753137125.695809) can0 18FF50E0#018BBC357E00807A
(1753137125.696151) can0 0CEF0100#A020024400269A1F
(1753137125.697625) can0 0CF34155#0797128045FFFFFF
(1753137125.700325) can0 04EF001C#4850C146B0A732E5
(1753137125.701344) can0 18FEF100#FFCC05F0FFC71FFF
(1753137125.710471) can0 04EF001C#E3527F1C1C058B1F
(1753137125.711436) can0 0CF00400#FF7D7F401200FFFF
(1753137125.716137) can0 0CEF0100#A020024500279A1F
(1753137125.717160) can0 18FF1CF3#0000000000000000
(1753137125.720546) can0 04EF001C#C755622B38D296E8
(1753137125.721556) can0 0CEF1100#7480B106834B43B4
(1753137125.724481) can0 19F10D13#25710159025A006B
(1753137125.725450) can0 19F21139#000000FF04541600
(1753137125.726459) can0 18FFDC00#8014014D02938B4E
(1753137125.730652) can0 04EF001C#8858475E779FB3DD
(1753137125.731715) can0 0CF00300#DF000EFF00FFFFFF
(1753137125.732686) can0 0CF00400#FF7D7F681200FFFF
(1753137125.732689) can0 18FFDC00#819903A600A0FF7A
(1753137125.736171) can0 18FFDC00#82FFFF4D2A2300FF
(1753137125.737131) can0 09F20000#003009FFFFFFFFFF
(1753137125.738134) can0 0CEF0100#A020024A00279A1F
(1753137125.740792) can0 04EF001C#B95A67D4469D9357
(1753137125.750876) can0 04EF001C#7A5D9ACB857A6EA8
(1753137125.751864) can0 0CF00400#FF7D7F401200FFFF
(1753137125.756187) can0 0CEF0100#A020024B00279A1F
(1753137125.761043) can0 04EF001C#3A4030A6C577C4A5
(1753137125.761987) can0 18FEF200#3000FFFFFFFF0FFF
(1753137125.771144) can0 04EF001C#FB42E7AC0455138F
(1753137125.772114) can0 0CEF1100#9BAA5DB513FE54FB
(1753137125.773163) can0 0CF00400#FF7D7F581200FFFF
(1753137125.776168) can0 18FFDC00#A014014C02938B4D
(1753137125.777151) can0 0CEF0100#A020024900279A1F
(1753137125.781180) can0 18FFDC00#A19803A600A0FF7A
(1753137125.782183) can0 04EF001C#B9459FBB41D26C18
(1753137125.783206) can0 0CF00300#DF000EFF00FFFFFF
(1753137125.785640) can0 18FF1080#000000FFFFFFFC00
(1753137125.786633) can0 18FFDC00#A2FFFF4D2A2300FF
(1753137125.787627) can0 18FF1180#FCFEF4FEFFFF23FF
(1753137125.790716) can0 18F01D21#1495128000971280
(1753137125.791723) can0 0CF00400#FF7D7F981200FFFF
(1753137125.792762) can0 04EF001C#7A4832AE829FC14D
(1753137125.796161) can0 0CEF0100#A020024D00279A1F
(1753137125.797149) can0 0CEA1C00#00EE000000000000
(1753137125.798474) can0 18EEFF1C#0204450E00000042
(1753137125.800364) can0 18FF50E0#018BBC357E00807B
(1753137125.800486) can0 0CF34155#1197128045FFFFFF
(1753137125.801675) can0 04EF001C#394B6BA5C66C9FA6
(1753137125.802820) can0 18FEF100#FFC805F0FFC71FFF
(1753137125.811152) can0 0CF00400#FF7D7FB81200FFFF
(1753137125.812205) can0 04EF001C#FA4D9EBB028A6D58
(1753137125.816196) can0 0CEF0100#A020025400279A1F
(1753137125.817193) can0 18FF1CF3#0000000000000000
(1753137125.821159) can0 0CEF1100#CCA20ACFD4878F02
(1753137125.822134) can0 04EF001C#BA5034A64557C085
(1753137125.823160) can0 09F112F8#FFC36C0000FF7FFD
(1753137125.824456) can0 19F10D13#26720159025A006B
(1753137125.825498) can0 19F21139#000000FF68541600
(1753137125.826482) can0 18FFDC00#C014015302938B4E
(1753137125.831095) can0 18FFDC00#C19703A800A0FF7A
(1753137125.832124) can0 0CF00300#DF000EFF00FFFFFF
(1753137125.833127) can0 04EF001C#7953E9BD86141DDE
(1753137125.833128) can0 0CF00400#FF7D7F981200FFFF
(1753137125.836137) can0 18FFDC00#C2FFFF4D2A2300FF
(1753137125.837148) can0 09F20000#005009FFFFFFFFFF
(1753137125.838153) can0 0CEF0100#A020025400279A1F
(1753137125.841179) can0 09F20100#2016004508FFFF80
(1753137125.842202) can0 04EF001C#39568388C76176AB
(1753137125.846220) can0 09F20100#2186720519004D2A
(1753137125.851160) can0 0CF00400#FF7D7FD01200FFFF
(1753137125.852210) can0 09F20100#222300FFFFFFFF00
(1753137125.853178) can0 04EF001C#FA58369E05AFC27D
(1753137125.853179) can0 18FEEE00#6FFFFFFFFFFF54FF
(1753137125.856187) can0 09F20100#230000FFFFFFFFFF
(1753137125.857195) can0 0CEF0100#A020025500279A1F
(1753137125.858208) can0 18FEEF00#FFFFFF34FFFFFFFF
(1753137125.861177) can0 18FEF200#3200FFFFFFFF0DFF
(1753137125.862210) can0 04EF001C#B95B6F8546EC9B26
(1753137125.863199) can0 1DEFFFF8#000CE5986C070202
(1753137125.864180) can0 1DEFFFF8#01410089000000FF
(1753137125.865227) can0 1DEFFFF8#200CE5986C070202
(1753137125.866192) can0 1DEFFFF8#21430001000000FF
(1753137125.866192) can0 18FEF700#FFFF1A0117011601
(1753137125.867259) can0 1DEFFFF8#4009E5986C070202
(1753137125.868264) can0 1DEFFFF8#41280000FFFFFFFF
(1753137125.869255) can0 1DEFFFF8#6009E5986C070202
(1753137125.870314) can0 1DEFFFF8#61340000FFFFFFFF
(1753137125.871286) can0 0CF00400#FF7D7FB01200FFFF
(1753137125.872305) can0 0CEF1100#08A375EFAC65EDC5
(1753137125.872309) can0 1DEFFFF8#8009E5986C070202
(1753137125.873329) can0 04EF001C#E35E1F501C89EB93
(1753137125.874367) can0 1DEFFFF8#811B00FFFFFFFFFF
(1753137125.875336) can0 1DEFFFF8#A009E5986C070202
(1753137125.876353) can0 1DEFFFF8#A11D00FFFFFFFFFF
(1753137125.876355) can0 0CEF0100#A020025800269A1F
(1753137125.877622) can0 18FFDC00#E014015502938A4E
(1753137125.878355) can0 18FF1C17#0000000000000000
(1753137125.881118) can0 18FFDC00#E19503A800A0FF7A
(1753137125.882152) can0 0CF00300#DF000EFF00FFFFFF
(1753137125.883124) can0 04EF001C#C941CC0F3746390C
(1753137125.886149) can0 18FFDC00#E2FFFF4D2A2300FF
(1753137125.887130) can0 0CEF1700#018400000000FFFF
(1753137125.888159) can0 18FF1080#000000FFFFFFFC00
(1753137125.889157) can0 09F8021C#77FC3F729D00FFFF
(1753137125.889158) can0 18FF1180#FCFEF4FEFFFF23FF
(1753137125.890193) can0 09F8011C#1ECF2818EC7853C1
(1753137125.890194) can0 18F01D21#1495128000971280
(1753137125.891247) can0 18FF1380#000000003FC0C006
(1753137125.892217) can0 0CF00400#FF7D7F901200FFFF
(1753137125.892221) can0 18FEFC00#FF7AFFFFFFFFFFFF
(1753137125.893204) can0 19FA031C#77D25C00A2006800
(1753137125.894201) can0 04EF001C#A4448A625B837EA1
(1753137125.895206) can0 19FA031C#77D25C00A2006800
(1753137125.896230) can0 0DF0101C#77F0424F50B15A30
(1753137125.896242) can0 0CEF0100#A020025400269A1F
(1753137125.897227) can0 18FEE81C#CB53A805D9635081
(1753137125.898244) can0 18FEF600#FFFF5910FFFFFFFF
(1753137125.901168) can0 18FEF100#FFC205F0FFC71FFF
(1753137125.902595) can0 04EF001C#524763D1ADE09772
(1753137125.903718) can0 18FF50E0#018BBC167B00807C
(1753137125.903918) can0 0CF34155#19AD0D8045FFFFFF
(1753137125.907721) can0 19FA041C#209377FF0C013E17
(1753137125.908738) can0 19FA041C#21D0CF3C0FFFFFFF
(1753137125.909749) can0 19FA041C#22FFFF02212034B7
(1753137125.910762) can0 19FA041C#230410FFFFFFFFFF
(1753137125.911745) can0 0CF00400#FF7D7F901200FFFF
(1753137125.912743) can0 19FA041C#24038507D0CF480D
(1753137125.912747) can0 04EF001C#ED4AB124128D45E7
(1753137125.913739) can0 19FA041C#25FFFFFFFFFF0A14
(1753137125.914804) can0 19FA041C#261E324B1C0CFFFF
(1753137125.915789) can0 19FA041C#27FFFFFF0C27068C
(1753137125.916818) can0 0CEF0100#A020025100269A1F
(1753137125.917793) can0 19FA041C#28230000FFFFFFFF
(1753137125.917795) can0 19FA041C#29FF175E01085248
(1753137125.918810) can0 19FA041C#2A0DFFFFFFFFFF19
(1753137125.919849) can0 19FA041C#2B4E0C0E38100EFF
(1753137125.920823) can0 19FA041C#2CFFFFFFFF1C2B2F
(1753137125.921915) can0 0CEF1100#B3DAD6EAEFA3B105
(1753137125.922873) can0 19FA041C#2D8A660410FFFFFF
(1753137125.922875) can0 04EF001C#A14DC6B35E3A3330
(1753137125.923851) can0 19FA041C#2EFFFF1F651D8480
(1753137125.924873) can0 19F10D13#27710159025A006B
(1753137125.925884) can0 19F21139#000000FFCC541600
(1753137125.925886) can0 19FA041C#2F3011FFFFFFFFFF
(1753137125.926893) can0 18FFDC00#0014015602938B4E
(1753137125.927922) can0 19FA041C#3020A627141EF811
(1753137125.928910) can0 19FA041C#31FFFFFFFFFF2CB6
(1753137125.928914) can0 19FA041C#321CFC850410FFFF
(1753137125.929908) can0 19FA041C#33FFFFFF30A91A30
(1753137125.930927) can0 19FA041C#348E3C0FFFFFFFFF
(1753137125.931974) can0 0CF00300#DF000EFF00FFFFFF
(1753137125.933012) can0 0CF00400#FF7D7FB01200FFFF
(1753137125.933015) can0 18FFDC00#019303A800A0FF7A
(1753137125.934007) can0 04EF001C#864FF0897978054A
(1753137125.936157) can0 18FFDC00#02FFFF4D2A2300FF
(1753137125.937134) can0 09F20000#005809FFFFFFFFFF
(1753137125.938148) can0 0CEF0100#A020025300269A1F
(1753137125.938150) can0 18FF1CF3#0000000000000000
(1753137125.942975) can0 04EF001C#B751301F4B26C69C
(1753137125.951132) can0 0CF00400#FF7D7F981200FFFF
(1753137125.953088) can0 04EF001C#AC5403C25023F541
(1753137125.956116) can0 0CEF0100#A020025400269A1F
(1753137125.959670) can0 09F112F8#FFB56C0000FF7FFD
(1753137125.961169) can0 18FEF200#3100FFFFFFFF0FFF
(1753137125.963215) can0 04EF001C#6C57DDC190E02B82
(1753137125.964468) can0 0DF50B9B#92610F00000000FF
(1753137125.971135) can0 0CF00400#FF7D7FA01200FFFF
(1753137125.972158) can0 0CEF1100#75D3E958B1DD3274
(1753137125.973309) can0 04EF001C#8F5A51C4731DA767
(1753137125.976144) can0 18FFDC00#2014015502938B4E
(1753137125.977129) can0 0CEF0100#A020025300269A1F
(1753137125.981141) can0 18FFDC00#219003A800A0FF87
(1753137125.982138) can0 0CF00300#DF000EFF00FFFFFF
(1753137125.983434) can0 04EF001C#4D5DADD3B11A5B70
(1753137125.986147) can0 18FFDC00#22FFFF4E2A2300FF
(1753137125.987127) can0 18FF1080#000000FFFFFFFC00
(1753137125.988157) can0 18FF1180#FCFEF4FEFFFF23FF
(1753137125.990509) can0 18F01D21#C65C128000AD0D80
(1753137125.991475) can0 0CF00400#FF7D7FD01200FFFF
(1753137125.993625) can0 04EF001C#AD5F5AD150B8ADD2
(1753137125.996129) can0 0CEF0100#A020025600269A1F
(1753137126.001174) can0 18FEF100#FFBB05F0FFC71FFF
(1753137126.003664) can0 04EF001C#6D4274CC90A583CF
(1753137126.008827) can0 18FF50E0#018BBC427E00807D
(1753137126.009127) can0 0CF34155#A4A8128045FFFFFF
(1753137126.011178) can0 0CF00400#FF7D7FF01200FFFF
(1753137126.013822) can0 04EF001C#F844D562040323C1
(1753137126.016099) can0 0CEF0100#A020025B00269A1F
(1753137126.017120) can0 18FF1CF3#0000000000000000
(1753137126.021147) can0 0CEF1100#2AC9AC66D432DE9D
(1753137126.023856) can0 04EF001C#B74780194A80773A
(1753137126.024881) can0 19F10D13#28720159025A006B
(1753137126.025896) can0 19F21139#000000FF30551600
(1753137126.026893) can0 18FFDC00#4014015D02938B4E
(1753137126.031154) can0 18FFDC00#418E03AA00A0FF99
(1753137126.032134) can0 0CF00300#DF000EFF00FFFFFF
(1753137126.033132) can0 0CF00400#FF7D7FE81200FFFF
(1753137126.034139) can0 04EF001C#F64AAB1C0BED5C5F
(1753137126.036136) can0 18FFDC00#42FFFF4E2A2300FF
(1753137126.037122) can0 09F20000#007409FFFFFFFFFF
(1753137126.038135) can0 0CEF0017#810400000000FFFF
(1753137126.038137) can0 0CEF0100#A020025D00269A1F
(1753137126.044136) can0 04EF001C#374D5423CA3AA380
(1753137126.046158) can0 18E8FF00#02FFFFFFFF00EF00
(1753137126.051163) can0 0CF00400#FF7D7FE81200FFFF
(1753137126.054224) can0 04EF001C#F84F8D5905587A9A
(1753137126.056103) can0 0CEF0100#A020025D00269A1F
(1753137126.061099) can0 18FEF200#3200FFFFFFFF0FFF
(1753137126.062789) can0 15FD069B#287074FFFFFFFFFF
(1753137126.064364) can0 04EF001C#B85227444565D0A7
(1753137126.071172) can0 0CF00400#FF7D7FC81200FFFF
(1753137126.072161) can0 0CEF1100#E1C1D8FC814E0EF4
(1753137126.074456) can0 04EF001C#E25547931002BF10
(1753137126.076103) can0 18FFDC00#6014015802938A4E
(1753137126.077103) can0 0CEF0100#A020025B00269A1F
(1753137126.081130) can0 18FFDC00#618B03A800A0FF9F
(1753137126.082154) can0 0CF00300#DF000EFF00FFFFFF
(1753137126.084563) can0 04EF001C#C55809A6370FF125
(1753137126.086129) can0 18FFDC00#62FFFF4E2A2300FF
(1753137126.087626) can0 18FF1080#000000FFFFFFFC00
(1753137126.088622) can0 18FF1180#FDFFF4FFFFFF23FF
(1753137126.089621) can0 18FF1380#000000003FC0C006
(1753137126.090827) can0 18F01D21#2152128000A91280
(1753137126.091854) can0 0CF00400#FF7D7FB81200FFFF
(1753137126.094664) can0 04EF001C#885B5ECD7AECA6AE
(1753137126.096127) can0 0CEF0100#A020025800269A1F
(1753137126.097128) can0 09F112F8#FFA66C0000FF7FFD
(1753137126.101138) can0 18FEF100#FFB405F0FFC71FFF
(1753137126.104792) can0 04EF001C#215EDA80D3E922E3
(1753137126.111156) can0 0CF00400#FF7D7FC01200FFFF
(1753137126.114916) can0 04EF001C#064104B7F446FC74
(1753137126.116134) can0 0CEF0100#A020025700269A1F
(1753137126.117116) can0 18FF1CF3#0000000000000000
(1753137126.121127) can0 0CEF1100#A2FFBA2AA2975725
(1753137126.124490) can0 19F10D13#29720159025A006B
(1753137126.125467) can0 19F21139#000000FF94551600
(1753137126.126466) can0 04EF001C#C543D1AD3604282E
(1753137126.126470) can0 18FFDC00#8014015D02938B4E
(1753137126.129873) can0 18FF50E0#018BBC4B7E00807E
(1753137126.129986) can0 0CF34155#22BC128045FFFFFF
(1753137126.131231) can0 0CF00300#DF000EFF00FFFFFF
(1753137126.132208) can0 0CF00400#FF7D7FF01200FFFF
(1753137126.133233) can0 18FFDC00#818903A900A0FFA2
(1753137126.135111) can0 04EF001C#9946A74869815D4B
(1753137126.136167) can0 18FFDC00#82FFFF4E2A2300FF
(1753137126.137154) can0 09F20000#007C09FFFFFFFFFF
(1753137126.138159) can0 0CEF0100#A020025A00269A1F
(1753137126.145210) can0 04EF001C#B748F836468F0335
(1753137126.151186) can0 0CF00400#FF7D7F081300FFFF
(1753137126.155343) can0 04EF001C#794B284588ACD366
(1753137126.156315) can0 0CEF0100#A020025F00269A1F
(1753137126.161195) can0 18FEF200#3300FFFFFFFF0FFF
(1753137126.165434) can0 04EF001C#374E4C30C609B7B3
(1753137126.171179) can0 0CF00400#FF7D7F281300FFFF
(1753137126.172160) can0 0CEF1100#79E36A3560CB87F0
(1753137126.175585) can0 04EF001C#FA5077460B578C85
(1753137126.176584) can0 18FFDC00#A014016602938C4E
(1753137126.177583) can0 0CEF0100#A020026200269A1F
(1753137126.181180) can0 18FFDC00#A18703AD00A0FFA3
(1753137126.182127) can0 0CF00300#DF000EFF00FFFFFF
(1753137126.185690) can0 04EF001C#B753202D4614DBAE
(1753137126.186696) can0 18FFDC00#A2FFFF4E2A2300FF
(1753137126.187679) can0 18FF1C17#0000000000000000
(1753137126.187682) can0 18FF1080#000000FFFFFFFC00
(1753137126.188691) can0 18FF1180#FDFFF4FFFFFF23FF
(1753137126.190226) can0 18F01D21#619F128000BC1280
(1753137126.191212) can0 0CF00400#FF7D7F381300FFFF
(1753137126.195744) can0 04EF001C#7956C05888713BBB
(1753137126.196738) can0 0CEF0100#A020026500269A1F
(1753137126.201172) can0 18FEF100#FFAC05F0FFC71FFF
(1753137126.205904) can0 04EF001C#3859FB5FCEDE071C
(1753137126.211154) can0 0CF00400#FF7D7F481300FFFF
(1753137126.216024) can0 04EF001C#F95B2C250F4CD086
(1753137126.217014) can0 0CEF0100#A020026700269A1F
(1753137126.221203) can0 0CEF1100#31E612743908CF3F
(1753137126.224474) can0 19F10D13#2A730159025A006A
(1753137126.225485) can0 19F21139#000000FFF8551600
(1753137126.226518) can0 04EF001C#B85E47284FC9BA0B
(1753137126.227481) can0 18FFDC00#C014016A02938A4E
(1753137126.231109) can0 18FFDC00#C18403AE00A0FFA3
(1753137126.232109) can0 0CF00300#DF000EFF00FFFFFF
(1753137126.232169) can0 18FF50E0#018BBC4B7E00807F
(1753137126.232265) can0 0CF34155#84C1128045FFFFFF
(1753137126.233161) can0 0CF00400#FF7D7F501300FFFF
(1753137126.236088) can0 18FFDC00#C2FFFF4E2A2300FF
(1753137126.237120) can0 04EF001C#784179378F3684F4
(1753137126.238116) can0 09F112F8#FF946C0000FF7FFD
(1753137126.238117) can0 09F20000#00A409FFFFFFFFFF
(1753137126.239114) can0 0CEF0100#A020026900269A1F
(1753137126.239115) can0 18FF1CF3#0000000000000000
(1753137126.246361) can0 04EF001C#3944123ACD93EC59
(1753137126.251111) can0 0CF00400#FF7D7F281300FFFF
(1753137126.256151) can0 0CEF0100#A020026800269A1F
(1753137126.257156) can0 04EF001C#F846C5300C713BB3
(1753137126.261165) can0 18FEF200#3200FFFFFFFF0FFF
(1753137126.266561) can0 04EF001C#B749F047431E0EA4
(1753137126.271132) can0 0CF00400#FF7D7F001300FFFF
(1753137126.272127) can0 0CEF1100#F2E624AC767F4584
(1753137126.276166) can0 18FFDC00#E014016002938B4E
(1753137126.277126) can0 0CEF0100#A020026200269A1F
(1753137126.278128) can0 04EF001C#E24C8FEA17BB70A9
(1753137126.281155) can0 18FFDC00#E18203AA00A0FFA3
(1753137126.282116) can0 0CF00300#DF000EFF00FFFFFF
(1753137126.286199) can0 18FFDC00#E2FFFF4E2A2300FF
(1753137126.287144) can0 04EF001C#A14FD6F154D829D2
(1753137126.289486) can0 18FF1080#000000FFFFFFFC00
(1753137126.290523) can0 18FF1180#FDFFF4FFFFFF23FF
(1753137126.291533) can0 18F01D21#81D1128000C21280
(1753137126.291538) can0 18FF1380#000000003FC0C006
(1753137126.292552) can0 0CF00400#FF7D7F081300FFFF
(1753137126.296206) can0 0CEF0100#A020026000269A1F
(1753137126.297165) can0 04EF001C#865218D47385E7B7
(1753137126.301143) can0 18FEF100#FFA405F0FFC71FFF
(1753137126.307041) can0 04EF001C#215582EBD4427D48
(1753137126.311156) can0 0CF00400#FF7D7F081300FFFF
(1753137126.316141) can0 0CEF0100#A020026000269A1F
(1753137126.317123) can0 18FF1CF3#0000000000000000
(1753137126.318177) can0 04EF001C#E2575781E8175705
(1753137126.321165) can0 0CEF1100#C59438CBC34035F1
(1753137126.324503) can0 19F10D13#2B700159025A006C
(1753137126.325462) can0 19F21139#000000FF5C561600
(1753137126.326483) can0 18FFDC00#0014015F02938C4F
(1753137126.327483) can0 04EF001C#C55A19B4CE9A18B0
(1753137126.331195) can0 18FFDC00#018003A900A0FFA3
(1753137126.332168) can0 0CF00300#DF000EFF00FFFFFF
(1753137126.333169) can0 0CF00400#FF7D7FF81200FFFF
(1753137126.335336) can0 18FF50E0#018BBC557E008080
(1753137126.335621) can0 0CF34155#30C9128045FFFFFF
(1753137126.336671) can0 09F20000#007809FFFFFFFFFF
(1753137126.337716) can0 0CEF0100#A020026000269A1F
(1753137126.338717) can0 04EF001C#F85C155AF09C175E
(1753137126.339707) can0 18FFDC00#02FFFF4E2A2300FF
(1753137126.347423) can0 04EF001C#B85F4F59B01F4DDD
(1753137126.351154) can0 0CF00400#FF7D7FE01200FFFF
(1753137126.356157) can0 18FEEF00#FFFFFF35FFFFFFFF
(1753137126.357132) can0 0CEF0100#A020025D00269A1F
(1753137126.358141) can0 04EF001C#9D42836C95628188
(1753137126.361112) can0 18FEF200#3200FFFFFFFF0FFF
(1753137126.367648) can0 04EF001C#38451B43312518E7
(1753137126.371140) can0 0CF00400#FF7D7FE01200FFFF
(1753137126.372181) can0 0CEF1100#008E5FA5B527BF04
(1753137126.373218) can0 1DEFFFF8#C00CE5986C070202
(1753137126.373219) can0 1DEFFFF8#C1410089000000FF
(1753137126.374994) can0 1DEFFFF8#E00CE5986C070202
(1753137126.375969) can0 1DEFFFF8#E1430001000000FF
(1753137126.376976) can0 0CEF0100#A020025C00269A1F
(1753137126.376978) can0 18FFDC00#2014015C02938C4F
(1753137126.377977) can0 1DEFFFF8#0009E5986C070202
(1753137126.377979) can0 04EF001C#1D485766144854A2
(1753137126.378977) can0 1DEFFFF8#01280000FFFFFFFF
(1753137126.380013) can0 1DEFFFF8#2009E5986C070202
(1753137126.381112) can0 18FFDC00#217E03A900A0FF8D
(1753137126.382132) can0 0CF00300#DF000EFF00FFFFFF
(1753137126.383130) can0 1DEFFFF8#21340000FFFFFFFF
(1753137126.383131) can0 1DEFFFF8#4009E5986C070202
(1753137126.384182) can0 1DEFFFF8#411B00FFFFFFFFFF
(1753137126.385195) can0 1DEFFFF8#6009E5986C070202
(1753137126.386185) can0 1DEFFFF8#611D00FFFFFFFFFF
(1753137126.387173) can0 0CEF1700#018400000000FFFF
(1753137126.387174) can0 09F112F8#FF896C0000FF7FFD
(1753137126.388213) can0 18FFDC00#22FFFF4E2A2300FF
(1753137126.388216) can0 04EF001C#144B462D1D6B45C9
(1753137126.389228) can0 18FF1080#000000FFFFFFFC00
(1753137126.390252) can0 18FF1180#FDFFF4FFFFFF23FF
(1753137126.391254) can0 18F01D21#75C4128000C91280
(1753137126.392231) can0 0CF00400#FF7D7FF01200FFFF
(1753137126.395971) can0 09F8021C#78FCB5739C00FFFF
(1753137126.397009) can0 0CEF0100#A020025C00269A1F
(1753137126.398015) can0 09F8011C#CECE2818FC7853C1
(1753137126.398016) can0 18FEF600#FFFF5910FFFFFFFF
(1753137126.399036) can0 04EF001C#DD4DB963D32DBDC7
(1753137126.400020) can0 19FA031C#78D25C00A2006800
(1753137126.400025) can0 0DF0101C#78F0424F60D85A30
(1753137126.401040) can0 18FEE81C#DE54A00582635081
(1753137126.402043) can0 18FEF100#FF9D05F0FFC71FFF
(1753137126.403074) can0 19FA041C#209378FF0C013E17
(1753137126.404081) can0 19FA041C#21D0CF0410FFFFFF
(1753137126.405058) can0 19FA041C#22FFFF02212034B7
(1753137126.406098) can0 19FA041C#230410FFFFFFFFFF
(1753137126.407088) can0 19FA041C#24038507D0CF740E
(1753137126.407090) can0 18FF1C17#0000000000000000
(1753137126.408102) can0 19FA041C#25FFFFFFFFFF0A14
(1753137126.408105) can0 04EF001C#DD50517ED370559A
(1753137126.409208) can0 19FA041C#261E324B480DFFFF
(1753137126.410209) can0 19FA041C#27FFFFFF0C27068C
(1753137126.411191) can0 0CF00400#FF7D7FE81200FFFF
(1753137126.412206) can0 19FA041C#28230000FFFFFFFF
(1753137126.413206) can0 19FA041C#29FF175E01085248
(1753137126.414264) can0 19FA041C#2A0DFFFFFFFFFF19
(1753137126.415243) can0 19FA041C#2B4E0C0E38E40CFF
(1753137126.416239) can0 0CEF0100#A020025E00269A1F
(1753137126.417277) can0 19FA041C#2CFFFFFFFF1C2B2F
(1753137126.417278) can0 18FF1CF3#0000000000000000
(1753137126.418274) can0 04EF001C#2153B29D2ED3B7D9
(1753137126.419268) can0 19FA041C#2D8A66740EFFFFFF
(1753137126.420290) can0 19FA041C#2EFFFF1F651D8480
(1753137126.421293) can0 0CEF1100#4F849E1FF0E856E8
(1753137126.422329) can0 19FA041C#2F0410FFFFFFFFFF
(1753137126.423316) can0 19FA041C#3020A627141E3011
(1753137126.423317) can0 19FA041C#31FFFFFFFFFF2CB6
(1753137126.424336) can0 19FA041C#321CFC85A00FFFFF
(1753137126.425361) can0 19F10D13#2C700159025A006C
(1753137126.426336) can0 19F21139#000000FFC0561600
(1753137126.426338) can0 19FA041C#33FFFFFF30A91A30
(1753137126.427361) can0 18FFDC00#4014015902938B4E
(1753137126.428431) can0 19FA041C#348ED80EFFFFFFFF
(1753137126.428433) can0 04EF001C#98562650971623D4
(1753137126.429404) can0 19FA041C#35FFFFFFFFFFFFFF
(1753137126.431106) can0 18FFDC00#417C03A800A0FF81
(1753137126.432143) can0 0CF00300#DF000EFF00FFFFFF
(1753137126.433132) can0 0CF00400#FF7D7FC01200FFFF
(1753137126.436120) can0 18FFDC00#42FFFF4E2A2300FF
(1753137126.437108) can0 09F20000#006009FFFFFFFFFF
(1753137126.438116) can0 0CEF0100#A020025B00269A1F
(1753137126.439130) can0 04EF001C#D3581F06DFF81962
(1753137126.445467) can0 18FF50E0#018BBC3F7A008081
(1753137126.445912) can0 0CF34155#4F5B0C8045FFFFFF
(1753137126.448518) can0 04EF001C#375BE4353B6BE2D1
(1753137126.451156) can0 0CF00400#FF7D7FB01200FFFF
(1753137126.456129) can0 0CEF0100#A020025700269A1F
(1753137126.458658) can0 04EF001C#2D5ED6E020EED184
(1753137126.461126) can0 18FEF200#3100FFFFFFFF0FFF
(1753137126.468810) can0 04EF001C#B740B82EBA10BFAA
(1753137126.471180) can0 0CF00400#FF7D7F801200FFFF
(1753137126.472135) can0 0CEF1100#B7BFBFD07DF3748E
(1753137126.476122) can0 18FFDC00#6014014F02938B4E
(1753137126.477131) can0 0CEF0100#A020025400269A1F
(1753137126.478901) can0 04EF001C#18443252153435F6
(1753137126.481128) can0 18FFDC00#617A03A400A0FF7D
(1753137126.482129) can0 0CF00300#DF000DFF00FFFFFF
(1753137126.484071) can0 18FF2D21#01868BEE7F980B00
(1753137126.486124) can0 18FFDC00#62FFFF4E2A2300FF
(1753137126.489016) can0 04EF001C#C546F9B8C796F1BC
(1753137126.489995) can0 18FF1080#000000FFFFFFFC00
(1753137126.491038) can0 18F01D21#28BA1280005B0C80
(1753137126.491039) can0 18FF1180#FCFFF4FFFFFF23FF
(1753137126.492060) can0 0CF00400#FF7D7F701200FFFF
(1753137126.492062) can0 18FF1380#000000003FC0C006
(1753137126.496177) can0 0CEF0100#A020024F00269A1F
(1753137126.499121) can0 04EF001C#654924B767F92CD3
(1753137126.501155) can0 18FEF100#FF9805F0FFC71FFF
(1753137126.509269) can0 04EF001C#204C4BAA226C436E
(1753137126.511136) can0 0CF00400#FF7D7F601200FFFF
(1753137126.516084) can0 0CEF0100#A020024D00269A1F
(1753137126.519315) can0 04EF001C#054F7781068F7EA5
(1753137126.521088) can0 0CEF1100#F6B3CD9B3622EE93
(1753137126.523048) can0 09F112F8#FF866C0000FF7FFD
(1753137126.524462) can0 19F10D13#2D700159025A006C
(1753137126.525442) can0 19F21139#000000FF24571600
(1753137126.526461) can0 18FFDC00#8014014C02938B4E
(1753137126.529425) can0 04EF001C#A6512187A5512863
(1753137126.531122) can0 18FFDC00#817903A300A0FF7B
(1753137126.532131) can0 0CF00300#DF000DFF00FFFFFF
(1753137126.533155) can0 0CF00400#FF7D7F601200FFFF
(1753137126.536157) can0 18FFDC00#82FFFF4E2A2300FF
(1753137126.537150) can0 09F20000#003009FFFFFFFFFF
(1753137126.538112) can0 0CEF0100#A020024C00269A1F
(1753137126.539112) can0 18FF2117#06FFFFFF00FFFFFF
(1753137126.540145) can0 04EF001C#2C5487D22D948CF6
(1753137126.548070) can0 18FF50E0#018BBC5D7E008082
(1753137126.548177) can0 0CF34155#CAD1128045FFFFFF
(1753137126.549926) can0 04EF001C#B7560818B6C6037C
(1753137126.551115) can0 0CF00400#FF7D7F601200FFFF
(1753137126.552113) can0 18FECA00#00FF00000000FFFF
(1753137126.556112) can0 0CEF0100#A020024C00269A1F
(1753137126.557086) can0 0CEF0017#810400000000FFFF
(1753137126.559768) can0 04EF001C#7759B61776C9BD73
(1753137126.560866) can0 15FD069B#297074FFFFFFFFFF
(1753137126.561852) can0 18FEF200#3000FFFFFFFF0FFF
(1753137126.566154) can0 18E8FF00#02FFFFFFFF00EF00
(1753137126.569857) can0 04EF001C#365CDD1A370CD6BE
(1753137126.571180) can0 0CF00400#FF7D7F301200FFFF
(1753137126.572167) can0 0CEF1100#27A5CF565470C9C4
(1753137126.576155) can0 18FFDC00#A014014402938B4E
(1753137126.577142) can0 0CEF0100#A020024A00269A1F
(1753137126.578169) can0 18FF1CF3#0000000000000000
(1753137126.579991) can0 04EF001C#F75E0BE0F7FE0044
(1753137126.581108) can0 18FFDC00#A17703A000A0FF7A
(1753137126.582113) can0 0CF00300#DF000DFF00FFFFFF
(1753137126.586124) can0 18FFDC00#A2FFFF4E2A2300FF
(1753137126.589629) can0 18FF1080#000000FFFFFFFC00
(1753137126.590668) can0 04EF001C#B841BE87BF61B2A3
(1753137126.591637) can0 18F01D21#EA9A128000D21280
(1753137126.591638) can0 0CF00400#FF7D7F201200FFFF
(1753137126.592613) can0 18FF1180#FCFFF4FFFFFF23FF
(1753137126.596115) can0 0CEF0100#A020024400269A1F
(1753137126.600225) can0 04EF001C#784450827F245CE6
(1753137126.601242) can0 18FEF100#FF9405F0FFC71FFF
(1753137126.610298) can0 04EF001C#374705F93087093D
(1753137126.611295) can0 0CF00400#FF7D7F501200FFFF
(1753137126.616138) can0 0CEF0100#A020024500269A1F
(1753137126.617154) can0 18FF1CF3#0000000000000000
(1753137126.620467) can0 04EF001C#F749B3E7F139BE83
(1753137126.621442) can0 0CEF1100#18A7516E1F41CC5D
(1753137126.624483) can0 19F10D13#2E710159025A006B
(1753137126.625481) can0 19F21139#000000FF88571600
(1753137126.626505) can0 18FFDC00#C014014E02938B4E
(1753137126.630529) can0 04EF001C#B64CD8EAB0FCD54E
(1753137126.631525) can0 18FFDC00#C17703A500A0FF7A
(1753137126.632554) can0 0CF00300#DF000EFF00FFFFFF
(1753137126.632556) can0 0CF00400#FF7D7F781200FFFF
(1753137126.636158) can0 18FFDC00#C2FFFF4E2A2300FF
(1753137126.637112) can0 09F20000#003C09FFFFFFFFFF
(1753137126.638137) can0 0CEF0100#A020024B00269A1F
(1753137126.640625) can0 04EF001C#774F07E1727F09C5
(1753137126.650742) can0 04EF001C#3652ACC43352A2E0
(1753137126.651763) can0 0CF00400#FF7D7F681200FFFF
(1753137126.656164) can0 0CEF0100#A020024E00269A1F
(1753137126.660849) can0 04EF001C#F7545BCAF194562E
(1753137126.661837) can0 18FEF200#3000FFFFFFFF10FF
(1753137126.662274) can0 18FF50E0#018BBC5D7E008083
(1753137126.662379) can0 0CF34155#5BD9128045FFFFFF
(1753137126.665944) can0 09F112F8#FF8A6C0000FF7FFD
(1753137126.671006) can0 04EF001C#B65700C1B3770EC5
(1753137126.672053) can0 0CEF1100#AFD3D908B2C5C4EC
(1753137126.673021) can0 0CF00400#FF7D7F381200FFFF
(1753137126.676092) can0 18FFDC00#E014014502938B4E
(1753137126.677130) can0 0CEF0100#A020024A00269A1F
(1753137126.681108) can0 18FFDC00#E17703A200A0FF7A
(1753137126.682099) can0 04EF001C#E15A3D64E46A3360
(1753137126.683153) can0 0CF00300#DF000EFF00FFFFFF
(1753137126.686128) can0 18FFDC00#E2FFFF4E2A2300FF
(1753137126.690587) can0 18FF1080#000000FFFFFFFC00
(1753137126.691616) can0 0CF00400#FF7D7F201200FFFF
(1753137126.692616) can0 04EF001C#C55D2043C02D2E07
(1753137126.692617) can0 18F01D21#FFD6128000D91280
(1753137126.693611) can0 18FF1180#FCFFF4FFFFFF23FF
(1753137126.693612) can0 18FF1380#000000003FC0C006
(1753137126.696118) can0 0CEF0100#A020024500279A1F
(1753137126.701199) can0 18FEF100#FF9405F0FFC71FFF
(1753137126.702191) can0 04EF001C#85408A5E80F084DA
(1753137126.711115) can0 0CF00400#FF7D7F381200FFFF
(1753137126.712126) can0 04EF001C#2143330D24A33DA9
(1753137126.716158) can0 0CEF0100#A020024400279A1F
(1753137126.717140) can0 18FF1CF3#0000000000000000
(1753137126.721084) can0 0CEF1100#70C9B836F60A090C
(1753137126.722114) can0 04EF001C#07463C380306333C
(1753137126.724453) can0 19F10D13#2F6F0159025A006C
(1753137126.725482) can0 19F21139#000000FFEC571600
(1753137126.726509) can0 18FFDC00#0014014D02938A4E
(1753137126.731115) can0 18FFDC00#017703A600A0FF7A
(1753137126.732087) can0 0CF00300#DF000EFF00FFFFFF
(1753137126.733106) can0 04EF001C#C448892EC008862A
(1753137126.733107) can0 0CF00400#FF7D7F701200FFFF
(1753137126.736130) can0 18FFDC00#02FFFF4E2A2300FF
(1753137126.737106) can0 09F20000#003809FFFFFFFFFF
(1753137126.738110) can0 0CEF0100#A020024900279A1F
(1753137126.741782) can0 04EF001C#F74AABA4F39AA420
(1753137126.751140) can0 0CF00400#FF7D7F781200FFFF
(1753137126.752144) can0 04EF001C#B64DD0ABB2BDDF0F
(1753137126.756091) can0 0CEF0100#A020024D00279A1F
(1753137126.759067) can0 18FF1C17#0000000000000000
(1753137126.761116) can0 18FEF200#3100FFFFFFFF10FF
(1753137126.762095) can0 04EF001C#7750FF8E7350F0EA
(1753137126.765537) can0 18FF50E0#018BBC5B7E008084
(1753137126.765721) can0 0CF34155#14DD128045FFFFFF
(1753137126.771103) can0 0CF00400#FF7D7F801200FFFF
(1753137126.772153) can0 0CEF1100#36C0A3843D4E7ED4
(1753137126.773119) can0 04EF001C#3753A58D3353AAE9
(1753137126.776132) can0 18FFDC00#2014015002938A4E
(1753137126.777140) can0 0CEF0100#A020024F00279A1F
(1753137126.781141) can0 18FFDC00#217703A800A0FF7A
(1753137126.782154) can0 0CF00300#DF000EFF00FFFFFF
(1753137126.783158) can0 04EF001C#F8555CF3FDD55217
(1753137126.786126) can0 18FFDC00#22FFFF4E2A2300FF
(1753137126.790251) can0 18F01D21#3CDF128000DD1280
(1753137126.791244) can0 18FF1080#000000FFFFFFFC00
(1753137126.792258) can0 0CF00400#FF7D7F881200FFFF
(1753137126.792259) can0 18FF1180#FCFFF4FFFFFF23FF
(1753137126.793299) can0 04EF001C#B7587996B2E87752
(1753137126.796164) can0 0CEF0100#A020025000279A1F
(1753137126.801204) can0 18FEF100#FF9505F0FFC71FFF
(1753137126.802495) can0 04EF001C#9C5B4BCD986B4489
(1753137126.803566) can0 09F112F8#FF946C0000FF7FFD
(1753137126.805054) can0 1DEFFFF8#800AE598EE040404
(1753137126.805963) can0 1DEFFFF8#8103000000FFFFFF
(1753137126.811142) can0 0CF00400#FF7D7FA01200FFFF
(1753137126.812598) can0 04EF001C#5B5EA2F05F2EADF4
(1753137126.816152) can0 0CEF0100#A020025100279A1F
(1753137126.821142) can0 0CEF1100#C2F151292FD7CB4C
(1753137126.822674) can0 04EF001C#1C411F2718A11043
(1753137126.824479) can0 19F10D13#30700159025A006C
(1753137126.825469) can0 19F21139#000000FF50581600
(1753137126.826469) can0 18FFDC00#4014015702938B4E
(1753137126.831133) can0 18FFDC00#417803AA00A0FF7A
(1753137126.832167) can0 0CF00300#DF000EFF00FFFFFF
(1753137126.833141) can0 0CF00400#FF7D7FB81200FFFF
(1753137126.833143) can0 04EF001C#14443F6210843026
(1753137126.836208) can0 18FFDC00#42FFFF4E2A2300FF
(1753137126.837148) can0 09F20000#005C09FFFFFFFFFF
(1753137126.838168) can0 0CEF0100#A020025500279A1F
(1753137126.841147) can0 09F20100#4016004B08FFFF79
(1753137126.842894) can0 04EF001C#784640007C464F84
(1753137126.846112) can0 09F20100#4186720519004E2A
