;$FILEVERSION=2.0
;$STARTTIME=45858.5136565162
;$COLUMNS=N,O,T,I,d,l,D
;
;   Start time: 7/20/2025 12:19:39.923.0
;   Generated by PCAN-View v5.3.0.942
;   Message   Time    Type ID     Rx/Tx
;   Number    Offset  |    [hex]  |  Data Length
;   |         [ms]    |    |      |  |  Data [hex] ...
;   |         |       |    |      |  |  |
;---+-- ------+------ +- --+----- +- +- +- +- -- -- -- -- -- -- --
      1         0.535 DT 18FEF100 Rx 8  FF 00 00 F0 FF C7 1F FF 
      2         3.299 DT 04EF001C Rx 8  00 4F 78 49 FF 28 87 2A 
      3         4.947 DT 0CF00400 Rx 8  FF 7D 7D 00 00 00 FF FF 
      4        13.387 DT 04EF001C Rx 8  58 51 D2 97 A7 D6 2D 14 
      5        19.935 DT 0CEF1100 Rx 8  33 C1 EA EC 80 44 EA 7C 
      6        20.515 DT 0CEF0100 Rx 8  B0 20 00 00 00 63 58 00 
      7        23.499 DT 04EF001C Rx 8  14 54 B4 F2 EB D3 4B 71 
      8        24.947 DT 0CF00400 Rx 8  FF 7D 7D 00 00 00 FF FF 
      9        29.919 DT 19F10D13 Rx 8  FC AE 00 2E 02 82 00 E4 
     10        30.499 DT 0CF00300 Rx 8  DF 00 4F FF 00 FF FF FF 
     11        32.015 DT 19F21139 Rx 8  00 00 00 FF 00 38 18 00 
     12        33.607 DT 04EF001C Rx 8  D7 56 61 E8 28 D1 9E 6B 
     13        34.947 DT 18FFDC00 Rx 8  40 14 01 00 00 54 79 19 
     14        35.543 DT 09F20000 Rx 8  00 00 00 FF FF FF FF FF 
     15        39.943 DT 18FFDC00 Rx 8  41 00 00 00 00 A4 FF 7A 
     16        40.522 DT 0CEF0100 Rx 8  B0 20 00 00 00 63 58 00 
     17        42.642 DT 18FF1CF3 Rx 8  00 00 00 00 00 00 00 00 
     18        43.735 DT 04EF001C Rx 8  97 59 5B E7 68 3E A4 84 
     19        44.923 DT 18FFDC00 Rx 8  42 FF FF D2 24 23 00 FF 
     20        45.499 DT 0CF00400 Rx 8  FF 7D 7D 00 00 00 FF FF 
     21        50.587 DT 18FF50E0 Rx 8  00 84 F7 BD 79 48 74 ED 
     22        53.832 DT 04EF001C Rx 8  57 5C B5 E2 A8 FB 4A 41 
     23        59.959 DT 18FEF200 Rx 8  00 00 FF FF FF FF 37 FF 
     24        60.539 DT 0CEF0100 Rx 8  B0 20 00 00 00 63 58 00 
     25        63.951 DT 04EF001C Rx 8  16 5F EE E9 E9 F8 11 4A 
     26        64.951 DT 0CF00400 Rx 8  FF 7D 7D 00 00 00 FF FF 
     27        69.915 DT 0CEF1100 Rx 8  D2 FD 35 AA 3A EB AF E6 
     28        74.054 DT 04EF001C Rx 8  D8 41 D6 87 27 86 29 44 
     29        75.074 DT 18FF1C17 Rx 8  00 00 00 00 00 00 00 00 
     30        79.962 DT 0CEF0100 Rx 8  B0 20 00 00 00 63 58 00 
     31        80.542 DT 0CF00300 Rx 8  DF 00 4F FF 00 FF FF FF 
     32        81.303 DT 18FF1080 Rx 8  00 00 00 FF FF FF FD 00 
     33        82.287 DT 18FF1180 Rx 8  03 FF FB FF FF FF 00 FF 
     34        83.287 DT 18FF1380 Rx 8  00 00 00 00 3F C0 C0 06 
     35        84.171 DT 04EF001C Rx 8  98 44 BC 82 67 83 43 41 
     36        84.939 DT 18FFDC00 Rx 8  60 14 01 00 00 54 7A 19 
     37        85.515 DT 0CF00400 Rx 8  FF 7D 7D 00 00 00 FF FF 
     38        89.940 DT 18FFDC00 Rx 8  61 00 00 00 00 A4 FF 7A 
     39        94.283 DT 04EF001C Rx 8  55 47 6F E9 AA E0 90 4A 
     40        94.936 DT 18FFDC00 Rx 8  62 FF FF D2 24 23 00 FF 
     41        99.959 DT 0CEF0100 Rx 8  B0 20 00 00 00 63 58 00 
     42       100.531 DT 18FEF100 Rx 8  FF 00 00 F0 FF C7 1F FF 
     43       104.391 DT 04EF001C Rx 8  16 4A 46 FC E9 ED B9 5F 
     44       104.975 DT 0CF00400 Rx 8  FF 7D 7D 00 00 00 FF FF 
     45       110.435 DT 09F112F8 Rx 8  FF 07 71 00 00 FF 7F FD 
     46       114.491 DT 04EF001C Rx 8  D4 4C B2 EA 2B 2B 4D 89 
     47       119.927 DT 0CEF1100 Rx 8  9C F0 0C 59 F0 A7 9A 37 
     48       120.507 DT 0CEF0100 Rx 8  B0 20 00 00 00 63 58 00 
     49       122.644 DT 18FF1CF3 Rx 8  00 00 00 00 00 00 00 00 
     50       124.616 DT 04EF001C Rx 8  94 4F E8 E9 6B 08 17 AA 
     51       125.192 DT 0CF00400 Rx 8  FF 7D 7D 00 00 00 FF FF 
     52       129.920 DT 19F10D13 Rx 8  FD AD 00 2E 02 82 00 E5 
     53       130.500 DT 0CF00300 Rx 8  DF 00 4F FF 00 FF FF FF 
     54       132.008 DT 19F21139 Rx 8  00 00 00 FF 64 38 18 00 
     55       134.728 DT 04EF001C Rx 8  55 52 C7 FC AA 15 38 BF 
     56       135.324 DT 09F20000 Rx 8  00 00 00 FF FF FF FF FF 
     57       135.888 DT 18FFDC00 Rx 8  80 14 01 00 00 54 79 19 
     58       139.940 DT 18FFDC00 Rx 8  81 00 00 00 00 A4 FF 7A 
     59       140.520 DT 0CEF0100 Rx 8  B0 20 00 00 00 63 58 00 
     60       144.851 DT 04EF001C Rx 8  81 55 2D 5B 7E 12 D2 18 
     61       145.427 DT 0CF00400 Rx 8  FF 7D 7D 00 00 00 FF FF 
     62       145.991 DT 18FFDC00 Rx 8  82 FF FF D2 24 23 00 FF 
     63       154.971 DT 04EF001C Rx 8  63 58 A0 46 9C 1F 5F 05 
     64       156.288 DT 18FF50E0 Rx 8  00 84 F7 BD 79 41 74 EE 
     65       159.956 DT 18FEF200 Rx 8  00 00 FF FF FF FF 37 FF 
     66       160.536 DT 0CEF0100 Rx 8  B0 20 00 00 00 63 58 00 
     67       162.640 DT 0CEF0017 Rx 8  81 04 00 00 00 00 FF FF 
     68       164.944 DT 0CF00400 Rx 8  FF 7D 7D 00 00 00 FF FF 
     69       165.504 DT 04EF001C Rx 8  23 5B FA 45 DC 1C 05 06 
     70       169.916 DT 0CEF1100 Rx 8  4B E2 2F 25 AE 63 0D 05 
     71       170.488 DT 18E8FF00 Rx 8  02 FF FF FF FF 00 EF 00 
     72       175.183 DT 04EF001C Rx 8  BE 5D 53 AB 41 1A AC E8 
     73       179.959 DT 0CEF0100 Rx 8  B0 20 00 00 00 63 58 00 
     74       180.539 DT 0CF00300 Rx 8  DF 00 4F FF 00 FF FF FF 
     75       182.296 DT 18FF1080 Rx 8  00 00 00 FF FF FF FD 00 
     76       183.296 DT 18FF1180 Rx 8  03 FF FB FF FF FF 00 FF 
     77       184.932 DT 18FFDC00 Rx 8  A0 14 01 00 00 54 79 19 
     78       185.480 DT 04EF001C Rx 8  A3 40 A6 5E 5C 07 59 1D 
     79       186.056 DT 0CF00400 Rx 8  FF 7D 7D 00 00 00 FF FF 
     80       189.928 DT 18FFDC00 Rx 8  A1 00 00 00 00 A4 FF 7A 
     81       194.929 DT 18FFDC00 Rx 8  A2 FF FF D2 24 23 00 FF 
     82       195.493 DT 04EF001C Rx 8  67 43 7C 7D 98 04 83 3E 
     83       199.957 DT 0CEF0100 Rx 8  B0 20 00 00 00 63 58 00 
     84       200.529 DT 18FEF100 Rx 8  FF 00 00 F0 FF C7 1F FF 
     85       204.945 DT 0CF00400 Rx 8  FF 7D 7D 00 00 00 FF FF 
     86       205.541 DT 04EF001C Rx 8  FD 45 D2 AB 02 62 2D 88 
     87       215.620 DT 04EF001C Rx 8  55 48 17 E6 AA 6F E8 C5 
     88       219.920 DT 0CEF1100 Rx 8  00 E6 1F BC 75 26 31 1E 
     89       220.500 DT 0CEF0100 Rx 8  B0 20 00 00 00 63 58 00 
     90       224.944 DT 0CF00400 Rx 8  FF 7D 7D 00 00 00 FF FF 
     91       225.748 DT 04EF001C Rx 8  14 4B 4C ED EA AC B2 0E 
     92       229.948 DT 0CF00300 Rx 8  DF 00 4F FF 00 FF FF FF 
     93       230.500 DT 19F10D13 Rx 8  FE AE 00 2E 02 82 00 E4 
     94       232.016 DT 19F21139 Rx 8  00 00 00 FF C8 38 18 00 
     95       234.940 DT 18FFDC00 Rx 8  C0 14 01 00 00 54 79 19 
     96       235.536 DT 09F20000 Rx 8  00 00 00 FF FF FF FF FF 
     97       236.084 DT 04EF001C Rx 8  D5 4D BB E3 2A 4A 44 E0 
     98       239.936 DT 18FFDC00 Rx 8  C1 00 00 00 00 A4 FF 7A 
     99       240.505 DT 09F20100 Rx 8  A0 16 00 06 00 FF FF E9 
    100       241.085 DT 0CEF0100 Rx 8  B0 20 00 00 00 63 58 00 
    101       244.916 DT 18FFDC00 Rx 8  C2 FF FF D2 24 23 00 FF 
    102       245.476 DT 09F20100 Rx 8  A1 73 BE 04 00 00 D2 24 
    103       246.024 DT 04EF001C Rx 8  96 50 12 E6 69 77 ED C5 
    104       246.600 DT 0CF00400 Rx 8  FF 7D 7D 00 00 00 FF FF 
    105       248.068 DT 09F112F8 Rx 8  FF 06 71 00 00 FF 7F FD 
    106       249.932 DT 09F20100 Rx 8  A2 23 00 FF FF FF FF 00 
    107       250.517 DT 18FEEE00 Rx 8  3F FF FF FF FF FF 42 FF 
    108       254.944 DT 09F20100 Rx 8  A3 01 00 FF FF FF FF FF 
    109       255.524 DT 18FEEF00 Rx 8  FF FF FF 00 FF FF FF FF 
    110       256.064 DT 04EF001C Rx 8  58 53 C2 95 A7 14 3D D6 
    111       259.953 DT 18FEF200 Rx 8  00 00 FF FF FF FF 37 FF 
    112       260.533 DT 0CEF0100 Rx 8  B0 20 00 00 00 63 58 00 
    113       261.082 DT 18FF50E0 Rx 8  00 84 F7 BD 79 3A 74 EF 
    114       262.650 DT 18FF1CF3 Rx 8  00 00 00 00 00 00 00 00 
    115       264.942 DT 0CF00400 Rx 8  FF 7D 7D 00 00 00 FF FF 
    116       265.506 DT 18FEF700 Rx 8  FF FF 1A 01 F2 00 F3 00 
    117       266.230 DT 04EF001C Rx 8  39 56 88 98 C6 71 77 BB 
    118       269.902 DT 0CEF1100 Rx 8  B0 93 DE 22 51 36 DC 23 
    119       276.289 DT 04EF001C Rx 8  D7 58 11 E6 28 3F EE 85 
    120       279.957 DT 0CEF0100 Rx 8  B0 20 00 00 00 63 58 00 
    121       280.537 DT 0CF00300 Rx 8  DF 00 4F FF 00 FF FF FF 
    122       282.294 DT 18FF1080 Rx 8  00 00 00 FF FF FF FD 00 
    123       283.294 DT 18FF1180 Rx 8  03 FF FB FF FF FF 00 FF 
    124       284.294 DT 18FF1380 Rx 8  00 00 00 00 3F C0 C0 06 
    125       284.938 DT 18FFDC00 Rx 8  E0 14 01 00 00 54 79 19 
    126       285.518 DT 0CEF1700 Rx 8  01 84 00 00 00 00 FF FF 
    127       286.094 DT 0CF00400 Rx 8  FF 7D 7D 00 00 00 FF FF 
    128       286.638 DT 04EF001C Rx 8  B9 5B 64 95 46 3C 9B F6 
    129       289.926 DT 18FFDC00 Rx 8  E1 00 00 00 00 A4 FF 7A 
    130       290.510 DT 18FEFC00 Rx 8  FF 7A FF FF FF FF FF FF 
    131       294.931 DT 18FFDC00 Rx 8  E2 FF FF D2 24 23 00 FF 
    132       295.507 DT 18FEF600 Rx 8  FF FF 3F 2A FF FF FF FF 
    133       296.099 DT 18FF1C17 Rx 8  00 00 00 00 00 00 00 00 
    134       296.643 DT 04EF001C Rx 8  79 5E 8A 90 86 19 75 D3 
    135       299.955 DT 0CEF0100 Rx 8  B0 20 00 00 00 63 58 00 
    136       300.527 DT 18FEF100 Rx 8  FF 00 00 F0 FF C7 1F FF 
    137       304.939 DT 0CF00400 Rx 8  FF 7D 7D 00 00 00 FF FF 
    138       306.619 DT 04EF001C Rx 8  70 41 7B C7 8F 66 84 E4 
    139       316.717 DT 04EF001C Rx 8  D9 43 C7 8D 26 64 38 AE 
    140       319.913 DT 0CEF1100 Rx 8  F5 95 7D 4B 8D 6C 9B 80 
    141       320.493 DT 0CEF0100 Rx 8  B0 20 00 00 00 63 58 00 
    142       322.649 DT 18FF1CF3 Rx 8  00 00 00 00 00 00 00 00 
    143       324.941 DT 0CF00400 Rx 8  FF 7D 7D 00 00 00 FF FF 
    144       326.845 DT 04EF001C Rx 8  CC 46 FA 20 33 01 05 63 
    145       329.946 DT 0CF00300 Rx 8  DF 00 4F FF 00 FF FF FF 
    146       330.498 DT 19F10D13 Rx 8  FF AD 00 2E 02 82 00 E5 
    147       332.010 DT 19F21139 Rx 8  00 00 00 FF 2C 39 18 00 
    148       334.942 DT 18FFDC00 Rx 8  00 14 01 00 00 54 7A 19 
    149       335.538 DT 09F20000 Rx 8  00 00 00 FF FF FF FF FF 
    150       336.950 DT 04EF001C Rx 8  89 49 C5 07 76 0E 3A 44 
    151       339.937 DT 18FFDC00 Rx 8  01 00 00 00 00 A4 FF 7A 
    152       340.517 DT 0CEF0100 Rx 8  B0 20 00 00 00 63 58 00 
    153       344.925 DT 18FFDC00 Rx 8  02 FF FF D2 24 23 00 FF 
    154       345.501 DT 0CF00400 Rx 8  FF 7D 7D 00 00 00 FF FF 
    155       347.089 DT 04EF001C Rx 8  39 4D 50 83 C6 0A AF C0 
    156       357.176 DT 04EF001C Rx 8  5D 4F 27 A1 A2 28 D8 C2 
    157       359.952 DT 18FEF200 Rx 8  00 00 FF FF FF FF 37 FF 
    158       360.532 DT 0CEF0100 Rx 8  B0 20 00 00 00 63 58 00 
    159       364.941 DT 0CF00400 Rx 8  FF 7D 7D 00 00 00 FF FF 
    160       365.489 DT 18FF50E0 Rx 8  00 84 F7 BD 79 33 74 F0 
    161       367.301 DT 04EF001C Rx 8  37 52 A6 EC C8 35 59 8F 
    162       369.913 DT 0CEF1100 Rx 8  1E 83 70 D6 6B DF BE 70 
    163       373.721 DT 1DEFFFF8 Rx 8  20 0C E5 98 6C 07 02 02 
    164       374.681 DT 1DEFFFF8 Rx 8  21 41 00 89 00 00 00 FF 
    165       376.065 DT 1DEFFFF8 Rx 8  40 0C E5 98 6C 07 02 02 
    166       377.093 DT 1DEFFFF8 Rx 8  41 43 00 01 00 00 00 FF 
    167       377.633 DT 04EF001C Rx 8  E5 54 42 7A 1A 33 BD 19 
    168       378.189 DT 1DEFFFF8 Rx 8  60 09 E5 98 6C 07 02 02 
    169       379.081 DT 1DEFFFF8 Rx 8  61 28 00 00 FF FF FF FF 
    170       379.957 DT 0CEF0100 Rx 8  B0 20 00 00 00 63 58 00 
    171       380.537 DT 0CF00300 Rx 8  DF 00 4F FF 00 FF FF FF 
    172       381.101 DT 1DEFFFF8 Rx 8  80 09 E5 98 6C 07 02 02 
    173       383.297 DT 18FF1080 Rx 8  00 00 00 FF FF FF FD 00 
    174       383.874 DT 09F8021C Rx 8  60 FC 86 DB 00 00 FF FF 
    175       384.462 DT 18FF1180 Rx 8  03 FF FB FF FF FF 00 FF 
    176       385.006 DT 09F8011C Rx 8  C0 6C 26 18 6C 6A 5B C1 
    177       385.582 DT 0CF00400 Rx 8  FF 7D 7D 00 00 00 FF FF 
    178       386.146 DT 18FFDC00 Rx 8  20 14 01 00 00 54 79 19 
    179       386.710 DT 19FA031C Rx 8  60 D2 4C 00 6B 00 40 00 
    180       387.294 DT 1DEFFFF8 Rx 8  81 34 00 00 FF FF FF FF 
    181       387.846 DT 04EF001C Rx 8  4E 58 8C 2E B1 1F 73 6D 
    182       388.402 DT 1DEFFFF8 Rx 8  A0 09 E5 98 6C 07 02 02 
    183       388.970 DT 0DF0101C Rx 8  60 F0 41 4F A0 71 53 27 
    184       389.570 DT 18FEE81C Rx 8  02 A1 00 00 46 64 63 7E 
    185       390.142 DT 18FFDC00 Rx 8  21 00 00 00 00 A4 FF 7A 
    186       390.710 DT 19FA041C Rx 8  00 AB 60 FF 0E 05 1A 04 
    187       391.286 DT 1DEFFFF8 Rx 8  A1 1B 00 FF FF FF FF FF 
    188       391.862 DT 19FA041C Rx 8  01 1E 2D 6C 07 FF FF FF 
    189       392.658 DT 19FA041C Rx 8  02 FF FF 0A 3E 17 BC B1 
    190       393.554 DT 1DEFFFF8 Rx 8  C0 09 E5 98 6C 07 02 02 
    191       394.138 DT 19FA041C Rx 8  03 04 10 FF FF FF FF FF 
    192       394.718 DT 1DEFFFF8 Rx 8  C1 1D 00 FF FF FF FF FF 
    193       395.282 DT 18FFDC00 Rx 8  22 FF FF D2 24 23 00 FF 
    194       395.838 DT 19FA041C Rx 8  04 0D 5B 0E B6 1C E4 0C 
    195       396.407 DT 09F112F8 Rx 8  FF 04 71 00 00 FF 7F FD 
    196       396.987 DT 19FA041C Rx 8  05 FF FF FF FF FF 0F DD 
    197       397.635 DT 04EF001C Rx 8  47 5B 9D 65 B8 1C 62 26 
    198       398.739 DT 19FA041C Rx 8  06 22 04 29 D8 0E FF FF 
    199       399.747 DT 19FA041C Rx 8  07 FF FF FF 10 D6 06 0A 
    200       400.327 DT 0CEF0100 Rx 8  B0 20 00 00 00 63 58 00 
    201       400.899 DT 18FEF100 Rx 8  FF 00 00 F0 FF C7 1F FF 
    202       401.483 DT 19FA041C Rx 8  08 BE D0 07 FF FF FF FF 
    203       402.747 DT 19FA041C Rx 8  09 FF 12 A3 34 8C 23 30 
    204       403.779 DT 19FA041C Rx 8  0A 11 FF FF FF FF FF 17 
    205       404.783 DT 19FA041C Rx 8  0B 89 30 8C D2 CC 10 FF 
    206       405.359 DT 0CF00400 Rx 8  FF 7D 7D 00 00 00 FF FF 
    207       405.935 DT 19FA041C Rx 8  0C FF FF FF FF 18 F0 0A 
    208       406.851 DT 19FA041C Rx 8  0D 08 52 B8 0B FF FF FF 
    209       407.770 DT 04EF001C Rx 8  0F 5E FF 20 F0 79 00 03 
    210       408.842 DT 19FA041C Rx 8  0E FF FF 1A 00 00 88 A9 
    211       409.842 DT 19FA041C Rx 8  0F A4 06 FF FF FF FF FF 
    212       410.838 DT 19FA041C Rx 8  10 1B 68 10 48 D5 04 10 
    213       411.849 DT 19FA041C Rx 8  11 FF FF FF FF FF 1D B9 
    214       412.861 DT 19FA041C Rx 8  12 0F 36 74 10 0E FF FF 
    215       413.881 DT 19FA041C Rx 8  13 FF FF FF 20 C9 04 16 
    216       414.893 DT 19FA041C Rx 8  14 8A FC 08 FF FF FF FF 
    217       415.889 DT 19FA041C Rx 8  15 FF 2C B6 1C FC 85 F8 
    218       416.909 DT 19FA041C Rx 8  16 11 FF FF FF FF FF 30 
    219       417.856 DT 04EF001C Rx 8  F9 5F 06 91 06 78 F9 B2 
    220       418.920 DT 19FA041C Rx 8  17 A9 1A 30 8E CC 10 FF 
    221       419.936 DT 19FA041C Rx 8  18 FF FF FF FF FF FF FF 
    222       420.516 DT 0CEF0100 Rx 8  B0 20 00 00 00 63 58 00 
    223       421.056 DT 0CEF1100 Rx 8  61 BB AC E1 CA F0 DC B7 
    224       422.652 DT 18FF1CF3 Rx 8  00 00 00 00 00 00 00 00 
    225       424.936 DT 0CF00400 Rx 8  FF 7D 7D 00 00 00 FF FF 
    226       427.980 DT 04EF001C Rx 8  17 42 07 FC E8 05 F8 BF 
    227       429.940 DT 0CF00300 Rx 8  DF 00 4F FF 00 FF FF FF 
    228       430.497 DT 19F10D13 Rx 8  00 AD 00 2E 02 82 00 E5 
    229       432.013 DT 19F21139 Rx 8  00 00 00 FF 90 39 18 00 
    230       434.933 DT 18FFDC00 Rx 8  40 14 01 00 00 54 7A 19 
    231       435.529 DT 09F20000 Rx 8  00 00 00 FF FF FF FF FF 
    232       438.073 DT 04EF001C Rx 8  D8 44 FE 82 27 03 01 C1 
    233       439.933 DT 18FFDC00 Rx 8  41 00 00 00 00 A4 FF 7A 
    234       440.513 DT 0CEF0100 Rx 8  B0 20 00 00 00 63 58 00 
    235       444.913 DT 18FFDC00 Rx 8  42 FF FF D2 24 23 00 FF 
    236       445.489 DT 0CF00400 Rx 8  FF 7D 7D 00 00 00 FF FF 
    237       448.172 DT 04EF001C Rx 8  96 47 AA F1 69 20 55 92 
    238       458.287 DT 04EF001C Rx 8  58 4A 0A 8C A7 CD F5 0F 
    239       459.947 DT 18FEF200 Rx 8  00 00 FF FF FF FF 37 FF 
    240       460.527 DT 0CEF0100 Rx 8  B0 20 00 00 00 63 58 00 
    241       464.936 DT 0CF00400 Rx 8  FF 7D 7D 00 00 00 FF FF 
    242       468.408 DT 04EF001C Rx 8  17 4D 7F F3 E8 8A 80 30 
    243       469.896 DT 0CEF1100 Rx 8  A6 B1 4B 1B A6 16 5E 12 
    244       472.688 DT 18FF50E0 Rx 8  00 84 F7 BD 79 2D 74 F1 
    245       473.860 DT 15FD069B Rx 8  9A E4 75 FF FF FF FF FF 
    246       478.507 DT 04EF001C Rx 8  D4 4F AA E9 2B 88 55 2A 
    247       479.951 DT 0CEF0100 Rx 8  B0 20 00 00 00 63 58 00 
    248       480.531 DT 0CF00300 Rx 8  DF 00 4F FF 00 FF FF FF 
    249       483.280 DT 18FF1080 Rx 8  00 00 00 FF FF FF FD 00 
    250       484.284 DT 18FF1180 Rx 8  03 FF FB FF FF FF 00 FF 
    251       484.928 DT 18FFDC00 Rx 8  60 14 01 00 00 54 7A 19 
    252       485.504 DT 0CF00400 Rx 8  FF 7D 7D 00 00 00 FF FF 
    253       486.089 DT 18FF1380 Rx 8  00 00 00 00 3F C0 C0 06 
    254       488.632 DT 04EF001C Rx 8  95 52 01 FC 6A F5 FE 5F 
    255       489.928 DT 18FFDC00 Rx 8  61 00 00 00 00 A4 FF 7A 
    256       494.920 DT 18FFDC00 Rx 8  62 FF FF D2 24 23 00 FF 
    257       498.729 DT 04EF001C Rx 8  57 55 FD EB A8 F2 02 48 
    258       499.949 DT 0CEF0100 Rx 8  B0 20 00 00 00 63 58 00 
    259       500.521 DT 18FEF100 Rx 8  FF 00 00 F0 FF C7 1F FF 
    260       504.863 DT 0CF00400 Rx 8  FF 7D 7D 00 00 00 FF FF 
    261       508.779 DT 04EF001C Rx 8  14 58 D4 FE EB FF 2B 5D 
    262       518.882 DT 04EF001C Rx 8  D5 5A 03 F4 2A DD FC 77 
    263       519.842 DT 0CEF1100 Rx 8  FC A8 D7 4D 44 72 2F 87 
    264       520.422 DT 0CEF0100 Rx 8  B0 20 00 00 00 63 58 00 
    265       522.582 DT 18FF1CF3 Rx 8  00 00 00 00 00 00 00 00 
    266       524.679 DT 09F112F8 Rx 8  FF 04 71 00 00 FF 7F FD 
    267       525.255 DT 0CF00400 Rx 8  FF 7D 7D 00 00 00 FF FF 
    268       528.991 DT 04EF001C Rx 8  95 5D 79 F3 6A 3A 86 90 
    269       529.871 DT 0CF00300 Rx 8  DF 00 4F FF 00 FF FF FF 
    270       530.427 DT 19F10D13 Rx 8  01 AE 00 2E 02 82 00 E4 
    271       531.939 DT 19F21139 Rx 8  00 00 00 FF F4 39 18 00 
    272       534.858 DT 18FFDC00 Rx 8  80 14 01 00 00 54 79 19 
    273       535.454 DT 09F20000 Rx 8  00 00 00 FF FF FF FF FF 
    274       539.106 DT 04EF001C Rx 8  56 40 54 F6 A9 07 AB B5 
    275       539.858 DT 18FFDC00 Rx 8  81 00 00 00 00 A4 FF 7A 
    276       540.438 DT 0CEF0100 Rx 8  B0 20 00 00 00 63 58 00 
    277       544.843 DT 18FFDC00 Rx 8  82 FF FF D2 24 23 00 FF 
    278       545.419 DT 0CF00400 Rx 8  FF 7D 7D 00 00 00 FF FF 
    279       549.239 DT 04EF001C Rx 8  81 43 9D 4D 7E 04 62 0E 
    280       559.350 DT 04EF001C Rx 8  41 46 73 48 BE 01 8C 0B 
    281       559.930 DT 0CEF0100 Rx 8  B0 20 00 00 00 63 58 00 
    282       560.514 DT 18FEF200 Rx 8  00 00 FF FF FF FF 37 FF 
    283       564.862 DT 0CF00400 Rx 8  FF 7D 7D 00 00 00 FF FF 
    284       569.449 DT 04EF001C Rx 8  24 49 6D 6F DB 0E 92 2C 
    285       569.993 DT 0CEF1100 Rx 8  CB DA CB 2A 4F 4C 52 02 
    286       575.682 DT 18FF50E0 Rx 8  00 84 F7 BD 79 26 74 F2 
    287       579.574 DT 04EF001C Rx 8  BE 4B E3 BD 41 0C 1C FE 
    288       580.154 DT 0CEF0100 Rx 8  B0 20 00 00 00 63 58 00 
    289       580.734 DT 0CF00300 Rx 8  DF 00 4F FF 00 FF FF FF 
    290       584.211 DT 18FF1080 Rx 8  00 00 00 FF FF FF FD 00 
    291       584.855 DT 18FFDC00 Rx 8  A0 14 01 00 00 54 79 19 
    292       585.431 DT 0CF00400 Rx 8  FF 7D 7D 00 00 00 FF FF 
    293       586.019 DT 18FF1180 Rx 8  03 FF FB FF FF FF 00 FF 
    294       586.595 DT 18FF2117 Rx 8  06 FF FF FF 00 FF FF FF 
    295       589.679 DT 04EF001C Rx 8  7E 4E 0D B8 81 69 F2 9B 
    296       590.247 DT 18FFDC00 Rx 8  A1 00 00 00 00 A4 FF 7A 
    297       594.843 DT 18FFDC00 Rx 8  A2 FF FF D2 24 23 00 FF 
    298       599.782 DT 04EF001C Rx 8  66 51 ED 67 99 76 12 44 
    299       600.363 DT 0CEF0100 Rx 8  B0 20 00 00 00 63 58 00 
    300       600.934 DT 18FEF100 Rx 8  FF 00 00 F0 FF C7 1F FF 
    301       602.583 DT 0CEA1C00 Rx 8  00 EE 00 00 00 00 00 00 
    302       603.899 DT 18EEFF1C Rx 8  02 04 45 0E 00 00 00 42 
    303       604.863 DT 0CF00400 Rx 8  FF 7D 7D 00 00 00 FF FF 
    304       609.922 DT 04EF001C Rx 8  FD 53 62 BD 02 54 9D BE 
    305       619.827 DT 0CEF1100 Rx 8  93 DD 27 EB 96 2B BA C8 
    306       620.371 DT 04EF001C Rx 8  55 56 E7 F8 AB B1 19 1B 
    307       620.951 DT 0CEF0100 Rx 8  B0 20 00 00 00 63 58 00 
    308       622.587 DT 18FF1CF3 Rx 8  00 00 00 00 00 00 00 00 
    309       624.859 DT 0CF00400 Rx 8  FF 7D 7D 00 00 00 FF FF 
    310       629.863 DT 0CF00300 Rx 8  DF 00 4F FF 00 FF FF FF 
    311       630.419 DT 04EF001C Rx 8  16 59 DE EF E8 BE 20 0C 
    312       630.975 DT 19F10D13 Rx 8  02 AD 00 2E 02 82 00 E5 
    313       631.939 DT 19F21139 Rx 8  00 00 00 FF 58 3A 18 00 
    314       634.855 DT 18FFDC00 Rx 8  C0 14 01 00 00 54 79 19 
    315       635.451 DT 09F20000 Rx 8  00 00 00 FF FF FF FF FF 
    316       636.043 DT 18FF1C17 Rx 8  00 00 00 00 00 00 00 00 
    317       639.855 DT 18FFDC00 Rx 8  C1 00 00 00 00 A4 FF 7A 
    318       640.403 DT 04EF001C Rx 8  D6 5B 08 ED 28 BC F6 0E 
    319       640.983 DT 0CEF0100 Rx 8  B0 20 00 00 00 63 58 00 
    320       642.583 DT 0CEF0017 Rx 8  81 04 00 00 00 00 FF FF 
    321       644.835 DT 18FFDC00 Rx 8  C2 FF FF D2 24 23 00 FF 
    322       645.412 DT 0CF00400 Rx 8  FF 7D 7D 00 00 00 FF FF 
    323       649.864 DT 18E8FF00 Rx 8  02 FF FF FF FF 00 EF 00 
    324       650.417 DT 04EF001C Rx 8  94 5E 60 F8 6A B9 9E 1B 
    325       659.868 DT 18FEF200 Rx 8  00 00 FF FF FF FF 37 FF 
    326       660.448 DT 0CEF0100 Rx 8  B0 20 00 00 00 63 58 00 
    327       661.004 DT 04EF001C Rx 8  55 41 5F EF AB 86 A1 2C 
    328       662.892 DT 09F112F8 Rx 8  FF 01 71 00 00 FF 7F FD 
    329       664.856 DT 0CF00400 Rx 8  FF 7D 7D 00 00 00 FF FF 
    330       669.832 DT 0CEF1100 Rx 8  43 C8 FD 6E 78 E0 91 BB 
    331       670.584 DT 04EF001C Rx 8  16 44 36 F2 E8 83 C8 31 
    332       679.332 DT 18FF50E0 Rx 8  00 84 F7 BD 79 1F 74 F3 
    333       679.913 DT 0CEF0100 Rx 8  B0 20 00 00 00 63 58 00 
    334       680.493 DT 0CF00300 Rx 8  DF 00 4F FF 00 FF FF FF 
    335       681.045 DT 04EF001C Rx 8  D5 46 E3 E8 2B A1 1D 0B 
    336       684.209 DT 18FF1080 Rx 8  00 00 00 FF FF FF FD 00 
    337       684.854 DT 18FFDC00 Rx 8  E0 14 01 00 00 54 79 19 
    338       685.430 DT 0CF00400 Rx 8  FF 7D 7D 00 00 00 FF FF 
    339       686.019 DT 18FF1180 Rx 8  03 FF FB FF FF FF 00 FF 
    340       687.211 DT 18FF1380 Rx 8  00 00 00 00 3F C0 C0 06 
    341       689.843 DT 18FFDC00 Rx 8  E1 00 00 00 00 A4 FF 7A 
    342       690.787 DT 04EF001C Rx 8  94 49 D8 EF 6A 8E 26 2C 
    343       694.847 DT 18FFDC00 Rx 8  E2 FF FF D2 24 23 00 FF 
    344       699.871 DT 0CEF0100 Rx 8  B0 20 00 00 00 63 58 00 
    345       700.443 DT 18FEF100 Rx 8  FF 00 00 F0 FF C7 1F FF 
    346       700.987 DT 04EF001C Rx 8  55 4C 37 E2 AB 8B C9 21 
    347       704.855 DT 0CF00400 Rx 8  FF 7D 7D 00 00 00 FF FF 
    348       710.990 DT 04EF001C Rx 8  15 4F 6D E1 EB 88 93 22 
    349       719.834 DT 0CEF1100 Rx 8  0B C3 75 2C BE A0 45 8B 
    350       720.414 DT 0CEF0100 Rx 8  B0 20 00 00 00 63 58 00 
    351       721.171 DT 04EF001C Rx 8  FB 51 74 8F 05 F6 8A 2C 
    352       724.855 DT 0CF00400 Rx 8  FF 7D 7D 00 00 00 FF FF 
    353       729.859 DT 0CF00300 Rx 8  DF 00 4F FF 00 FF FF FF 
    354       730.411 DT 19F10D13 Rx 8  03 AF 00 2E 02 82 00 E4 
    355       731.242 DT 04EF001C Rx 8  BD 54 18 BA 43 F3 E6 19 
    356       731.939 DT 19F21139 Rx 8  00 00 00 FF BC 3A 18 00 
    357       734.858 DT 18FFDC00 Rx 8  00 14 01 00 00 54 79 19 
    358       735.454 DT 09F20000 Rx 8  00 00 00 FF FF FF FF FF 
    359       739.854 DT 18FFDC00 Rx 8  01 00 00 00 00 A4 FF 7A 
    360       740.434 DT 0CEF0100 Rx 8  B0 20 00 00 00 63 58 00 
    361       741.394 DT 04EF001C Rx 8  E6 57 59 61 18 F0 A7 C2 
    362       744.838 DT 18FFDC00 Rx 8  02 FF FF D2 24 23 00 FF 
    363       745.414 DT 0CF00400 Rx 8  FF 7D 7D 00 00 00 FF FF 
    364       751.458 DT 04EF001C Rx 8  7E 5A AD AC 80 DD 53 2F 
    365       754.862 DT 18FEEF00 Rx 8  FF FF FF 00 FF FF FF FF 
    366       759.866 DT 18FEF200 Rx 8  00 00 FF FF FF FF 37 FF 
    367       760.446 DT 0CEF0100 Rx 8  B0 20 00 00 00 63 58 00 
    368       761.594 DT 04EF001C Rx 8  EB 5D 04 03 15 DA FA 80 
    369       762.590 DT 18FF1CF3 Rx 8  00 00 00 00 00 00 00 00 
    370       764.854 DT 0CF00400 Rx 8  FF 7D 7D 00 00 00 FF FF 
    371       769.830 DT 0CEF1100 Rx 8  FB FE E6 A2 BC 28 79 90 
    372       771.685 DT 04EF001C Rx 8  37 40 36 FE C9 C7 C8 7D 
    373       779.869 DT 0CEF0100 Rx 8  B0 20 00 00 00 63 58 00 
    374       780.449 DT 0CF00300 Rx 8  DF 00 4F FF 00 FF FF FF 
    375       781.805 DT 04EF001C Rx 8  42 43 58 55 BC C4 A6 D6 
    376       782.349 DT 18FF50E0 Rx 8  00 84 F7 BD 79 19 74 F4 
    377       784.849 DT 18FFDC00 Rx 8  20 14 01 00 00 54 79 19 
    378       785.429 DT 0CEF1700 Rx 8  01 84 00 00 00 00 FF FF 
    379       786.005 DT 0CF00400 Rx 8  FF 7D 7D 00 00 00 FF FF 
    380       786.594 DT 18FF1080 Rx 8  00 00 00 FF FF FF FD 00 
    381       788.210 DT 18FF1180 Rx 8  03 FF FB FF FF FF 00 FF 
    382       789.842 DT 18FFDC00 Rx 8  21 00 00 00 00 A4 FF 7A 
    383       791.906 DT 04EF001C Rx 8  D9 45 F7 8B 27 22 09 E8 
    384       794.839 DT 18FFDC00 Rx 8  22 FF FF D2 24 23 00 FF 
    385       795.411 DT 09F112F8 Rx 8  FF 01 71 00 00 FF 7F FD 
    386       795.987 DT 18FEF600 Rx 8  FF FF 3F 2A FF FF FF FF 
    387       799.871 DT 0CEF0100 Rx 8  B0 20 00 00 00 63 58 00 
    388       800.443 DT 18FEF100 Rx 8  FF 00 00 F0 FF C7 1F FF 
    389       802.003 DT 04EF001C Rx 8  D6 48 90 FE 28 2F 6E 9D 
    390       804.855 DT 0CF00400 Rx 8  FF 7D 7D 00 00 00 FF FF 
    391       812.110 DT 04EF001C Rx 8  94 4A C0 EC 6A CD 3E 6F 
    392       819.822 DT 0CEF1100 Rx 8  B3 F1 4E E1 73 69 A5 E9 
    393       820.402 DT 0CEF0100 Rx 8  B0 20 00 00 00 63 58 00 
    394       822.210 DT 04EF001C Rx 8  C6 4D A8 7B 38 EA 56 D8 
    395       822.794 DT 18FF1CF3 Rx 8  00 00 00 00 00 00 00 00 
    396       824.854 DT 0CF00400 Rx 8  FF 7D 7D 00 00 00 FF FF 
    397       829.859 DT 0CF00300 Rx 8  DF 00 4F FF 00 FF FF FF 
    398       830.415 DT 19F10D13 Rx 8  04 AF 00 2E 02 82 00 E4 
    399       831.947 DT 19F21139 Rx 8  00 00 00 FF 20 3B 18 00 
    400       832.491 DT 04EF001C Rx 8  4A 50 C8 06 B4 F7 36 A5 
    401       834.847 DT 18FFDC00 Rx 8  40 14 01 00 00 54 7A 19 
    402       835.443 DT 09F20000 Rx 8  00 00 00 FF FF FF FF FF 
    403       839.846 DT 18FFDC00 Rx 8  41 00 00 00 00 A4 FF 7A 
    404       840.426 DT 0CEF0100 Rx 8  B0 20 00 00 00 63 58 00 
    405       842.446 DT 04EF001C Rx 8  41 53 DB 5D BF F4 25 FE 
    406       844.830 DT 18FFDC00 Rx 8  42 FF FF D2 24 23 00 FF 
    407       845.406 DT 0CF00400 Rx 8  FF 7D 7D 00 00 00 FF FF 
    408       852.541 DT 04EF001C Rx 8  94 55 38 F3 6A 92 C6 30 
    409       854.837 DT 18FF1C17 Rx 8  00 00 00 00 00 00 00 00 
    410       859.861 DT 18FEF200 Rx 8  00 00 FF FF FF FF 37 FF 
    411       860.441 DT 0CEF0100 Rx 8  B0 20 00 00 00 63 58 00 
    412       862.657 DT 04EF001C Rx 8  89 58 4D 16 77 9F B3 D5 
    413       864.854 DT 0CF00400 Rx 8  FF 7D 7D 00 00 00 FF FF 
    414       869.818 DT 0CEF1100 Rx 8  93 EC EF E6 B8 67 9B B6 
    415       872.777 DT 04EF001C Rx 8  17 5B CF E5 E9 FC 31 46 
    416       873.501 DT 0DF50B9B Rx 8  4E FF FF FF FF 00 00 FF 
    417       879.865 DT 0CEF0100 Rx 8  B0 20 00 00 00 63 58 00 
    418       880.445 DT 0CF00300 Rx 8  DF 00 4F FF 00 FF FF FF 
    419       882.893 DT 04EF001C Rx 8  09 5E F9 10 F7 B9 07 F3 
    420       883.661 DT 1DEFFFF8 Rx 8  E0 0C E5 98 6C 07 02 02 
    421       884.345 DT 1DEFFFF8 Rx 8  E1 41 00 89 00 00 00 FF 
    422       884.921 DT 0CF00400 Rx 8  FF 7D 7D 00 00 00 FF FF 
    423       885.509 DT 18FF1080 Rx 8  00 00 00 FF FF FF FD 00 
    424       886.069 DT 18FFDC00 Rx 8  60 14 01 00 00 54 79 19 
    425       886.658 DT 18FF1180 Rx 8  03 FF FB FF FF FF 00 FF 
    426       887.202 DT 18FF50E0 Rx 8  00 84 F7 BD 79 12 74 F5 
    427       887.770 DT 1DEFFFF8 Rx 8  00 0C E5 98 6C 07 02 02 
    428       888.355 DT 18FF1380 Rx 8  00 00 00 00 3F C0 C0 06 
    429       889.035 DT 1DEFFFF8 Rx 8  01 43 00 01 00 00 00 FF 
    430       889.847 DT 18FFDC00 Rx 8  61 00 00 00 00 A4 FF 7A 
    431       890.411 DT 09F8021C Rx 8  61 FC 86 DB 04 00 FF FF 
    432       890.979 DT 1DEFFFF8 Rx 8  20 09 E5 98 6C 07 02 02 
    433       891.523 DT 09F8011C Rx 8  C2 6C 26 18 68 6A 5B C1 
    434       893.003 DT 04EF001C Rx 8  89 40 8D 0E 76 47 72 0D 
    435       893.815 DT 1DEFFFF8 Rx 8  21 28 00 00 FF FF FF FF 
    436       894.375 DT 19FA031C Rx 8  61 D2 4C 00 6B 00 40 00 
    437       894.939 DT 18FFDC00 Rx 8  62 FF FF D2 24 23 00 FF 
    438       895.495 DT 0DF0101C Rx 8  61 F0 41 4F B0 98 53 27 
    439       896.055 DT 1DEFFFF8 Rx 8  40 09 E5 98 6C 07 02 02 
    440       897.039 DT 1DEFFFF8 Rx 8  41 34 00 00 FF FF FF FF 
    441       897.595 DT 18FEE81C Rx 8  02 A1 00 00 49 64 63 7E 
    442       898.151 DT 1DEFFFF8 Rx 8  60 09 E5 98 6C 07 02 02 
    443       898.883 DT 1DEFFFF8 Rx 8  61 1B 00 FF FF FF FF FF 
    444       899.444 DT 19FA041C Rx 8  20 AB 61 FF 0E 05 1A 04 
    445       900.024 DT 0CEF0100 Rx 8  B0 20 00 00 00 63 58 00 
    446       900.596 DT 18FEF100 Rx 8  FF 00 00 F0 FF C7 1F FF 
    447       901.164 DT 19FA041C Rx 8  21 1E 2D 6C 07 FF FF FF 
    448       901.728 DT 1DEFFFF8 Rx 8  80 09 E5 98 6C 07 02 02 
    449       902.292 DT 19FA041C Rx 8  22 FF FF 0A 3E 17 BC B1 
    450       903.112 DT 04EF001C Rx 8  43 44 61 5A BD A3 9F B9 
    451       903.692 DT 1DEFFFF8 Rx 8  81 1D 00 FF FF FF FF FF 
    452       904.284 DT 19FA041C Rx 8  23 04 10 FF FF FF FF FF 
    453       904.868 DT 0CF00400 Rx 8  FF 7D 7D 00 00 00 FF FF 
    454       905.420 DT 19FA041C Rx 8  24 0D 5B 0E B6 1C E4 0C 
    455       906.244 DT 19FA041C Rx 8  25 FF FF FF FF FF 0F DD 
    456       907.224 DT 19FA041C Rx 8  26 22 04 29 D8 0E FF FF 
    457       908.247 DT 19FA041C Rx 8  27 FF FF FF 10 D6 06 0A 
    458       909.259 DT 19FA041C Rx 8  28 BE 6C 07 FF FF FF FF 
    459       910.243 DT 19FA041C Rx 8  29 FF 12 A3 34 8C 23 30 
    460       911.275 DT 19FA041C Rx 8  2A 11 FF FF FF FF FF 17 
    461       912.267 DT 19FA041C Rx 8  2B 89 30 8C D2 CC 10 FF 
    462       913.242 DT 04EF001C Rx 8  CF 46 F9 38 31 A1 07 DB 
    463       914.314 DT 19FA041C Rx 8  2C FF FF FF FF 18 F0 0A 
    464       915.314 DT 19FA041C Rx 8  2D 08 52 B8 0B FF FF FF 
    465       916.330 DT 19FA041C Rx 8  2E FF FF 1A 00 00 88 A9 
    466       917.350 DT 19FA041C Rx 8  2F A4 06 FF FF FF FF FF 
    467       918.353 DT 19FA041C Rx 8  30 1B 68 10 48 D5 04 10 
    468       919.361 DT 19FA041C Rx 8  31 FF FF FF FF FF 1D B9 
    469       919.941 DT 0CEF0100 Rx 8  B0 20 00 00 00 63 58 00 
    470       920.493 DT 0CEF1100 Rx 8  5B E7 43 A4 5F 07 6E 8F 
    471       921.065 DT 19FA041C Rx 8  32 0F 36 74 10 0E FF FF 
    472       922.401 DT 19FA041C Rx 8  33 FF FF FF 20 C9 04 16 
    473       922.985 DT 18FF1CF3 Rx 8  00 00 00 00 00 00 00 00 
    474       923.525 DT 04EF001C Rx 8  85 49 C9 67 7B AE 37 84 
    475       924.429 DT 19FA041C Rx 8  34 8A FC 08 FF FF FF FF 
    476       925.005 DT 0CF00400 Rx 8  FF 7D 7D 00 00 00 FF FF 
    477       925.565 DT 19FA041C Rx 8  35 FF 2C B6 1C FC 85 F8 
    478       926.461 DT 19FA041C Rx 8  36 11 FF FF FF FF FF 30 
    479       927.437 DT 19FA041C Rx 8  37 A9 1A 30 8E CC 10 FF 
    480       928.461 DT 19FA041C Rx 8  38 FF FF FF FF FF FF FF 
    481       929.853 DT 0CF00300 Rx 8  DF 00 4F FF 00 FF FF FF 
    482       930.413 DT 19F10D13 Rx 8  05 AE 00 2E 02 82 00 E4 
    483       931.945 DT 19F21139 Rx 8  00 00 00 FF 84 3B 18 00 
    484       933.449 DT 04EF001C Rx 8  95 4B C9 E5 6B 8C 37 26 
    485       934.029 DT 09F112F8 Rx 8  FF FE 70 00 00 FF 7F FD 
    486       934.853 DT 18FFDC00 Rx 8  80 14 01 00 00 54 79 19 
    487       935.450 DT 09F20000 Rx 8  00 00 00 FF FF FF FF FF 
    488       939.846 DT 18FFDC00 Rx 8  81 00 00 00 00 A4 FF 7A 
    489       940.426 DT 0CEF0100 Rx 8  B0 20 00 00 00 63 58 00 
    490       943.586 DT 04EF001C Rx 8  BF 4E CA B0 41 E9 34 13 
    491       944.830 DT 18FFDC00 Rx 8  82 FF FF D2 24 23 00 FF 
    492       945.406 DT 0CF00400 Rx 8  FF 7D 7D 00 00 00 FF FF 
    493       949.861 DT 18FECA00 Rx 8  40 FF 00 00 00 00 FF FF 
    494       953.673 DT 04EF001C Rx 8  A2 51 2F 47 5C 96 D1 84 
    495       959.861 DT 18FEF200 Rx 8  00 00 FF FF FF FF 37 FF 
    496       960.441 DT 0CEF0100 Rx 8  B0 20 00 00 00 63 58 00 
    497       963.789 DT 04EF001C Rx 8  56 54 F4 E2 A8 B3 0A 01 
    498       964.853 DT 0CF00400 Rx 8  FF 7D 7D 00 00 00 FF FF 
    499       969.813 DT 0CEF1100 Rx 8  6A 93 EE 72 52 2E 2A BB 
    500       971.869 DT 15FD069B Rx 8  9B E4 75 FF FF FF FF FF 
    501       973.913 DT 04EF001C Rx 8  00 57 B8 51 FF 50 47 52 
    502       979.865 DT 0CEF0100 Rx 8  B0 20 00 00 00 63 58 00 
    503       980.445 DT 0CF00300 Rx 8  DF 00 4F FF 00 FF FF FF 
    504       984.009 DT 04EF001C Rx 8  E5 59 2A 77 1A 7E D5 54 
    505       984.841 DT 18FFDC00 Rx 8  A0 14 01 00 00 54 7A 19 
    506       985.417 DT 0CF00400 Rx 8  FF 7D 7D 00 00 00 FF FF 
    507       986.006 DT 18FF1080 Rx 8  00 00 00 FF FF FF FD 00 
    508       987.206 DT 18FF1180 Rx 8  03 FF FB FF FF FF 00 00 
    509       989.834 DT 18FFDC00 Rx 8  A1 00 00 00 00 A4 FF 7A 
    510       992.930 DT 18FF50E0 Rx 8  00 84 F7 BD 79 0B 74 F6 
    511       994.118 DT 04EF001C Rx 8  96 5C 72 EA 69 7B 8D C9 
    512       994.838 DT 18FFDC00 Rx 8  A2 FF FF D2 24 23 00 FF 
    513       999.862 DT 0CEF0100 Rx 8  B0 20 00 00 00 63 58 00 
    514      1000.434 DT 18FEF100 Rx 8  FF 00 00 F0 FF C7 1F FF 
    515      1004.246 DT 04EF001C Rx 8  3F 5F C6 A1 C0 38 39 C2 
    516      1004.850 DT 0CF00400 Rx 8  FF 7D 7D 00 00 00 FF FF 
    517      1014.334 DT 04EF001C Rx 8  96 41 9A F7 69 66 65 D4 
    518      1019.830 DT 0CEF1100 Rx 8  A0 96 B2 A3 AA 49 67 F9 
    519      1020.410 DT 0CEF0100 Rx 8  B0 20 00 00 00 63 58 00 
    520      1022.598 DT 18FF1CF3 Rx 8  00 00 00 00 00 00 00 00 
    521      1024.446 DT 04EF001C Rx 8  55 44 77 EA AA 63 88 C9 
    522      1025.022 DT 0CF00400 Rx 8  FF 7D 7D 00 00 00 FF FF 
    523      1029.850 DT 0CF00300 Rx 8  DF 00 4F FF 00 FF FF FF 
    524      1030.406 DT 19F10D13 Rx 8  06 AF 00 2E 02 82 00 E4 
    525      1031.950 DT 19F21139 Rx 8  00 00 00 FF E8 3B 18 00 
    526      1034.561 DT 04EF001C Rx 8  17 47 2F F9 E8 60 D0 DA 
    527      1035.157 DT 09F20000 Rx 8  00 00 00 FF FF FF FF FF 
    528      1035.721 DT 18FFDC00 Rx 8  C0 14 01 00 00 54 79 19 
    529      1039.841 DT 18FFDC00 Rx 8  C1 00 00 00 00 A4 FF 7A 
    530      1040.421 DT 0CEF0100 Rx 8  B0 20 00 00 00 63 58 00 
    531      1044.658 DT 04EF001C Rx 8  D8 49 96 8F 27 0E 69 CC 
    532      1045.234 DT 0CF00400 Rx 8  FF 7D 7D 00 00 00 FF FF 
    533      1045.794 DT 18FFDC00 Rx 8  C2 FF FF D2 24 23 00 FF 
    534      1054.773 DT 04EF001C Rx 8  94 4C F0 EA 6B 0B 0F A9 
    535      1059.857 DT 18FEF200 Rx 8  00 00 FF FF FF FF 37 FF 
    536      1060.437 DT 0CEF0100 Rx 8  B0 20 00 00 00 63 58 00 
    537      1064.845 DT 0CF00400 Rx 8  FF 7D 7D 00 00 00 FF FF 
    538      1065.393 DT 04EF001C Rx 8  57 4F 2D F1 A8 08 D2 B2 
    539      1069.825 DT 0CEF1100 Rx 8  FE 8D BF D5 C7 BF 03 10 
    540      1074.421 DT 09F112F8 Rx 8  FF F9 70 00 00 FF 7F FD 
    541      1074.997 DT 04EF001C Rx 8  14 52 84 F4 EB 35 7B 97 
    542      1079.861 DT 0CEF0100 Rx 8  B0 20 00 00 00 63 58 00 
    543      1080.441 DT 0CF00300 Rx 8  DF 00 4F FF 00 FF FF FF 
    544      1084.841 DT 18FFDC00 Rx 8  E0 14 01 00 00 54 79 19 
    545      1085.389 DT 04EF001C Rx 8  D4 54 72 F2 2B 13 8D B1 
    546      1085.965 DT 0CF00400 Rx 8  FF 7D 7D 00 00 00 FF FF 
    547      1086.554 DT 18FF1080 Rx 8  00 00 00 FF FF FF FD 00 
    548      1087.202 DT 18FF1180 Rx 8  03 FF FB FF FF FF 00 FF 
    549      1088.202 DT 18FF1380 Rx 8  00 00 00 00 3F C0 C0 06 
    550      1089.830 DT 18FFDC00 Rx 8  E1 00 00 00 00 A4 FF 7A 
    551      1094.834 DT 18FFDC00 Rx 8  E2 FF FF D2 24 23 00 FF 
    552      1095.378 DT 04EF001C Rx 8  94 57 28 F1 6B 10 D7 B2 
    553      1095.926 DT 18FF50E0 Rx 8  00 84 F7 BD 79 05 74 F7 
    554      1099.858 DT 0CEF0100 Rx 8  B0 20 00 00 00 63 58 00 
    555      1100.430 DT 18FEF100 Rx 8  FF 00 00 F0 FF C7 1F FF 
    556      1104.846 DT 0CF00400 Rx 8  FF 7D 7D 00 00 00 FF FF 
    557      1105.398 DT 04EF001C Rx 8  54 5A 86 FC AB 1D 79 BF 
    558      1115.453 DT 04EF001C Rx 8  16 5D FE EB E9 1A 01 A8 
    559      1119.821 DT 0CEF1100 Rx 8  34 84 83 07 24 DB 56 89 
    560      1120.401 DT 0CEF0100 Rx 8  B0 20 00 00 00 63 58 00 
    561      1122.601 DT 0CEF0017 Rx 8  81 04 00 00 00 00 FF FF 
    562      1124.845 DT 0CF00400 Rx 8  FF 7D 7D 00 00 00 FF FF 
    563      1125.585 DT 04EF001C Rx 8  D7 5F 29 E1 28 18 D6 A2 
    564      1129.849 DT 0CF00300 Rx 8  DF 00 4F FF 00 FF FF FF 
    565      1130.421 DT 18E8FF00 Rx 8  02 FF FF FF FF 00 EF 00 
    566      1130.973 DT 19F10D13 Rx 8  07 AD 00 2E 02 82 00 E5 
    567      1131.953 DT 19F21139 Rx 8  00 00 00 FF 4C 3C 18 00 
    568      1134.845 DT 18FFDC00 Rx 8  00 14 01 00 00 54 79 19 
    569      1135.441 DT 09F20000 Rx 8  00 00 00 FF FF FF FF FF 
    570      1135.989 DT 04EF001C Rx 8  96 42 82 F4 69 25 7D 97 
    571      1139.841 DT 18FFDC00 Rx 8  01 00 00 00 00 A4 FF 7A 
    572      1140.421 DT 0CEF0100 Rx 8  B0 20 00 00 00 63 58 00 
    573      1142.601 DT 18FF1CF3 Rx 8  00 00 00 00 00 00 00 00 
    574      1144.829 DT 18FFDC00 Rx 8  02 FF FF D2 24 23 00 FF 
    575      1145.405 DT 0CF00400 Rx 8  FF 7D 7D 00 00 00 FF FF 
    576      1145.953 DT 04EF001C Rx 8  E2 45 CD 53 1D 02 32 10 
    577      1155.913 DT 04EF001C Rx 8  7E 48 3D BE 81 0F C2 FD 
    578      1159.853 DT 18FEF200 Rx 8  00 00 FF FF FF FF 37 FF 
    579      1160.433 DT 0CEF0100 Rx 8  B0 20 00 00 00 63 58 00 
    580      1164.845 DT 0CF00400 Rx 8  FF 7D 7D 00 00 00 FF FF 
    581      1166.033 DT 04EF001C Rx 8  CF 4B 91 35 30 0C 6E 76 
    582      1166.625 DT 18FF1C17 Rx 8  00 00 00 00 00 00 00 00 
    583      1169.809 DT 0CEF1100 Rx 8  5E B3 E2 DB A3 59 98 38 
    584      1176.128 DT 04EF001C Rx 8  26 4E 57 78 D9 09 A8 3B 
    585      1179.856 DT 0CEF0100 Rx 8  B0 20 00 00 00 63 58 00 
    586      1180.436 DT 0CF00300 Rx 8  DF 00 4F FF 00 FF FF FF 
    587      1184.836 DT 18FFDC00 Rx 8  20 14 01 00 00 54 79 19 
    588      1185.412 DT 0CF00400 Rx 8  FF 7D 7D 00 00 00 FF FF 
    589      1186.201 DT 18FF1080 Rx 8  00 00 00 FF FF FF FD 00 
    590      1186.745 DT 04EF001C Rx 8  E6 50 61 66 19 17 9E 25 
    591      1187.334 DT 18FF1180 Rx 8  03 FF FB FF FF FF 00 FF 
    592      1189.830 DT 18FFDC00 Rx 8  21 00 00 00 00 A4 FF 7A 
    593      1194.826 DT 18FFDC00 Rx 8  22 FF FF D2 24 23 00 FF 
    594      1196.369 DT 04EF001C Rx 8  CA 53 54 05 35 14 AB 46 
    595      1197.053 DT 18FF50E0 Rx 8  00 84 F7 BD 79 FE 73 F8 
    596      1199.857 DT 0CEF0100 Rx 8  B0 20 00 00 00 63 58 00 
    597      1200.429 DT 18FEF100 Rx 8  FF 00 00 F0 FF C7 1F FF 
    598      1204.841 DT 0CF00400 Rx 8  FF 7D 7D 00 00 00 FF FF 
    599      1206.457 DT 04EF001C Rx 8  C5 56 73 78 3A 71 8C 5B 
    600      1213.541 DT 09F112F8 Rx 8  FF F7 70 00 00 FF 7F FD 
    601      1216.553 DT 04EF001C Rx 8  96 58 52 EE 69 7F AD CD 
    602      1219.813 DT 0CEF1100 Rx 8  80 AA 5B AD 61 14 81 AC 
    603      1220.393 DT 0CEF0100 Rx 8  B0 20 00 00 00 63 58 00 
    604      1222.606 DT 18FF1CF3 Rx 8  00 00 00 00 00 00 00 00 
    605      1224.842 DT 0CF00400 Rx 8  FF 7D 7D 00 00 00 FF FF 
    606      1226.674 DT 04EF001C Rx 8  8B 5B 57 05 74 7C A8 26 
    607      1229.846 DT 0CF00300 Rx 8  DF 00 4F FF 00 FF FF FF 
    608      1230.398 DT 19F10D13 Rx 8  08 AD 00 2E 02 82 00 E5 
    609      1231.954 DT 19F21139 Rx 8  00 00 00 FF B0 3C 18 00 
    610      1234.834 DT 18FFDC00 Rx 8  40 14 01 00 00 54 7A 19 
    611      1235.430 DT 09F20000 Rx 8  00 00 00 FF FF FF FF FF 
    612      1236.782 DT 04EF001C Rx 8  4C 5E BE 38 B3 79 41 1B 
    613      1239.834 DT 18FFDC00 Rx 8  41 00 00 00 00 A4 FF 7A 
    614      1240.406 DT 09F20100 Rx 8  C0 16 00 06 00 FF FF E9 
    615      1240.986 DT 0CEF0100 Rx 8  B0 20 00 00 00 63 58 00 
    616      1244.818 DT 18FFDC00 Rx 8  42 FF FF D2 24 23 00 FF 
    617      1245.390 DT 09F20100 Rx 8  C1 73 BE 04 00 00 D2 24 
    618      1245.966 DT 0CF00400 Rx 8  FF 7D 7D 00 00 00 FF FF 
    619      1246.550 DT 18FEE500 Rx 8  FB 31 00 00 FF FF FF FF 
    620      1247.110 DT 04EF001C Rx 8  0A 41 02 17 F5 66 FD 34 
    621      1249.834 DT 09F20100 Rx 8  C2 23 00 FF FF FF FF 00 
    622      1250.417 DT 18FEEE00 Rx 8  3F FF FF FF FF FF 42 FF 
    623      1254.841 DT 09F20100 Rx 8  C3 01 00 FF FF FF FF FF 
    624      1255.422 DT 18FEEF00 Rx 8  FF FF FF 00 FF FF FF FF 
    625      1257.021 DT 04EF001C Rx 8  BC 43 A1 A5 43 04 5E E6 
    626      1259.854 DT 18FEF200 Rx 8  00 00 FF FF FF FF 37 FF 
    627      1260.434 DT 0CEF0100 Rx 8  B0 20 00 00 00 63 58 00 
    628      1264.842 DT 0CF00400 Rx 8  FF 7D 7D 00 00 00 FF FF 
    629      1265.410 DT 18FEF700 Rx 8  FF FF 1A 01 F2 00 F4 00 
    630      1267.126 DT 04EF001C Rx 8  E8 46 DF 00 17 01 20 43 
    631      1269.806 DT 0CEF1100 Rx 8  C0 A7 61 AE 9C DD 9E 41 
    632      1277.229 DT 04EF001C Rx 8  14 49 5C EF EB 0E A3 AC 
    633      1279.853 DT 0CEF0100 Rx 8  B0 20 00 00 00 63 58 00 
    634      1280.433 DT 0CF00300 Rx 8  DF 00 4F FF 00 FF FF FF 
    635      1284.829 DT 18FFDC00 Rx 8  60 14 01 00 00 54 79 19 
    636      1285.409 DT 0CEF1700 Rx 8  01 84 00 00 00 00 FF FF 
    637      1285.985 DT 0CF00400 Rx 8  FF 7D 7D 00 00 00 FF FF 
    638      1287.194 DT 18FF1080 Rx 8  00 00 00 FF FF FF FD 00 
    639      1287.754 DT 04EF001C Rx 8  69 4C 0A 02 96 4B F5 01 
    640      1288.343 DT 18FF1180 Rx 8  03 FF FB FF FF FF 00 FF 
    641      1289.195 DT 18FF1380 Rx 8  00 00 00 00 3F C0 C0 06 
    642      1289.835 DT 18FFDC00 Rx 8  61 00 00 00 00 A4 FF 7A 
    643      1290.419 DT 18FEFC00 Rx 8  FF 7A FF FF FF FF FF FF 
    644      1294.823 DT 18FFDC00 Rx 8  62 FF FF D2 24 23 00 FF 
    645      1295.399 DT 18FEF600 Rx 8  FF FF 3F 2A FF FF FF FF 
    646      1297.455 DT 04EF001C Rx 8  C8 4E BE 08 37 69 41 2B 
    647      1299.435 DT 18FF50E0 Rx 8  00 84 F7 BD 79 F8 73 F9 
    648      1300.015 DT 0CEF0100 Rx 8  B0 20 00 00 00 63 58 00 
    649      1300.587 DT 18FEF100 Rx 8  FF 00 00 F0 FF C7 1F FF 
    650      1304.839 DT 0CF00400 Rx 8  FF 7D 7D 00 00 00 FF FF 
    651      1307.555 DT 04EF001C Rx 8  54 51 DE F7 AB 56 21 F4 
    652      1317.670 DT 04EF001C Rx 8  15 54 B5 FA EB B3 4B 19 
    653      1319.818 DT 0CEF1100 Rx 8  FD D8 57 1A F2 37 02 69 
    654      1320.398 DT 0CEF0100 Rx 8  B0 20 00 00 00 63 58 00 
    655      1322.610 DT 18FF1CF3 Rx 8  00 00 00 00 00 00 00 00 
    656      1324.838 DT 0CF00400 Rx 8  FF 7D 7D 00 00 00 FF FF 
    657      1327.781 DT 04EF001C Rx 8  D8 56 6E 90 26 91 90 53 
    658      1329.842 DT 0CF00300 Rx 8  DF 00 4F FF 00 FF FF FF 
    659      1330.394 DT 19F10D13 Rx 8  09 AE 00 2E 02 82 00 E4 
    660      1331.954 DT 19F21139 Rx 8  00 00 00 FF 14 3D 18 00 
    661      1334.838 DT 18FFDC00 Rx 8  80 14 01 00 00 54 79 19 
    662      1335.434 DT 09F20000 Rx 8  00 00 00 FF FF FF FF FF 
    663      1337.894 DT 04EF001C Rx 8  94 59 58 FF 6A 9E A6 3C 
    664      1339.834 DT 18FFDC00 Rx 8  81 00 00 00 00 A4 FF 7A 
    665      1340.414 DT 0CEF0100 Rx 8  B0 20 00 00 00 63 58 00 
    666      1344.818 DT 18FFDC00 Rx 8  82 FF FF D2 24 23 00 FF 
    667      1345.394 DT 0CF00400 Rx 8  FF 7D 7D 00 00 00 FF FF 
    668      1348.022 DT 04EF001C Rx 8  E6 5C 01 6A 18 9B FF A9 
    669      1351.050 DT 09F112F8 Rx 8  FF F9 70 00 00 FF 7F FD 
    670      1353.518 DT 1DEFFFF8 Rx 8  A0 0A E5 98 EE 04 04 04 
    671      1354.218 DT 1DEFFFF8 Rx 8  A1 03 00 00 00 FF FF FF 
    672      1358.118 DT 04EF001C Rx 8  7D 5F 86 B1 83 98 78 72 
    673      1359.850 DT 18FEF200 Rx 8  00 00 FF FF FF FF 37 FF 
    674      1360.430 DT 0CEF0100 Rx 8  B0 20 00 00 00 63 58 00 
    675      1364.839 DT 0CF00400 Rx 8  FF 7D 7D 00 00 00 FF FF 
    676      1368.238 DT 04EF001C Rx 8  66 42 75 74 98 A5 8B 97 
    677      1369.823 DT 0CEF1100 Rx 8  B5 D7 FF 59 37 6D 06 40 
    678      1374.826 DT 18FF1C17 Rx 8  00 00 00 00 00 00 00 00 
    679      1378.354 DT 04EF001C Rx 8  22 45 0B 53 DC 82 F5 90 
    680      1379.850 DT 0CEF0100 Rx 8  B0 20 00 00 00 63 58 00 
    681      1380.430 DT 0CF00300 Rx 8  DF 00 4F FF 00 FF FF FF 
    682      1384.826 DT 18FFDC00 Rx 8  A0 14 01 00 00 54 7A 19 
    683      1385.402 DT 0CF00400 Rx 8  FF 7D 7D 00 00 00 FF FF 
    684      1387.202 DT 18FF1080 Rx 8  00 00 00 FF FF FF FD 00 
    685      1388.191 DT 18FF1180 Rx 8  03 FF FB FF FF FF 00 FF 
    686      1388.751 DT 04EF001C Rx 8  BE 47 83 B1 40 80 7D 72 
    687      1389.827 DT 18FFDC00 Rx 8  A1 00 00 00 00 A4 FF 7A 
    688      1393.683 DT 1DEFFFF8 Rx 8  C0 0C E5 98 6C 07 02 02 
    689      1394.371 DT 1DEFFFF8 Rx 8  C1 41 00 89 00 00 00 FF 
    690      1394.935 DT 18FFDC00 Rx 8  A2 FF FF D2 24 23 00 FF 
    691      1395.491 DT 1DEFFFF8 Rx 8  E0 0C E5 98 6C 07 02 02 
    692      1397.047 DT 1DEFFFF8 Rx 8  E1 43 00 01 00 00 00 FF 
    693      1397.891 DT 1DEFFFF8 Rx 8  00 09 E5 98 6C 07 02 02 
    694      1398.571 DT 04EF001C Rx 8  A4 4A F1 6C 5A 8D 0F AF 
    695      1399.335 DT 1DEFFFF8 Rx 8  01 28 00 00 FF FF FF FF 
    696      1399.899 DT 09F8021C Rx 8  62 FC 86 DB 00 00 FF FF 
    697      1400.480 DT 0CEF0100 Rx 8  B0 20 00 00 00 63 58 00 
    698      1401.020 DT 09F8011C Rx 8  C4 6C 26 18 62 6A 5B C1 
    699      1401.592 DT 18FEF100 Rx 8  FF 00 00 F0 FF C7 1F FF 
    700      1402.152 DT 19FA031C Rx 8  62 D2 4C 00 6B 00 40 00 
    701      1402.720 DT 1DEFFFF8 Rx 8  20 09 E5 98 6C 07 02 02 
    702      1403.281 DT 18FF50E0 Rx 8  00 84 F7 BD 79 F1 73 FA 
    703      1403.833 DT 0DF0101C Rx 8  62 F0 41 4F B0 98 53 27 
    704      1404.417 DT 1DEFFFF8 Rx 8  21 34 00 00 FF FF FF FF 
    705      1404.993 DT 0CF00400 Rx 8  FF 7D 7D 00 00 00 FF FF 
    706      1405.549 DT 18FEE81C Rx 8  02 A1 00 00 4C 64 64 7E 
    707      1406.109 DT 1DEFFFF8 Rx 8  40 09 E5 98 6C 07 02 02 
    708      1406.753 DT 19FA041C Rx 8  40 AB 62 FF 0E 05 1A 04 
    709      1407.337 DT 1DEFFFF8 Rx 8  41 1B 00 FF FF FF FF FF 
    710      1407.909 DT 19FA041C Rx 8  41 1E 2D D0 07 FF FF FF 
    711      1408.465 DT 1DEFFFF8 Rx 8  60 09 E5 98 6C 07 02 02 
    712      1409.017 DT 04EF001C Rx 8  16 4E 66 F8 E8 89 98 3B 
    713      1409.593 DT 1DEFFFF8 Rx 8  61 1D 00 FF FF FF FF FF 
    714      1410.157 DT 19FA041C Rx 8  42 FF FF 0A 3E 17 BC B1 
    715      1411.805 DT 19FA041C Rx 8  43 04 10 FF FF FF FF FF 
    716      1412.785 DT 19FA041C Rx 8  44 0D 5B 0E B6 1C E4 0C 
    717      1413.809 DT 19FA041C Rx 8  45 FF FF FF FF FF 0F DD 
    718      1414.812 DT 19FA041C Rx 8  46 22 04 29 D8 0E FF FF 
    719      1415.824 DT 19FA041C Rx 8  47 FF FF FF 10 D6 06 0A 
    720      1416.840 DT 19FA041C Rx 8  48 BE 6C 07 FF FF FF FF 
    721      1417.824 DT 19FA041C Rx 8  49 FF 12 A3 34 8C 23 30 
    722      1418.788 DT 04EF001C Rx 8  50 50 D2 D6 AE B7 2C 35 
    723      1419.816 DT 0CEF1100 Rx 8  50 CF 01 37 79 D8 95 73 
    724      1420.396 DT 0CEF0100 Rx 8  B0 20 00 00 00 63 58 00 
    725      1420.968 DT 19FA041C Rx 8  4A 11 FF FF FF FF FF 17 
    726      1421.896 DT 19FA041C Rx 8  4B 89 30 8C D2 CC 10 FF 
    727      1422.899 DT 19FA041C Rx 8  4C FF FF FF FF 18 F0 0A 
    728      1423.907 DT 19FA041C Rx 8  4D 08 52 B8 0B FF FF FF 
    729      1424.839 DT 0CF00400 Rx 8  FF 7D 7D 00 00 00 FF FF 
    730      1425.403 DT 19FA041C Rx 8  4E FF FF 1A 00 00 88 A9 
    731      1426.959 DT 19FA041C Rx 8  4F A4 06 FF FF FF FF FF 
    732      1427.955 DT 19FA041C Rx 8  50 1B 68 10 48 D5 04 10 
    733      1428.899 DT 04EF001C Rx 8  14 53 8C F5 EA 94 72 36 
    734      1429.843 DT 0CF00300 Rx 8  DF 00 4F FF 00 FF FF FF 
    735      1430.395 DT 19F10D13 Rx 8  0A AE 00 2E 02 82 00 E4 
    736      1430.971 DT 19FA041C Rx 8  51 FF FF FF FF FF 1D B9 
    737      1431.959 DT 19F21139 Rx 8  00 00 00 FF 78 3D 18 00 
    738      1432.523 DT 19FA041C Rx 8  52 0F 36 74 AC 0D FF FF 
    739      1434.027 DT 19FA041C Rx 8  53 FF FF FF 20 C9 04 16 
    740      1434.835 DT 18FFDC00 Rx 8  C0 14 01 00 00 54 79 19 
    741      1435.431 DT 09F20000 Rx 8  00 00 00 FF FF FF FF FF 
    742      1436.003 DT 19FA041C Rx 8  54 8A FC 08 FF FF FF FF 
    743      1437.052 DT 19FA041C Rx 8  55 FF 2C B6 1C FC 85 F8 
    744      1438.068 DT 19FA041C Rx 8  56 11 FF FF FF FF FF 30 
    745      1439.011 DT 04EF001C Rx 8  B9 55 14 9B 47 92 EA 58 
    746      1439.836 DT 18FFDC00 Rx 8  C1 00 00 00 00 A4 FF 7A 
    747      1440.416 DT 0CEF0100 Rx 8  B0 20 00 00 00 63 58 00 
    748      1440.972 DT 19FA041C Rx 8  57 A9 1A 30 8E CC 10 FF 
    749      1442.116 DT 19FA041C Rx 8  58 FF FF FF FF FF FF FF 
    750      1444.812 DT 18FFDC00 Rx 8  C2 FF FF D2 24 23 00 FF 
    751      1445.388 DT 0CF00400 Rx 8  FF 7D 7D 00 00 00 FF FF 
    752      1449.123 DT 04EF001C Rx 8  D7 57 69 E9 29 B0 97 0A 
    753      1459.231 DT 04EF001C Rx 8  98 5A 4C 9C 67 7D B3 BF 
    754      1459.851 DT 18FEF200 Rx 8  00 00 FF FF FF FF 37 FF 
    755      1460.431 DT 0CEF0100 Rx 8  B0 20 00 00 00 63 58 00 
    756      1462.615 DT 18FF1CF3 Rx 8  00 00 00 00 00 00 00 00 
    757      1464.834 DT 0CF00400 Rx 8  FF 7D 7D 00 00 00 FF FF 
    758      1469.338 DT 04EF001C Rx 8  57 5D BD E3 A8 1A 42 A0 
    759      1469.886 DT 0CEF1100 Rx 8  19 C5 C1 3D 03 9B 1C E3 
    760      1470.450 DT 15FD069B Rx 8  9C E5 75 FF FF FF FF FF 
    761      1479.455 DT 04EF001C Rx 8  14 40 14 E6 EB 67 EB C5 
    762      1480.035 DT 0CEF0100 Rx 8  B0 20 00 00 00 63 58 00 
    763      1480.615 DT 0CF00300 Rx 8  DF 00 4F FF 00 FF FF FF 
    764      1484.826 DT 18FFDC00 Rx 8  E0 14 01 00 00 54 79 19 
    765      1485.402 DT 0CF00400 Rx 8  FF 7D 7D 00 00 00 FF FF 
    766      1488.195 DT 18FF1080 Rx 8  00 00 00 FF FF FF FD 00 
    767      1489.199 DT 18FF1180 Rx 8  03 FF FB FF FF FF 00 FF 
    768      1489.755 DT 04EF001C Rx 8  D7 42 C1 FC 28 45 3E FF 
    769      1490.340 DT 18FF1380 Rx 8  00 00 00 00 3F C0 C0 06 
    770      1490.908 DT 18FFDC00 Rx 8  E1 00 00 00 00 A4 FF 7A 
    771      1494.448 DT 09F112F8 Rx 8  FF FB 70 00 00 FF 7F FD 
    772      1495.016 DT 18FFDC00 Rx 8  E2 FF FF D2 24 23 00 FF 
    773      1499.679 DT 04EF001C Rx 8  97 45 BB FB 68 42 44 F8 
    774      1500.259 DT 0CEF0100 Rx 8  B0 20 00 00 00 63 58 00 
    775      1500.832 DT 18FEF100 Rx 8  FF 00 00 F0 FF C7 1F FF 
    776      1504.856 DT 0CF00400 Rx 8  FF 7D 7D 00 00 00 FF FF 
    777      1505.949 DT 18FF50E0 Rx 8  00 84 F7 BD 79 EB 73 FB 
    778      1509.813 DT 04EF001C Rx 8  57 48 15 F6 A8 4F EA F5 
    779      1519.841 DT 0CEF1100 Rx 8  EA F3 CA 69 1F 0C 18 CA 
    780      1520.393 DT 04EF001C Rx 8  18 4B 40 8D E7 4C BF 8E 
    781      1520.973 DT 0CEF0100 Rx 8  B0 20 00 00 00 63 58 00 
    782      1522.641 DT 18FF1CF3 Rx 8  00 00 00 00 00 00 00 00 
    783      1524.857 DT 0CF00400 Rx 8  FF 7D 7D 00 00 00 FF FF 
    784      1529.860 DT 0CF00300 Rx 8  DF 00 4F FF 00 FF FF FF 
    785      1530.400 DT 04EF001C Rx 8  D4 4D BA EB 2B 4A 45 E8 
    786      1530.952 DT 19F10D13 Rx 8  0B AD 00 2E 02 82 00 E5 
    787      1531.984 DT 19F21139 Rx 8  00 00 00 FF DC 3D 18 00 
    788      1534.860 DT 18FFDC00 Rx 8  00 14 01 00 00 54 79 19 
    789      1535.456 DT 09F20000 Rx 8  00 00 00 FF FF FF FF FF 
    790      1539.856 DT 18FFDC00 Rx 8  01 00 00 00 00 A4 FF 7A 
    791      1540.408 DT 04EF001C Rx 8  94 50 10 F6 6B 57 EF F5 
    792      1540.988 DT 0CEF0100 Rx 8  B0 20 00 00 00 63 58 00 
    793      1544.841 DT 18FFDC00 Rx 8  02 FF FF D2 24 23 00 FF 
    794      1545.417 DT 0CF00400 Rx 8  FF 7D 7D 00 00 00 FF FF 
    795      1550.264 DT 04EF001C Rx 8  BF 53 22 AD 41 94 DC 6E 
    796      1559.868 DT 18FEF200 Rx 8  00 00 FF FF FF FF 37 FF 
    797      1560.424 DT 04EF001C Rx 8  7D 56 CE B8 83 F1 30 1B 
    798      1561.004 DT 0CEF0100 Rx 8  B0 20 00 00 00 63 58 00 
    799      1564.856 DT 0CF00400 Rx 8  FF 7D 7D 00 00 00 FF FF 
    800      1569.824 DT 0CEF1100 Rx 8  B8 EE 74 7E 42 61 26 A6 
    801      1570.539 DT 04EF001C Rx 8  62 59 A9 4F 9C FE 57 EC 
    802      1579.872 DT 0CEF0100 Rx 8  B0 20 00 00 00 63 58 00 
    803      1580.452 DT 0CF00300 Rx 8  DF 00 4F FF 00 FF FF FF 
    804      1581.012 DT 04EF001C Rx 8  01 5C E1 52 FF 9B 1F 91 
    805      1584.856 DT 18FFDC00 Rx 8  20 14 01 00 00 54 7A 19 
    806      1585.432 DT 0CF00400 Rx 8  FF 7D 7D 00 00 00 FF FF 
    807      1588.209 DT 18FF1080 Rx 8  00 00 00 FF FF FF FD 00 
    808      1589.213 DT 18FF1180 Rx 8  03 FF FB FF FF FF 00 FF 
    809      1589.849 DT 18FFDC00 Rx 8  21 00 00 00 00 A4 FF 7A 
    810      1590.737 DT 04EF001C Rx 8  BE 5E 4B A8 40 B9 B5 4B 
    811      1594.805 DT 18FF1C17 Rx 8  00 00 00 00 00 00 00 00 
    812      1595.369 DT 18FFDC00 Rx 8  22 FF FF D2 24 23 00 FF 
    813      1599.868 DT 0CEF0100 Rx 8  B0 20 00 00 00 63 58 00 
    814      1600.440 DT 18FEF100 Rx 8  FF 00 00 F0 FF C7 1F FF 
    815      1600.988 DT 04EF001C Rx 8  A6 41 AB 77 58 86 55 B4 
    816      1602.641 DT 0CEF0017 Rx 8  81 04 00 00 00 00 FF FF 
    817      1604.857 DT 0CF00400 Rx 8  FF 7D 7D 00 00 00 FF FF 
    818      1608.249 DT 18FF50E0 Rx 8  00 84 F7 BD 79 E4 73 FC 
    819      1609.861 DT 18E8FF00 Rx 8  02 FF FF FF FF 00 EF 00 
    820      1610.989 DT 04EF001C Rx 8  3E 44 1F B2 C0 A3 E1 51 
    821      1619.833 DT 0CEF1100 Rx 8  72 E1 F8 AD 2C 84 FF 52 
    822      1620.413 DT 0CEF0100 Rx 8  B0 20 00 00 00 63 58 00 
    823      1621.101 DT 04EF001C Rx 8  FE 46 C9 B0 00 A1 37 53 
    824      1622.641 DT 0CEA1C00 Rx 8  00 EE 00 00 00 00 00 00 
    825      1624.121 DT 18EEFF1C Rx 8  02 04 45 0E 00 00 00 42 
    826      1624.857 DT 0CF00400 Rx 8  FF 7D 7D 00 00 00 FF FF 
    827      1629.857 DT 0CF00300 Rx 8  DF 00 4F FF 00 FF FF FF 
    828      1630.409 DT 19F10D13 Rx 8  0C AE 00 2E 02 82 00 E4 
    829      1631.177 DT 04EF001C Rx 8  7D 49 36 A7 83 AE C8 44 
    830      1631.997 DT 19F21139 Rx 8  00 00 00 FF 40 3E 18 00 
    831      1634.849 DT 18FFDC00 Rx 8  40 14 01 00 00 54 7A 19 
    832      1635.422 DT 09F112F8 Rx 8  FF FA 70 00 00 FF 7F FD 
    833      1636.018 DT 09F20000 Rx 8  00 00 00 FF FF FF FF FF 
    834      1639.849 DT 18FFDC00 Rx 8  41 00 00 00 00 A4 FF 7A 
    835      1640.430 DT 0CEF0100 Rx 8  B0 20 00 00 00 63 58 00 
    836      1641.301 DT 04EF001C Rx 8  3B 4C 5A 92 C5 AB A4 71 
    837      1642.646 DT 18FF1CF3 Rx 8  00 00 00 00 00 00 00 00 
    838      1644.830 DT 18FFDC00 Rx 8  42 FF FF D2 24 23 00 FF 
    839      1645.406 DT 0CF00400 Rx 8  FF 7D 7D 00 00 00 FF FF 
    840      1651.370 DT 04EF001C Rx 8  D4 4E A2 E8 2A A9 5C 0B 
    841      1659.866 DT 18FEF200 Rx 8  00 00 FF FF FF FF 37 FF 
    842      1660.446 DT 0CEF0100 Rx 8  B0 20 00 00 00 63 58 00 
    843      1661.506 DT 04EF001C Rx 8  F3 51 7C CF 0D B6 82 2C 
    844      1664.854 DT 0CF00400 Rx 8  FF 7D 7D 00 00 00 FF FF 
    845      1669.826 DT 0CEF1100 Rx 8  4C 9C 5E C1 0C 33 09 C8 
    846      1671.586 DT 04EF001C Rx 8  8A 54 2E 02 74 B3 D0 E1 
    847      1679.869 DT 0CEF0100 Rx 8  B0 20 00 00 00 63 58 00 
    848      1680.450 DT 0CF00300 Rx 8  DF 00 4F FF 00 FF FF FF 
    849      1681.730 DT 04EF001C Rx 8  71 57 CA D9 8F B0 34 3A 
    850      1684.843 DT 18FFDC00 Rx 8  60 14 01 00 00 54 79 19 
    851      1685.419 DT 0CF00400 Rx 8  FF 7D 7D 00 00 00 FF FF 
    852      1689.207 DT 18FF1080 Rx 8  00 00 00 FF FF FF FD 00 
    853      1689.851 DT 18FFDC00 Rx 8  61 00 00 00 00 A4 FF 7A 
    854      1690.440 DT 18FF1180 Rx 8  03 FF FB FF FF FF 00 FF 
    855      1691.204 DT 18FF1380 Rx 8  00 00 00 00 3F C0 C0 06 
    856      1691.812 DT 04EF001C Rx 8  0B 5A DB 04 F5 9D 25 C7 
    857      1694.836 DT 18FFDC00 Rx 8  62 FF FF D2 24 23 00 FF 
    858      1699.868 DT 0CEF0100 Rx 8  B0 20 00 00 00 63 58 00 
    859      1700.440 DT 18FEF100 Rx 8  FF 00 00 F0 FF C7 1F FF 
    860      1701.960 DT 04EF001C Rx 8  F1 5C 16 D2 0F FB E8 71 
    861      1704.852 DT 0CF00400 Rx 8  FF 7D 7D 00 00 00 FF FF 
    862      1710.300 DT 18FF50E0 Rx 8  00 84 F7 BD 79 DE 73 FD 
    863      1712.032 DT 04EF001C Rx 8  57 5F AD E1 A9 D8 53 62 
    864      1719.833 DT 0CEF1100 Rx 8  9A 97 F5 F3 6C E8 27 4C 
    865      1720.413 DT 0CEF0100 Rx 8  B0 20 00 00 00 63 58 00 
    866      1722.156 DT 04EF001C Rx 8  83 42 97 5C 7D E5 69 FF 
    867      1722.741 DT 18FF1CF3 Rx 8  00 00 00 00 00 00 00 00 
    868      1724.853 DT 0CF00400 Rx 8  FF 7D 7D 00 00 00 FF FF 
    869      1729.856 DT 0CF00300 Rx 8  DF 00 4F FF 00 FF FF FF 
    870      1730.412 DT 19F10D13 Rx 8  0D AD 00 2E 02 82 00 E5 
    871      1731.992 DT 19F21139 Rx 8  00 00 00 FF A4 3E 18 00 
    872      1732.549 DT 04EF001C Rx 8  09 45 21 0B F7 E2 DF A8 
    873      1734.849 DT 18FFDC00 Rx 8  80 14 01 00 00 54 79 19 
    874      1735.444 DT 09F20000 Rx 8  00 00 00 FF FF FF FF FF 
    875      1739.848 DT 18FFDC00 Rx 8  81 00 00 00 00 A4 FF 7A 
    876      1740.428 DT 0CEF0100 Rx 8  B0 20 00 00 00 63 58 00 
    877      1742.384 DT 04EF001C Rx 8  91 48 D5 C6 6F EF 2B 65 
    878      1744.832 DT 18FFDC00 Rx 8  82 FF FF D2 24 23 00 FF 
    879      1745.408 DT 0CF00400 Rx 8  FF 7D 7D 00 00 00 FF FF 
    880      1752.480 DT 04EF001C Rx 8  BF 4A EA B4 41 CD 14 37 
    881      1754.857 DT 18FEEF00 Rx 8  FF FF FF 00 FF FF FF FF 
    882      1759.864 DT 18FEF200 Rx 8  00 00 FF FF FF FF 37 FF 
    883      1760.444 DT 0CEF0100 Rx 8  B0 20 00 00 00 63 58 00 
    884      1762.612 DT 04EF001C Rx 8  D9 4D B7 83 27 CA 49 00 
    885      1764.852 DT 0CF00400 Rx 8  FF 7D 7D 00 00 00 FF FF 
    886      1769.820 DT 0CEF1100 Rx 8  C8 82 0B E6 29 9C D1 E2 
    887      1772.716 DT 04EF001C Rx 8  66 50 E5 66 98 D7 1B E5 
    888      1773.588 DT 09F112F8 Rx 8  FF FC 70 00 00 FF 7F FD 
    889      1779.864 DT 0CEF0100 Rx 8  B0 20 00 00 00 63 58 00 
    890      1780.444 DT 0CF00300 Rx 8  DF 00 4F FF 00 FF FF FF 
    891      1782.820 DT 04EF001C Rx 8  39 53 A0 9D C7 D4 5E 1E 
    892      1784.840 DT 18FFDC00 Rx 8  A0 14 01 00 00 54 7A 19 
    893      1785.420 DT 0CEF1700 Rx 8  01 84 00 00 00 00 FF FF 
    894      1785.996 DT 0CF00400 Rx 8  FF 7D 7D 00 00 00 FF FF 
    895      1789.213 DT 18FF1080 Rx 8  00 00 00 FF FF FF FD 00 
    896      1789.837 DT 18FFDC00 Rx 8  A1 00 00 00 00 A4 FF 7A 
    897      1790.426 DT 18FF1180 Rx 8  03 FF FB FF FF FF 00 FF 
    898      1792.942 DT 04EF001C Rx 8  E4 55 4B 73 1A D2 B5 F0 
    899      1794.834 DT 18FFDC00 Rx 8  A2 FF FF D2 24 23 00 FF 
    900      1795.410 DT 18FEF600 Rx 8  FF FF 3F 2A FF FF FF FF 
    901      1799.865 DT 0CEF0100 Rx 8  B0 20 00 00 00 63 58 00 
    902      1800.437 DT 18FEF100 Rx 8  FF 00 00 F0 FF C7 1F FF 
    903      1803.053 DT 04EF001C Rx 8  A3 58 66 46 5D DF 98 C5 
    904      1804.849 DT 0CF00400 Rx 8  FF 7D 7D 00 00 00 FF FF 
    905      1813.157 DT 04EF001C Rx 8  D5 5A 03 F4 2B FD FD 57 
    906      1814.781 DT 18FF50E0 Rx 8  00 84 F7 BD 79 D7 73 FE 
    907      1819.816 DT 0CEF1100 Rx 8  02 85 C7 37 55 7B 18 84 
    908      1820.396 DT 0CEF0100 Rx 8  B0 20 00 00 00 63 58 00 
    909      1822.653 DT 18FF1CF3 Rx 8  00 00 00 00 00 00 00 00 
    910      1823.258 DT 04EF001C Rx 8  98 5D 74 9B 66 BA 8A 78 
    911      1824.850 DT 0CF00400 Rx 8  FF 7D 7D 00 00 00 FF FF 
    912      1829.853 DT 0CF00300 Rx 8  DF 00 4F FF 00 FF FF FF 
    913      1830.405 DT 19F10D13 Rx 8  0E AE 00 2E 02 82 00 E4 
    914      1831.993 DT 19F21139 Rx 8  00 00 00 FF 08 3F 18 00 
    915      1833.369 DT 04EF001C Rx 8  56 40 54 F6 A8 A7 AA 15 
    916      1834.849 DT 18FFDC00 Rx 8  C0 14 01 00 00 54 79 19 
    917      1835.445 DT 09F20000 Rx 8  00 00 00 FF FF FF FF FF 
    918      1839.845 DT 18FFDC00 Rx 8  C1 00 00 00 00 A4 FF 7A 
    919      1840.425 DT 0CEF0100 Rx 8  B0 20 00 00 00 63 58 00 
    920      1843.485 DT 04EF001C Rx 8  17 43 0F FD E9 A4 F1 1E 
    921      1844.825 DT 18FFDC00 Rx 8  C2 FF FF D2 24 23 00 FF 
    922      1845.401 DT 0CF00400 Rx 8  FF 7D 7D 00 00 00 FF FF 
    923      1853.596 DT 04EF001C Rx 8  D7 45 F9 FB 28 62 06 D8 
    924      1859.861 DT 18FEF200 Rx 8  00 00 FF FF FF FF 37 FF 
    925      1860.441 DT 0CEF0100 Rx 8  B0 20 00 00 00 63 58 00 
    926      1863.704 DT 04EF001C Rx 8  97 48 D3 F6 68 2F 2C 95 
    927      1864.849 DT 0CF00400 Rx 8  FF 7D 7D 00 00 00 FF FF 
    928      1869.556 DT 0DF50B9B Rx 8  4F FF FF FF FF 00 00 FF 
    929      1870.100 DT 0CEF1100 Rx 8  74 B0 31 0B 5B 5D 75 78 
    930      1873.812 DT 04EF001C Rx 8  57 4B 0D F5 A8 EC F2 56 
    931      1879.864 DT 0CEF0100 Rx 8  B0 20 00 00 00 63 58 00 
    932      1880.444 DT 0CF00300 Rx 8  DF 00 4F FF 00 FF FF FF 
    933      1883.923 DT 04EF001C Rx 8  14 4E 64 E8 EB 89 9B 2B 
    934      1884.843 DT 18FFDC00 Rx 8  E0 14 01 00 00 54 79 19 
    935      1885.420 DT 0CF00400 Rx 8  FF 7D 7D 00 00 00 FF FF 
    936      1889.831 DT 18FFDC00 Rx 8  E1 00 00 00 00 A4 FF 7A 
    937      1890.420 DT 18FF1080 Rx 8  00 00 00 FF FF FF FD 00 
    938      1891.216 DT 18FF1180 Rx 8  03 FF FB FF FF FF 00 FF 
    939      1892.196 DT 18FF1380 Rx 8  00 00 00 00 3F C0 C0 06 
    940      1894.041 DT 04EF001C Rx 8  D4 50 52 F6 2B 97 AD 35 
    941      1894.841 DT 18FFDC00 Rx 8  E2 FF FF D2 24 23 00 FF 
    942      1895.433 DT 18FF1C17 Rx 8  00 00 00 00 00 00 00 00 
    943      1899.861 DT 0CEF0100 Rx 8  B0 20 00 00 00 63 58 00 
    944      1900.433 DT 18FEF100 Rx 8  FF 00 00 F0 FF C7 1F FF 
    945      1903.718 DT 1DEFFFF8 Rx 8  80 0C E5 98 6C 07 02 02 
    946      1904.266 DT 04EF001C Rx 8  98 53 04 95 67 B4 FB 76 
    947      1904.838 DT 1DEFFFF8 Rx 8  81 41 00 89 00 00 00 FF 
    948      1905.414 DT 0CF00400 Rx 8  FF 7D 7D 00 00 00 FF FF 
    949      1906.358 DT 1DEFFFF8 Rx 8  A0 0C E5 98 6C 07 02 02 
    950      1907.098 DT 1DEFFFF8 Rx 8  A1 43 00 01 00 00 00 FF 
    951      1908.086 DT 1DEFFFF8 Rx 8  C0 09 E5 98 6C 07 02 02 
    952      1909.106 DT 1DEFFFF8 Rx 8  C1 28 00 00 FF FF FF FF 
    953      1909.934 DT 1DEFFFF8 Rx 8  E0 09 E5 98 6C 07 02 02 
    954      1911.102 DT 1DEFFFF8 Rx 8  E1 34 00 00 FF FF FF FF 
    955      1912.266 DT 09F8021C Rx 8  63 FC 86 DB 06 00 FF FF 
    956      1912.954 DT 1DEFFFF8 Rx 8  00 09 E5 98 6C 07 02 02 
    957      1913.494 DT 09F8011C Rx 8  C4 6C 26 18 5E 6A 5B C1 
    958      1914.082 DT 1DEFFFF8 Rx 8  01 1B 00 FF FF FF FF FF 
    959      1914.626 DT 04EF001C Rx 8  92 56 26 C0 92 56 26 C4 
    960      1915.194 DT 1DEFFFF8 Rx 8  20 09 E5 98 6C 07 02 02 
    961      1915.754 DT 19FA031C Rx 8  63 D2 4C 00 6B 00 40 00 
    962      1916.338 DT 1DEFFFF8 Rx 8  21 1D 00 FF FF FF FF FF 
    963      1917.102 DT 09F112F8 Rx 8  FF F9 70 00 00 FF 7F FD 
    964      1917.670 DT 0DF0101C Rx 8  63 F0 41 4F C0 BF 53 27 
    965      1918.330 DT 18FEE81C Rx 8  02 A1 00 00 4D 64 64 7E 
    966      1919.413 DT 19FA041C Rx 8  60 AB 63 FF 0E 05 1A 04 
    967      1919.994 DT 0CEF0100 Rx 8  B0 20 00 00 00 63 58 00 
    968      1920.530 DT 0CEF1100 Rx 8  B4 B5 6F 0A 21 AC 8E AE 
    969      1921.098 DT 19FA041C Rx 8  61 1E 2D D0 07 FF FF FF 
    970      1922.425 DT 19FA041C Rx 8  62 FF FF 0A 3E 17 BC B1 
    971      1923.009 DT 18FF1CF3 Rx 8  00 00 00 00 00 00 00 00 
    972      1923.593 DT 19FA041C Rx 8  63 04 10 FF FF FF FF FF 
    973      1924.150 DT 18FF50E0 Rx 8  00 84 F7 BD 79 D0 73 FF 
    974      1924.693 DT 04EF001C Rx 8  BA 59 77 8F 45 BE 88 6C 
    975      1925.270 DT 0CF00400 Rx 8  FF 7D 7D 00 00 00 FF FF 
    976      1925.818 DT 19FA041C Rx 8  64 0D 5B 0E B6 1C E4 0C 
    977      1926.502 DT 19FA041C Rx 8  65 FF FF FF FF FF 0F DD 
    978      1927.473 DT 19FA041C Rx 8  66 22 04 29 D8 0E FF FF 
    979      1928.493 DT 19FA041C Rx 8  67 FF FF FF 10 D6 06 0A 
    980      1929.506 DT 19FA041C Rx 8  68 BE D0 07 FF FF FF FF 
    981      1930.086 DT 0CF00300 Rx 8  DF 00 4F FF 00 FF FF FF 
    982      1930.646 DT 19F10D13 Rx 8  0F AE 00 2E 02 82 00 E4 
    983      1931.194 DT 19FA041C Rx 8  69 FF 12 A3 34 8C 23 30 
    984      1931.994 DT 19F21139 Rx 8  00 00 00 FF 6C 3F 18 00 
    985      1932.566 DT 19FA041C Rx 8  6A 11 FF FF FF FF FF 17 
    986      1933.533 DT 19FA041C Rx 8  6B 89 30 8C D2 CC 10 FF 
    987      1934.485 DT 04EF001C Rx 8  8E 5C 6A 2A 71 BB 95 C9 
    988      1935.081 DT 09F20000 Rx 8  00 00 00 FF FF FF FF FF 
    989      1935.649 DT 18FFDC00 Rx 8  00 14 01 00 00 54 79 19 
    990      1936.217 DT 19FA041C Rx 8  6C FF FF FF FF 18 F0 0A 
    991      1937.593 DT 19FA041C Rx 8  6D 08 52 B8 0B FF FF FF 
    992      1938.629 DT 19FA041C Rx 8  6E FF FF 1A 00 00 88 A9 
    993      1939.648 DT 19FA041C Rx 8  6F A4 06 FF FF FF FF FF 
    994      1940.229 DT 0CEF0100 Rx 8  B0 20 00 00 00 63 58 00 
    995      1940.804 DT 18FFDC00 Rx 8  01 00 00 00 00 A4 FF 7A 
    996      1941.369 DT 19FA041C Rx 8  70 1B 68 10 48 D5 04 10 
    997      1942.660 DT 19FA041C Rx 8  71 FF FF FF FF FF 1D B9 
    998      1943.672 DT 19FA041C Rx 8  72 0F 36 74 AC 0D FF FF 
    999      1944.612 DT 04EF001C Rx 8  B5 5F 48 F1 4A B8 B7 12 
   1000      1945.188 DT 0CF00400 Rx 8  FF 7D 7D 00 00 00 FF FF 
   1001      1945.756 DT 18FFDC00 Rx 8  02 FF FF D2 24 23 00 FF 
   1002      1946.332 DT 19FA041C Rx 8  73 FF FF FF 20 C9 04 16 
   1003      1947.716 DT 19FA041C Rx 8  74 8A FC 08 FF FF FF FF 
   1004      1948.716 DT 19FA041C Rx 8  75 FF 2C B6 1C FC 85 F8 
   1005      1949.752 DT 19FA041C Rx 8  76 11 FF FF FF FF FF 30 
   1006      1950.336 DT 18FECA00 Rx 8  40 FF 00 00 00 00 FF FF 
   1007      1950.884 DT 19FA041C Rx 8  77 A9 1A 30 8E CC 10 FF 
   1008      1951.796 DT 19FA041C Rx 8  78 FF FF FF FF FF FF FF 
   1009      1954.732 DT 04EF001C Rx 8  C0 41 CE 47 3F A6 31 A4 
   1010      1959.855 DT 18FEF200 Rx 8  00 00 FF FF FF FF 37 FF 
   1011      1960.435 DT 0CEF0100 Rx 8  B0 20 00 00 00 63 58 00 
   1012      1964.844 DT 0CF00400 Rx 8  FF 7D 7D 00 00 00 FF FF 
   1013      1965.396 DT 04EF001C Rx 8  A4 44 81 62 A4 44 81 66 
   1014      1969.816 DT 0CEF1100 Rx 8  9D A3 54 07 C8 2A 33 A7 
   1015      1974.479 DT 15FD069B Rx 8  9D E5 75 FF FF FF FF FF 
   1016      1975.019 DT 04EF001C Rx 8  42 47 78 51 42 67 78 75 
   1017      1979.859 DT 0CEF0100 Rx 8  B0 20 00 00 00 63 58 00 
   1018      1980.439 DT 0CF00300 Rx 8  DF 00 4F FF 00 FF FF FF 
   1019      1984.843 DT 18FFDC00 Rx 8  20 14 01 00 00 54 7A 19 
   1020      1985.411 DT 04EF001C Rx 8  00 4A 50 4C 00 6A 50 68 
   1021      1985.987 DT 0CF00400 Rx 8  FF 7D 7D 00 00 00 FF FF 
   1022      1989.831 DT 18FFDC00 Rx 8  21 00 00 00 00 A4 FF 7A 
   1023      1990.419 DT 18FF1080 Rx 8  00 00 00 FF FF FF FD 00 
   1024      1991.212 DT 18FF1180 Rx 8  03 FF FB FF FF FF 00 FF 
   1025      1994.828 DT 18FFDC00 Rx 8  22 FF FF D2 24 23 00 FF 
   1026      1995.376 DT 04EF001C Rx 8  E6 4C 81 7A E6 2C 81 1E 
   1027      1999.860 DT 0CEF0100 Rx 8  B0 20 00 00 00 63 58 00 
   1028      2000.432 DT 18FEF100 Rx 8  FF 00 00 F0 FF C7 1F FF 
   1029      2004.844 DT 0CF00400 Rx 8  FF 7D 7D 00 00 00 FF FF 
   1030      2005.416 DT 04EF001C Rx 8  81 4F FD 41 81 CF FD C5 
   1031      2015.371 DT 04EF001C Rx 8  D7 51 59 EF D7 31 59 8B 
   1032      2019.819 DT 0CEF1100 Rx 8  21 DA F6 FA 4A 23 10 A9 
   1033      2020.399 DT 0CEF0100 Rx 8  B0 20 00 00 00 63 58 00 
   1034      2022.659 DT 18FF1CF3 Rx 8  00 00 00 00 00 00 00 00 
   1035      2024.843 DT 0CF00400 Rx 8  FF 7D 7D 00 00 00 FF FF 
   1036      2025.523 DT 04EF001C Rx 8  97 54 33 EA 97 D4 33 6E 
   1037      2029.847 DT 0CF00300 Rx 8  DF 00 4F FF 00 FF FF FF 
   1038      2030.399 DT 19F10D13 Rx 8  10 AD 00 2E 02 82 00 E5 
   1039      2030.947 DT 18FF50E0 Rx 8  00 84 F7 BD 79 C9 73 00 
   1040      2031.999 DT 19F21139 Rx 8  00 00 00 FF D0 3F 18 00 
   1041      2034.840 DT 18FFDC00 Rx 8  40 14 01 00 00 54 7A 19 
   1042      2035.436 DT 09F20000 Rx 8  00 00 00 FF FF FF FF FF 
   1043      2035.984 DT 04EF001C Rx 8  56 57 EC E1 56 D7 EC 65 
   1044      2039.840 DT 18FFDC00 Rx 8  41 00 00 00 00 A4 FF 7A 
   1045      2040.420 DT 0CEF0100 Rx 8  B0 20 00 00 00 63 58 00 
   1046      2044.820 DT 18FFDC00 Rx 8  42 FF FF D2 24 23 00 FF 
   1047      2045.396 DT 0CF00400 Rx 8  FF 7D 7D 00 00 00 FF FF 
   1048      2045.948 DT 04EF001C Rx 8  14 5A C4 FC 14 3A C4 98 
   1049      2051.104 DT 09F112F8 Rx 8  FF FC 70 00 00 FF 7F FD 
   1050      2055.820 DT 04EF001C Rx 8  D5 5C 33 F2 D5 3C 33 96 
   1051      2059.855 DT 18FEF200 Rx 8  00 00 FF FF FF FF 37 FF 
   1052      2060.436 DT 0CEF0100 Rx 8  B0 20 00 00 00 63 58 00 
   1053      2064.843 DT 0CF00400 Rx 8  FF 7D 7D 00 00 00 FF FF 
   1054      2065.959 DT 04EF001C Rx 8  96 5F 6A E9 96 1F 6A AD 
   1055      2069.808 DT 0CEF1100 Rx 8  E9 D1 5A B8 13 42 E8 60 
   1056      2076.040 DT 04EF001C Rx 8  57 42 45 FC 57 62 45 D8 
   1057      2079.855 DT 0CEF0100 Rx 8  B0 20 00 00 00 63 58 00 
   1058      2080.436 DT 0CF00300 Rx 8  DF 00 4F FF 00 FF FF FF 
   1059      2082.659 DT 0CEF0017 Rx 8  81 04 00 00 00 00 FF FF 
   1060      2084.832 DT 18FFDC00 Rx 8  60 14 01 00 00 54 79 19 
   1061      2085.408 DT 0CF00400 Rx 8  FF 7D 7D 00 00 00 FF FF 
   1062      2086.204 DT 04EF001C Rx 8  3D 45 14 AB 3D 05 14 EF 
   1063      2089.835 DT 18FFDC00 Rx 8  61 00 00 00 00 A4 FF 7A 
   1064      2090.408 DT 18E8FF00 Rx 8  02 FF FF FF FF 00 EF 00 
   1065      2091.212 DT 18FF1080 Rx 8  00 00 00 FF FF FF FD 00 
   1066      2092.188 DT 18FF1180 Rx 8  02 FF FB FF FF FF 00 FF 
   1067      2093.200 DT 18FF1380 Rx 8  00 00 00 00 3F C0 C0 06 
   1068      2094.824 DT 18FFDC00 Rx 8  62 FF FF D2 24 23 00 FF 
   1069      2096.296 DT 04EF001C Rx 8  F9 47 C6 89 F9 67 C6 AD 
   1070      2099.856 DT 0CEF0100 Rx 8  B0 20 00 00 00 63 58 00 
   1071      2100.428 DT 18FEF100 Rx 8  FF 00 00 F0 FF C7 1F FF 
   1072      2104.840 DT 0CF00400 Rx 8  FF 7D 7D 00 00 00 FF FF 
   1073      2106.401 DT 04EF001C Rx 8  B9 4A EC 84 B9 6A EC A0 
   1074      2114.805 DT 18FF1C17 Rx 8  00 00 00 00 00 00 00 00 
   1075      2116.485 DT 04EF001C Rx 8  57 4D 3D F3 57 6D 3D D7 
   1076      2119.808 DT 0CEF1100 Rx 8  BD C8 C5 1E 72 B9 66 69 
   1077      2120.388 DT 0CEF0100 Rx 8  B0 20 00 00 00 63 58 00 
   1078      2124.840 DT 0CF00400 Rx 8  FF 7D 7D 00 00 00 FF FF 
   1079      2126.592 DT 04EF001C Rx 8  48 50 CA 16 48 70 CA 32 
   1080      2129.844 DT 0CF00300 Rx 8  DF 00 4F FF 00 FF FF FF 
   1081      2130.396 DT 19F10D13 Rx 8  11 AE 00 2E 02 82 00 E4 
   1082      2131.996 DT 19F21139 Rx 8  00 00 00 FF 34 40 18 00 
   1083      2134.840 DT 18FFDC00 Rx 8  80 14 01 00 00 54 7A 19 
   1084      2135.436 DT 09F20000 Rx 8  00 00 00 FF FF FF FF FF 
   1085      2135.984 DT 18FF50E0 Rx 8  00 84 F7 BD 79 C2 73 01 
   1086      2136.712 DT 04EF001C Rx 8  09 53 91 1D F6 B4 6E FE 
   1087      2139.836 DT 18FFDC00 Rx 8  81 00 00 00 00 A4 FF 7A 
   1088      2140.417 DT 0CEF0100 Rx 8  B0 20 00 00 00 63 58 00 
   1089      2144.821 DT 18FFDC00 Rx 8  82 FF FF D2 24 23 00 FF 
   1090      2145.397 DT 0CF00400 Rx 8  FF 7D 7D 00 00 00 FF FF 
   1091      2146.849 DT 04EF001C Rx 8  85 56 31 78 7A B1 CE 9B 
   1092      2156.948 DT 04EF001C Rx 8  E5 58 22 76 1A BF DD 95 
   1093      2159.852 DT 18FEF200 Rx 8  00 00 FF FF FF FF 37 FF 
   1094      2160.432 DT 0CEF0100 Rx 8  B0 20 00 00 00 63 58 00 
   1095      2162.664 DT 18FF1CF3 Rx 8  00 00 00 00 00 00 00 00 
   1096      2164.840 DT 0CF00400 Rx 8  FF 7D 7D 00 00 00 FF FF 
   1097      2167.052 DT 04EF001C Rx 8  B9 5B 64 95 B9 5B 64 91 
   1098      2169.800 DT 0CEF1100 Rx 8  75 C7 49 5D 28 C2 4E B9 
   1099      2177.176 DT 04EF001C Rx 8  41 5E B3 50 41 7E B3 74 
   1100      2179.856 DT 0CEF0100 Rx 8  B0 20 00 00 00 63 58 00 
   1101      2180.436 DT 0CF00300 Rx 8  DF 00 4F FF 00 FF FF FF 
   1102      2184.756 DT 09F112F8 Rx 8  FF FD 70 00 00 FF 7F FD 
   1103      2185.332 DT 0CF00400 Rx 8  FF 7D 7D 00 00 00 FF FF 
   1104      2185.892 DT 18FFDC00 Rx 8  A0 14 01 00 00 54 7A 19 
   1105      2187.308 DT 04EF001C Rx 8  84 41 88 67 84 01 88 23 
   1106      2189.824 DT 18FFDC00 Rx 8  A1 00 00 00 00 A4 FF 7A 
   1107      2191.201 DT 18FF1080 Rx 8  00 00 00 FF FF FF FD 00 
   1108      2192.197 DT 18FF1180 Rx 8  02 FF FB FF FF FF 00 FF 
   1109      2194.825 DT 18FFDC00 Rx 8  A2 FF FF D2 24 23 00 FF 
   1110      2197.412 DT 04EF001C Rx 8  F8 43 E7 85 F8 23 E7 E1 
   1111      2199.852 DT 0CEF0100 Rx 8  B0 20 00 00 00 63 58 00 
   1112      2200.424 DT 18FEF100 Rx 8  FF 00 00 F0 FF C7 1F FF 
   1113      2204.836 DT 0CF00400 Rx 8  FF 7D 7D 00 00 00 FF FF 
   1114      2207.516 DT 04EF001C Rx 8  80 46 B4 40 80 06 B4 04 
   1115      2217.596 DT 04EF001C Rx 8  D7 48 91 F6 D7 08 91 B2 
   1116      2219.816 DT 0CEF1100 Rx 8  11 FE DB 72 0D 5D EE 9B 
   1117      2220.396 DT 0CEF0100 Rx 8  B0 20 00 00 00 63 58 00 
   1118      2222.664 DT 18FF1CF3 Rx 8  00 00 00 00 00 00 00 00 
   1119      2224.836 DT 0CF00400 Rx 8  FF 7D 7D 00 00 00 FF FF 
   1120      2227.708 DT 04EF001C Rx 8  94 4B C8 ED 94 2B C8 89 
   1121      2229.840 DT 0CF00300 Rx 8  DF 00 4F FF 00 FF FF FF 
   1122      2230.392 DT 19F10D13 Rx 8  12 AD 00 2E 02 82 00 E5 
   1123      2231.991 DT 19F21139 Rx 8  00 00 00 FF 98 40 18 00 
   1124      2234.835 DT 18FFDC00 Rx 8  C0 14 01 00 00 54 79 19 
   1125      2235.431 DT 09F20000 Rx 8  00 00 00 FF FF FF FF FF 
   1126      2237.819 DT 04EF001C Rx 8  58 4E 2A 88 58 2E 2A EC 
   1127      2238.367 DT 18FF50E0 Rx 8  00 84 F7 BD 79 BC 73 02 
   1128      2239.831 DT 18FFDC00 Rx 8  C1 00 00 00 00 A4 FF 7A 
   1129      2240.407 DT 09F20100 Rx 8  E0 16 00 06 00 FF FF E9 
   1130      2240.987 DT 0CEF0100 Rx 8  B0 20 00 00 00 63 58 00 
   1131      2244.811 DT 18FFDC00 Rx 8  C2 FF FF D2 24 23 00 FF 
   1132      2245.371 DT 09F20100 Rx 8  E1 73 BE 04 00 00 D2 24 
   1133      2245.947 DT 0CF00400 Rx 8  FF 7D 7D 00 00 00 FF FF 
   1134      2246.524 DT 18FF2117 Rx 8  06 FF FF FF 00 FF FF FF 
   1135      2247.932 DT 04EF001C Rx 8  48 51 C2 17 48 11 C2 53 
   1136      2249.828 DT 09F20100 Rx 8  E2 23 00 FF FF FF FF 00 
   1137      2250.412 DT 18FEEE00 Rx 8  3F FF FF FF FF FF 42 FF 
   1138      2254.840 DT 09F20100 Rx 8  E3 01 00 FF FF FF FF FF 
   1139      2255.420 DT 18FEEF00 Rx 8  FF FF FF 00 FF FF FF FF 
   1140      2258.036 DT 04EF001C Rx 8  D4 53 4A F5 D4 33 4A 91 
   1141      2259.848 DT 18FEF200 Rx 8  00 00 FF FF FF FF 37 FF 
   1142      2260.428 DT 0CEF0100 Rx 8  B0 20 00 00 00 63 58 00 
   1143      2264.835 DT 0CF00400 Rx 8  FF 7D 7D 00 00 00 FF FF 
   1144      2265.399 DT 18FEF700 Rx 8  FF FF 1A 01 F2 00 F3 00 
   1145      2268.151 DT 04EF001C Rx 8  97 56 23 E8 97 36 23 8C 
   1146      2269.815 DT 0CEF1100 Rx 8  C7 EB 00 47 DC 1A A5 94 
   1147      2278.262 DT 04EF001C Rx 8  54 59 9E FF 54 D9 9E 7B 
   1148      2279.850 DT 0CEF0100 Rx 8  B0 20 00 00 00 63 58 00 
   1149      2280.430 DT 0CF00300 Rx 8  DF 00 4F FF 00 FF FF FF 
   1150      2284.831 DT 18FFDC00 Rx 8  E0 14 01 00 00 54 79 19 
   1151      2285.411 DT 0CEF1700 Rx 8  01 84 00 00 00 00 FF FF 
   1152      2285.987 DT 0CF00400 Rx 8  FF 7D 7D 00 00 00 FF FF 
   1153      2288.383 DT 04EF001C Rx 8  48 5C AA 1A 48 3C AA 7E 
   1154      2289.819 DT 18FFDC00 Rx 8  E1 00 00 00 00 A4 FF 7A 
   1155      2290.403 DT 18FEFC00 Rx 8  FF 7A FF FF FF FF FF FF 
   1156      2292.200 DT 18FF1080 Rx 8  00 00 00 FF FF FF FD 00 
   1157      2293.196 DT 18FF1180 Rx 8  02 FF FB FF FF FF 00 FF 
   1158      2294.204 DT 18FF1380 Rx 8  00 00 00 00 3F C0 C0 06 
   1159      2294.828 DT 18FFDC00 Rx 8  E2 FF FF D2 24 23 00 FF 
   1160      2295.404 DT 18FEF600 Rx 8  FF FF 3F 2A FF FF FF FF 
   1161      2298.492 DT 04EF001C Rx 8  D7 5E 21 E0 D7 3E 21 84 
   1162      2299.852 DT 0CEF0100 Rx 8  B0 20 00 00 00 63 58 00 
   1163      2300.424 DT 18FEF100 Rx 8  FF 00 00 F0 FF C7 1F FF 
   1164      2304.836 DT 0CF00400 Rx 8  FF 7D 7D 00 00 00 FF FF 
   1165      2308.599 DT 04EF001C Rx 8  94 41 98 E7 94 61 98 C3 
   1166      2318.711 DT 04EF001C Rx 8  57 44 75 FA 57 64 75 DE 
   1167      2319.819 DT 0CEF1100 Rx 8  85 EC EA D6 83 CF DF EB 
   1168      2320.399 DT 0CEF0100 Rx 8  B0 20 00 00 00 63 58 00 
   1169      2322.671 DT 18FF1CF3 Rx 8  00 00 00 00 00 00 00 00 
   1170      2323.623 DT 09F112F8 Rx 8  FF FE 70 00 00 FF 7F FD 
   1171      2324.835 DT 0CF00400 Rx 8  FF 7D 7D 00 00 00 FF FF 
   1172      2328.819 DT 04EF001C Rx 8  15 47 2D E9 15 47 2D ED 
   1173      2329.843 DT 0CF00300 Rx 8  DF 00 4F FF 00 FF FF FF 
   1174      2330.395 DT 19F10D13 Rx 8  13 AE 00 2E 02 82 00 E4 
   1175      2332.003 DT 19F21139 Rx 8  00 00 00 FF FC 40 18 00 
   1176      2334.839 DT 18FFDC00 Rx 8  00 14 01 00 00 54 79 19 
   1177      2335.435 DT 09F20000 Rx 8  00 00 00 FF FF FF FF FF 
   1178      2338.951 DT 04EF001C Rx 8  D8 49 96 8F D8 49 96 8B 
   1179      2339.839 DT 18FFDC00 Rx 8  01 00 00 00 00 A4 FF 7A 
   1180      2340.419 DT 0CEF0100 Rx 8  B0 20 00 00 00 63 58 00 
   1181      2344.819 DT 18FFDC00 Rx 8  02 FF FF D2 24 23 00 FF 
   1182      2345.395 DT 0CF00400 Rx 8  FF 7D 7D 00 00 00 FF FF 
   1183      2346.607 DT 18FF50E0 Rx 8  00 84 F7 BD 79 B5 73 03 
   1184      2349.051 DT 04EF001C Rx 8  FF 4C 98 B2 FF 6C 98 96 
   1185      2359.179 DT 04EF001C Rx 8  E6 4F 99 79 E6 0F 99 3D 
   1186      2359.851 DT 18FEF200 Rx 8  00 00 FF FF FF FF 37 FF 
   1187      2360.431 DT 0CEF0100 Rx 8  B0 20 00 00 00 63 58 00 
   1188      2364.835 DT 0CF00400 Rx 8  FF 7D 7D 00 00 00 FF FF 
   1189      2369.291 DT 04EF001C Rx 8  A5 52 30 7C A5 12 30 38 
   1190      2369.847 DT 0CEF1100 Rx 8  3D 9B B9 08 21 4D 24 E2 
   1191      2379.386 DT 04EF001C Rx 8  40 55 EA 53 40 15 EA 17 
   1192      2379.966 DT 0CEF0100 Rx 8  B0 20 00 00 00 63 58 00 
   1193      2380.546 DT 0CF00300 Rx 8  DF 00 4F FF 00 FF FF FF 
   1194      2384.830 DT 18FFDC00 Rx 8  20 14 01 00 00 54 7A 19 
   1195      2385.406 DT 0CF00400 Rx 8  FF 7D 7D 00 00 00 FF FF 
   1196      2389.510 DT 04EF001C Rx 8  24 58 E5 7E 24 18 E5 3A 
   1197      2390.082 DT 18FFDC00 Rx 8  21 00 00 00 00 A4 FF 7A 
   1198      2392.199 DT 18FF1080 Rx 8  00 00 00 FF FF FF FD 00 
   1199      2393.195 DT 18FF1180 Rx 8  02 FF FB FF FF FF 00 FF 
   1200      2394.819 DT 18FFDC00 Rx 8  22 FF FF D2 24 23 00 FF 
   1201      2399.611 DT 04EF001C Rx 8  E6 5A 31 6C E6 1A 31 28 
   1202      2400.191 DT 0CEF0100 Rx 8  B0 20 00 00 00 63 58 00 
   1203      2400.763 DT 18FEF100 Rx 8  FF 00 00 F0 FF C7 1F FF 
   1204      2404.831 DT 0CF00400 Rx 8  FF 7D 7D 00 00 00 FF FF 
   1205      2409.719 DT 04EF001C Rx 8  82 5D 6E 4B 82 7D 6E 6F 
   1206      2413.755 DT 1DEFFFF8 Rx 8  40 0C E5 98 6C 07 02 02 
   1207      2414.719 DT 1DEFFFF8 Rx 8  41 41 00 89 00 00 00 FF 
   1208      2416.107 DT 1DEFFFF8 Rx 8  60 0C E5 98 6C 07 02 02 
   1209      2417.123 DT 1DEFFFF8 Rx 8  61 43 00 01 00 00 00 FF 
   1210      2418.111 DT 1DEFFFF8 Rx 8  80 09 E5 98 6C 07 02 02 
   1211      2419.131 DT 1DEFFFF8 Rx 8  81 28 00 00 FF FF FF FF 
   1212      2419.815 DT 0CEF1100 Rx 8  75 96 81 4B 6A 8C 7C BF 
   1213      2420.367 DT 04EF001C Rx 8  D7 5F 29 E1 D7 1F 29 A5 
   1214      2420.947 DT 0CEF0100 Rx 8  B0 20 00 00 00 63 58 00 
   1215      2421.503 DT 1DEFFFF8 Rx 8  A0 09 E5 98 6C 07 02 02 
   1216      2422.067 DT 09F8021C Rx 8  64 FC 86 DB 02 00 FF FF 
   1217      2422.676 DT 18FF1CF3 Rx 8  00 00 00 00 00 00 00 00 
   1218      2423.216 DT 09F8011C Rx 8  C4 6C 26 18 54 6A 5B C1 
   1219      2423.792 DT 1DEFFFF8 Rx 8  A1 34 00 00 FF FF FF FF 
   1220      2424.352 DT 19FA031C Rx 8  64 D2 4C 00 6B 00 40 00 
   1221      2424.928 DT 0CF00400 Rx 8  FF 7D 7D 00 00 00 FF FF 
   1222      2425.488 DT 1DEFFFF8 Rx 8  C0 09 E5 98 6C 07 02 02 
   1223      2426.040 DT 0DF0101C Rx 8  64 F0 41 4F D0 E6 53 27 
   1224      2426.621 DT 1DEFFFF8 Rx 8  C1 1B 00 FF FF FF FF FF 
   1225      2427.180 DT 18FEE81C Rx 8  02 A1 00 00 4D 64 65 7E 
   1226      2428.004 DT 19FA041C Rx 8  80 AB 64 FF 0E 05 1A 04 
   1227      2428.564 DT 1DEFFFF8 Rx 8  E0 09 E5 98 6C 07 02 02 
   1228      2429.136 DT 19FA041C Rx 8  81 1E 2D D0 07 FF FF FF 
   1229      2429.840 DT 0CF00300 Rx 8  DF 00 4F FF 00 FF FF FF 
   1230      2430.384 DT 04EF001C Rx 8  47 43 5D 7D 47 23 5D 19 
   1231      2430.940 DT 19F10D13 Rx 8  14 AE 00 2E 02 82 00 E4 
   1232      2431.508 DT 19FA041C Rx 8  82 FF FF 0A 3E 17 BC B1 
   1233      2432.076 DT 19F21139 Rx 8  00 00 00 FF 60 41 18 00 
   1234      2432.656 DT 1DEFFFF8 Rx 8  E1 1D 00 FF FF FF FF FF 
   1235      2433.244 DT 19FA041C Rx 8  83 04 10 FF FF FF FF FF 
   1236      2434.040 DT 19FA041C Rx 8  84 0D 5B 0E B6 1C 48 0D 
   1237      2434.832 DT 18FFDC00 Rx 8  40 14 01 00 00 54 79 19 
   1238      2435.428 DT 09F20000 Rx 8  00 00 00 FF FF FF FF FF 
   1239      2436.004 DT 19FA041C Rx 8  85 FF FF FF FF FF 0F DD 
   1240      2437.084 DT 19FA041C Rx 8  86 22 04 29 D8 0E FF FF 
   1241      2438.104 DT 19FA041C Rx 8  87 FF FF FF 10 D6 06 0A 
   1242      2439.116 DT 19FA041C Rx 8  88 BE D0 07 FF FF FF FF 
   1243      2439.832 DT 18FFDC00 Rx 8  41 00 00 00 00 A4 FF 7A 
   1244      2440.388 DT 04EF001C Rx 8  FF 45 D0 BB FF 25 D0 DF 
   1245      2440.968 DT 0CEF0100 Rx 8  B0 20 00 00 00 63 58 00 
   1246      2441.524 DT 19FA041C Rx 8  89 FF 12 A3 34 8C 23 30 
   1247      2442.172 DT 19FA041C Rx 8  8A 11 FF FF FF FF FF 17 
   1248      2443.140 DT 19FA041C Rx 8  8B 89 30 8C D2 CC 10 FF 
   1249      2444.163 DT 19FA041C Rx 8  8C FF FF FF FF 18 F0 0A 
   1250      2444.811 DT 18FFDC00 Rx 8  42 FF FF D2 24 23 00 FF 
   1251      2445.387 DT 0CF00400 Rx 8  FF 7D 7D 00 00 00 FF FF 
   1252      2445.955 DT 19FA041C Rx 8  8D 08 52 B8 0B FF FF FF 
   1253      2447.203 DT 19FA041C Rx 8  8E FF FF 1A 00 00 88 A9 
   1254      2448.219 DT 19FA041C Rx 8  8F A4 06 FF FF FF FF FF 
   1255      2449.219 DT 19FA041C Rx 8  90 1B 68 10 48 D5 04 10 
   1256      2450.162 DT 04EF001C Rx 8  D1 48 97 C6 D1 28 97 A2 
   1257      2451.254 DT 19FA041C Rx 8  91 FF FF FF FF FF 1D B9 
   1258      2451.803 DT 18FF50E0 Rx 8  00 84 F7 BD 79 AE 73 04 
   1259      2452.374 DT 19FA041C Rx 8  92 0F 36 74 10 0E FF FF 
   1260      2453.270 DT 19FA041C Rx 8  93 FF FF FF 20 C9 04 16 
   1261      2454.282 DT 19FA041C Rx 8  94 8A FC 08 FF FF FF FF 
   1262      2455.278 DT 19FA041C Rx 8  95 FF 2C B6 1C FC 85 F8 
   1263      2456.301 DT 19FA041C Rx 8  96 11 FF FF FF FF FF 30 
   1264      2457.297 DT 19FA041C Rx 8  97 A9 1A 30 8E CC 10 FF 
   1265      2458.318 DT 19FA041C Rx 8  98 FF FF FF FF FF FF FF 
   1266      2459.126 DT 09F112F8 Rx 8  FF FE 70 00 00 FF 7F FD 
   1267      2459.846 DT 18FEF200 Rx 8  00 00 FF FF FF FF 37 FF 
   1268      2460.406 DT 04EF001C Rx 8  D7 4A 81 F4 D7 2A 81 90 
   1269      2460.987 DT 0CEF0100 Rx 8  B0 20 00 00 00 63 58 00 
   1270      2464.830 DT 0CF00400 Rx 8  FF 7D 7D 00 00 00 FF FF 
   1271      2466.170 DT 18FF1C17 Rx 8  00 00 00 00 00 00 00 00 
   1272      2469.794 DT 0CEF1100 Rx 8  AC 8C E1 C5 1B D4 09 73 
   1273      2470.430 DT 04EF001C Rx 8  96 4D FA FB 96 CD FA 7F 
   1274      2472.438 DT 15FD069B Rx 8  9E E5 75 FF FF FF FF FF 
   1275      2479.846 DT 0CEF0100 Rx 8  B0 20 00 00 00 63 58 00 
   1276      2480.426 DT 0CF00300 Rx 8  DF 00 4F FF 00 FF FF FF 
   1277      2480.974 DT 04EF001C Rx 8  56 50 D4 E6 56 30 D4 82 
   1278      2484.821 DT 18FFDC00 Rx 8  60 14 01 00 00 54 79 19 
   1279      2485.397 DT 0CF00400 Rx 8  FF 7D 7D 00 00 00 FF FF 
   1280      2489.821 DT 18FFDC00 Rx 8  61 00 00 00 00 A4 FF 7A 
   1281      2490.629 DT 04EF001C Rx 8  15 53 8D FD 15 13 8D B9 
   1282      2493.203 DT 18FF1080 Rx 8  00 00 00 FF FF FF FD 00 
   1283      2494.195 DT 18FF1180 Rx 8  02 FF FB FF FF FF 00 FF 
   1284      2494.819 DT 18FFDC00 Rx 8  62 FF FF D2 24 23 00 FF 
   1285      2495.404 DT 18FF1380 Rx 8  00 00 00 00 3F C0 C0 06 
   1286      2499.843 DT 0CEF0100 Rx 8  B0 20 00 00 00 63 58 00 
   1287      2500.416 DT 18FEF100 Rx 8  FF 00 00 F0 FF C7 1F FF 
   1288      2500.956 DT 04EF001C Rx 8  D4 55 7A F3 D4 75 7A D7 
   1289      2504.932 DT 0CF00400 Rx 8  FF 7D 7D 00 00 00 FF FF 
   1290      2510.927 DT 04EF001C Rx 8  94 58 50 FE 94 58 50 FA 
   1291      2519.903 DT 0CEF1100 Rx 8  DA 87 67 F7 52 67 4E BC 
   1292      2520.483 DT 0CEF0100 Rx 8  B0 20 00 00 00 63 58 00 
   1293      2521.095 DT 04EF001C Rx 8  54 5B 8E FD AB BC 71 1E 
   1294      2522.779 DT 18FF1CF3 Rx 8  00 00 00 00 00 00 00 00 
   1295      2524.931 DT 0CF00400 Rx 8  FF 7D 7D 00 00 00 FF FF 
   1296      2529.935 DT 0CF00300 Rx 8  DF 00 4F FF 00 FF FF FF 
   1297      2530.491 DT 19F10D13 Rx 8  15 AE 00 2E 02 82 00 E4 
   1298      2531.171 DT 04EF001C Rx 8  3B 5E CA 80 C4 B9 35 63 
   1299      2532.107 DT 19F21139 Rx 8  00 00 00 FF C4 41 18 00 
   1300      2534.927 DT 18FFDC00 Rx 8  80 14 01 00 00 54 7A 19 
   1301      2535.524 DT 09F20000 Rx 8  00 00 00 FF FF FF FF FF 
   1302      2539.923 DT 18FFDC00 Rx 8  81 00 00 00 00 A4 FF 7A 
   1303      2540.503 DT 0CEF0100 Rx 8  B0 20 00 00 00 63 58 00 
   1304      2541.335 DT 04EF001C Rx 8  67 41 6C 7F 98 86 93 BC 
   1305      2544.907 DT 18FFDC00 Rx 8  82 FF FF D2 24 23 00 FF 
   1306      2545.483 DT 0CF00400 Rx 8  FF 7D 7D 00 00 00 FF FF 
   1307      2551.411 DT 04EF001C Rx 8  00 44 20 42 FF 83 DF 81 
   1308      2554.079 DT 18FF50E0 Rx 8  00 84 F7 BD 79 A8 73 05 
   1309      2559.939 DT 18FEF200 Rx 8  00 00 FF FF FF FF 37 FF 
   1310      2560.520 DT 0CEF0100 Rx 8  B0 20 00 00 00 63 58 00 
   1311      2561.548 DT 04EF001C Rx 8  0D 47 35 29 F2 C0 CA AA 
   1312      2562.776 DT 0CEF0017 Rx 8  81 04 00 00 00 00 FF FF 
   1313      2564.928 DT 0CF00400 Rx 8  FF 7D 7D 00 00 00 FF FF 
   1314      2569.904 DT 0CEF1100 Rx 8  2B B1 6C 33 C4 6F B6 41 
   1315      2570.476 DT 18E8FF00 Rx 8  02 FF FF FF FF 00 EF 00 
   1316      2571.647 DT 04EF001C Rx 8  09 4A 59 04 F6 ED A6 A7 
   1317      2579.943 DT 0CEF0100 Rx 8  B0 20 00 00 00 63 58 00 
   1318      2580.523 DT 0CF00300 Rx 8  DF 00 4F FF 00 FF FF FF 
   1319      2581.735 DT 04EF001C Rx 8  C3 4C A5 52 3C EB 5A F1 
   1320      2584.919 DT 18FFDC00 Rx 8  A0 14 01 00 00 54 79 19 
   1321      2585.495 DT 0CF00400 Rx 8  FF 7D 7D 00 00 00 FF FF 
   1322      2589.911 DT 18FFDC00 Rx 8  A1 00 00 00 00 A4 FF 7A 
   1323      2591.827 DT 04EF001C Rx 8  5D 4F 27 A1 A2 88 D8 62 
   1324      2593.295 DT 18FF1080 Rx 8  00 00 00 FF FF FF FD 00 
   1325      2594.000 DT 09F112F8 Rx 8  FF F9 70 00 00 FF 7F FD 
   1326      2594.581 DT 18FF1180 Rx 8  02 FF FB FF FF FF 00 FF 
   1327      2595.145 DT 18FFDC00 Rx 8  A2 FF FF D2 24 23 00 FF 
   1328      2599.941 DT 0CEF0100 Rx 8  B0 20 00 00 00 63 58 00 
   1329      2600.513 DT 18FEF100 Rx 8  FF 00 00 F0 FF C7 1F FF 
   1330      2601.985 DT 04EF001C Rx 8  20 52 B1 54 DF 95 4E 97 
   1331      2604.925 DT 0CF00400 Rx 8  FF 7D 7D 00 00 00 FF FF 
   1332      2612.045 DT 04EF001C Rx 8  16 54 B6 E2 E9 93 49 21 
   1333      2619.896 DT 0CEF1100 Rx 8  62 B5 5C 3A 9F AE AE DE 
   1334      2620.477 DT 0CEF0100 Rx 8  B0 20 00 00 00 63 58 00 
   1335      2622.165 DT 04EF001C Rx 8  6B 57 D0 09 94 90 2F CA 
   1336      2622.777 DT 0CEA1C00 Rx 8  00 EE 00 00 00 00 00 00 
   1337      2624.229 DT 18EEFF1C Rx 8  02 04 45 0E 00 00 00 42 
   1338      2624.929 DT 0CF00400 Rx 8  FF 7D 7D 00 00 00 FF FF 
   1339      2629.930 DT 0CF00300 Rx 8  DF 00 4F FF 00 FF FF FF 
   1340      2630.486 DT 19F10D13 Rx 8  16 AD 00 2E 02 82 00 E5 
   1341      2632.102 DT 19F21139 Rx 8  00 00 00 FF 28 42 18 00 
   1342      2632.666 DT 04EF001C Rx 8  CB 59 05 07 34 BE FA E4 
   1343      2634.922 DT 18FFDC00 Rx 8  C0 14 01 00 00 54 7A 19 
   1344      2635.518 DT 09F20000 Rx 8  00 00 00 FF FF FF FF FF 
   1345      2639.922 DT 18FFDC00 Rx 8  C1 00 00 00 00 A4 FF 7A 
   1346      2640.502 DT 0CEF0100 Rx 8  B0 20 00 00 00 63 58 00 
   1347      2642.374 DT 04EF001C Rx 8  C1 5C 27 52 3E BB D8 B1 
   1348      2642.958 DT 18FF1CF3 Rx 8  00 00 00 00 00 00 00 00 
   1349      2644.902 DT 18FFDC00 Rx 8  C2 FF FF D2 24 23 00 FF 
   1350      2645.478 DT 0CF00400 Rx 8  FF 7D 7D 00 00 00 FF FF 
   1351      2652.501 DT 04EF001C Rx 8  17 5F EF E1 17 5F EF E5 
   1352      2655.985 DT 18FF50E0 Rx 8  00 84 F7 BD 79 A1 73 06 
   1353      2659.937 DT 18FEF200 Rx 8  00 00 FF FF FF FF 37 FF 
   1354      2660.518 DT 0CEF0100 Rx 8  B0 20 00 00 00 63 58 00 
   1355      2662.602 DT 04EF001C Rx 8  0A 42 1A 14 F5 A5 E5 F7 
   1356      2664.926 DT 0CF00400 Rx 8  FF 7D 7D 00 00 00 FF FF 
   1357      2669.898 DT 0CEF1100 Rx 8  B4 A0 87 0F FA F3 30 71 
   1358      2672.706 DT 04EF001C Rx 8  94 44 B0 E2 6B A3 4F 01 
   1359      2674.849 DT 18FF1C17 Rx 8  00 00 00 00 00 00 00 00 
   1360      2679.941 DT 0CEF0100 Rx 8  B0 20 00 00 00 63 58 00 
   1361      2680.521 DT 0CF00300 Rx 8  DF 00 4F FF 00 FF FF FF 
   1362      2682.821 DT 04EF001C Rx 8  8B 47 B7 19 74 80 48 DA 
   1363      2684.913 DT 18FFDC00 Rx 8  E0 14 01 00 00 54 7A 19 
   1364      2685.489 DT 0CF00400 Rx 8  FF 7D 7D 00 00 00 FF FF 
   1365      2689.909 DT 18FFDC00 Rx 8  E1 00 00 00 00 A4 FF 7A 
   1366      2692.941 DT 04EF001C Rx 8  16 4A 46 FC E9 8D B9 3F 
   1367      2694.286 DT 18FF1080 Rx 8  00 00 00 FF FF FF FD 00 
   1368      2694.918 DT 18FFDC00 Rx 8  E2 FF FF D2 24 23 00 FF 
   1369      2695.499 DT 18FF1180 Rx 8  02 FF FB FF FF FF 00 FF 
   1370      2696.279 DT 18FF1380 Rx 8  00 00 00 00 3F C0 C0 06 
   1371      2699.939 DT 0CEF0100 Rx 8  B0 20 00 00 00 63 58 00 
   1372      2700.511 DT 18FEF100 Rx 8  FF 00 00 F0 FF C7 1F FF 
   1373      2703.055 DT 04EF001C Rx 8  09 4D 61 03 F6 EA 9E A0 
   1374      2704.927 DT 0CF00400 Rx 8  FF 7D 7D 00 00 00 FF FF 
   1375      2713.162 DT 04EF001C Rx 8  94 4F E8 E9 6B E8 17 4A 
   1376      2719.894 DT 0CEF1100 Rx 8  09 DB B5 BA BC 38 85 19 
   1377      2720.474 DT 0CEF0100 Rx 8  B0 20 00 00 00 63 58 00 
   1378      2722.786 DT 18FF1CF3 Rx 8  00 00 00 00 00 00 00 00 
   1379      2723.326 DT 04EF001C Rx 8  57 52 C5 EC A8 95 3A 2F 
   1380      2724.922 DT 0CF00400 Rx 8  FF 7D 7D 00 00 00 FF FF 
   1381      2729.926 DT 0CF00300 Rx 8  DF 00 4F FF 00 FF FF FF 
   1382      2730.502 DT 09F112F8 Rx 8  FF F7 70 00 00 FF 7F FD 
   1383      2731.058 DT 19F10D13 Rx 8  17 AD 00 2E 02 82 00 E5 
   1384      2731.622 DT 1DEFFFF8 Rx 8  00 0A E5 98 EE 04 04 04 
   1385      2732.190 DT 19F21139 Rx 8  00 00 00 FF 8C 42 18 00 
   1386      2733.378 DT 04EF001C Rx 8  14 55 BC F3 EB 92 43 30 
   1387      2733.962 DT 1DEFFFF8 Rx 8  01 03 00 00 00 FF FF FF 
   1388      2734.930 DT 18FFDC00 Rx 8  00 14 01 00 00 54 79 19 
   1389      2735.526 DT 09F20000 Rx 8  00 00 00 FF FF FF FF FF 
   1390      2739.922 DT 18FFDC00 Rx 8  01 00 00 00 00 A4 FF 7A 
   1391      2740.502 DT 0CEF0100 Rx 8  B0 20 00 00 00 63 58 00 
   1392      2743.509 DT 04EF001C Rx 8  41 58 83 56 BE BF 7C B5 
   1393      2744.909 DT 18FFDC00 Rx 8  02 FF FF D2 24 23 00 FF 
   1394      2745.486 DT 0CF00400 Rx 8  FF 7D 7D 00 00 00 FF FF 
   1395      2753.617 DT 04EF001C Rx 8  22 5B FB 4D DD BC 04 AE 
   1396      2754.929 DT 18FEEF00 Rx 8  FF FF FF 00 FF FF FF FF 
   1397      2757.833 DT 18FF50E0 Rx 8  00 84 F7 BD 79 9B 73 07 
   1398      2759.934 DT 18FEF200 Rx 8  00 00 FF FF FF FF 37 FF 
   1399      2760.514 DT 0CEF0100 Rx 8  B0 20 00 00 00 63 58 00 
   1400      2763.726 DT 04EF001C Rx 8  E5 5D 0A 73 E5 5D 0A 77 
   1401      2764.922 DT 0CF00400 Rx 8  FF 7D 7D 00 00 00 FF FF 
   1402      2769.886 DT 0CEF1100 Rx 8  D9 D6 AF 39 64 F5 9F DC 
   1403      2773.842 DT 04EF001C Rx 8  7E 40 7D B6 7E 40 7D B2 
   1404      2779.937 DT 0CEF0100 Rx 8  B0 20 00 00 00 63 58 00 
   1405      2780.517 DT 0CF00300 Rx 8  DF 00 4F FF 00 FF FF FF 
   1406      2783.953 DT 04EF001C Rx 8  64 43 7F 65 64 43 7F 61 
   1407      2784.921 DT 18FFDC00 Rx 8  20 14 01 00 00 54 79 19 
   1408      2785.501 DT 0CEF1700 Rx 8  01 84 00 00 00 00 FF FF 
   1409      2786.077 DT 0CF00400 Rx 8  FF 7D 7D 00 00 00 FF FF 
   1410      2789.909 DT 18FFDC00 Rx 8  21 00 00 00 00 A4 FF 7A 
   1411      2794.062 DT 04EF001C Rx 8  25 46 14 68 25 46 14 6C 
   1412      2794.651 DT 18FF1080 Rx 8  00 00 00 FF FF FF FD 00 
   1413      2795.227 DT 18FEF600 Rx 8  FF FF 3F 2A FF FF FF FF 
   1414      2795.807 DT 18FF1180 Rx 8  02 FF FB FF FF FF 00 FF 
   1415      2796.371 DT 18FFDC00 Rx 8  22 FF FF D2 24 23 00 FF 
   1416      2799.935 DT 0CEF0100 Rx 8  B0 20 00 00 00 63 58 00 
   1417      2800.507 DT 18FEF100 Rx 8  FF 00 00 F0 FF C7 1F FF 
   1418      2804.167 DT 04EF001C Rx 8  BE 48 FB BE BE 68 FB 9A 
   1419      2804.927 DT 0CF00400 Rx 8  FF 7D 7D 00 00 00 FF FF 
   1420      2814.274 DT 04EF001C Rx 8  16 4B 4E FD 16 0B 4E B9 
   1421      2819.902 DT 0CEF1100 Rx 8  82 CE 7B 27 84 93 BE 19 
   1422      2820.482 DT 0CEF0100 Rx 8  B0 20 00 00 00 63 58 00 
   1423      2824.378 DT 04EF001C Rx 8  D7 4D B9 F3 D7 0D B9 B7 
   1424      2824.962 DT 0CF00400 Rx 8  FF 7D 7D 00 00 00 FF FF 
   1425      2829.927 DT 0CF00300 Rx 8  DF 00 4F FF 00 FF FF FF 
   1426      2830.479 DT 19F10D13 Rx 8  18 AD 00 2E 02 82 00 E5 
   1427      2832.115 DT 19F21139 Rx 8  00 00 00 FF F0 42 18 00 
   1428      2834.495 DT 04EF001C Rx 8  97 50 13 EE 97 30 13 8A 
   1429      2835.091 DT 09F20000 Rx 8  00 00 00 FF FF FF FF FF 
   1430      2835.655 DT 18FFDC00 Rx 8  40 14 01 00 00 54 79 19 
   1431      2839.915 DT 18FFDC00 Rx 8  41 00 00 00 00 A4 FF 7A 
   1432      2840.495 DT 0CEF0100 Rx 8  B0 20 00 00 00 63 58 00 
   1433      2844.594 DT 04EF001C Rx 8  57 53 CD ED 57 13 CD A9 
   1434      2845.170 DT 0CF00400 Rx 8  FF 7D 7D 00 00 00 FF FF 
   1435      2845.730 DT 18FFDC00 Rx 8  42 FF FF D2 24 23 00 FF 
   1436      2854.722 DT 04EF001C Rx 8  14 56 A4 F0 14 16 A4 B4 
   1437      2859.930 DT 18FEF200 Rx 8  00 00 FF FF FF FF 37 FF 
   1438      2860.510 DT 0CEF0100 Rx 8  B0 20 00 00 00 63 58 00 
   1439      2861.055 DT 18FF50E0 Rx 8  00 84 F7 BD 79 94 73 08 
   1440      2862.791 DT 18FF1CF3 Rx 8  00 00 00 00 00 00 00 00 
   1441      2864.835 DT 04EF001C Rx 8  D4 58 12 FE D4 18 12 BA 
   1442      2865.411 DT 0CF00400 Rx 8  FF 7D 7D 00 00 00 FF FF 
   1443      2867.611 DT 09F112F8 Rx 8  FF F6 70 00 00 FF 7F FD 
   1444      2869.899 DT 0CEF1100 Rx 8  48 C1 F7 F4 E0 6D BF BD 
   1445      2872.246 DT 0DF50B9B Rx 8  50 FF FF FF FF 00 00 FF 
   1446      2874.934 DT 04EF001C Rx 8  95 5B 49 F5 95 1B 49 B1 
   1447      2879.934 DT 0CEF0100 Rx 8  B0 20 00 00 00 63 58 00 
   1448      2880.514 DT 0CF00300 Rx 8  DF 00 4F FF 00 FF FF FF 
   1449      2884.910 DT 18FFDC00 Rx 8  60 14 01 00 00 54 79 19 
   1450      2885.462 DT 04EF001C Rx 8  54 5E A6 F8 54 7E A6 DC 
   1451      2886.038 DT 0CF00400 Rx 8  FF 7D 7D 00 00 00 FF FF 
   1452      2889.910 DT 18FFDC00 Rx 8  61 00 00 00 00 A4 FF 7A 
   1453      2894.890 DT 18FF1C17 Rx 8  00 00 00 00 00 00 00 00 
   1454      2895.466 DT 04EF001C Rx 8  17 41 1F FF 17 41 1F FB 
   1455      2896.055 DT 18FF1080 Rx 8  00 00 00 FF FF FF FD 00 
   1456      2896.619 DT 18FFDC00 Rx 8  62 FF FF D2 24 23 00 FF 
   1457      2897.340 DT 18FF1180 Rx 8  02 FF FB FF FF FF 00 FF 
   1458      2898.288 DT 18FF1380 Rx 8  00 00 00 00 3F C0 C0 06 
   1459      2899.936 DT 0CEF0100 Rx 8  B0 20 00 00 00 63 58 00 
   1460      2900.508 DT 18FEF100 Rx 8  FF 00 00 F0 FF C7 1F FF 
   1461      2904.920 DT 0CF00400 Rx 8  FF 7D 7D 00 00 00 FF FF 
   1462      2905.468 DT 04EF001C Rx 8  D5 43 CB ED 2A A4 34 0E 
   1463      2915.379 DT 04EF001C Rx 8  97 46 A3 F8 68 A1 5C 1B 
   1464      2919.907 DT 0CEF1100 Rx 8  3E F8 61 CB 41 52 1F 3A 
   1465      2920.487 DT 0CEF0100 Rx 8  B0 20 00 00 00 63 58 00 
   1466      2922.791 DT 18FF1CF3 Rx 8  00 00 00 00 00 00 00 00 
   1467      2923.883 DT 1DEFFFF8 Rx 8  20 0C E5 98 6C 07 02 02 
   1468      2924.563 DT 1DEFFFF8 Rx 8  21 41 00 89 00 00 00 FF 
   1469      2925.139 DT 0CF00400 Rx 8  FF 7D 7D 00 00 00 FF FF 
   1470      2925.691 DT 04EF001C Rx 8  55 49 1F E7 AA 8E E0 24 
   1471      2926.251 DT 1DEFFFF8 Rx 8  40 0C E5 98 6C 07 02 02 
   1472      2927.260 DT 1DEFFFF8 Rx 8  41 43 00 01 00 00 00 FF 
   1473      2928.228 DT 1DEFFFF8 Rx 8  60 09 E5 98 6C 07 02 02 
   1474      2928.792 DT 09F8021C Rx 8  65 FC 86 DB 00 00 FF FF 
   1475      2929.368 DT 1DEFFFF8 Rx 8  61 28 00 00 FF FF FF FF 
   1476      2929.908 DT 09F8011C Rx 8  C4 6C 26 18 4E 6A 5B C1 
   1477      2930.488 DT 0CF00300 Rx 8  DF 00 4F FF 00 FF FF FF 
   1478      2931.040 DT 19F10D13 Rx 8  19 AD 00 2E 02 82 00 E5 
   1479      2931.604 DT 19FA031C Rx 8  65 D2 44 00 62 00 36 00 
   1480      2932.164 DT 19F21139 Rx 8  00 00 00 FF 54 43 18 00 
   1481      2932.724 DT 0DF0101C Rx 8  65 F0 41 4F D0 E6 53 27 
   1482      2933.288 DT 1DEFFFF8 Rx 8  80 09 E5 98 6C 07 02 02 
   1483      2933.844 DT 18FEE81C Rx 8  02 A1 00 00 4D 64 66 7E 
   1484      2934.428 DT 1DEFFFF8 Rx 8  81 34 00 00 FF FF FF FF 
   1485      2935.024 DT 09F20000 Rx 8  00 00 00 FF FF FF FF FF 
   1486      2935.588 DT 18FFDC00 Rx 8  80 14 01 00 00 54 7A 19 
   1487      2936.144 DT 1DEFFFF8 Rx 8  A0 09 E5 98 6C 07 02 02 
   1488      2936.692 DT 04EF001C Rx 8  12 4D 7A DB ED 8A 85 18 
   1489      2937.268 DT 1DEFFFF8 Rx 8  A1 1B 00 FF FF FF FF FF 
   1490      2937.824 DT 19FA041C Rx 8  80 AB 65 FF 0E 05 1A 04 
   1491      2938.384 DT 1DEFFFF8 Rx 8  C0 09 E5 98 6C 07 02 02 
   1492      2938.956 DT 19FA041C Rx 8  81 1E 2D D0 07 FF FF FF 
   1493      2939.536 DT 1DEFFFF8 Rx 8  C1 1D 00 FF FF FF FF FF 
   1494      2940.116 DT 0CEF0100 Rx 8  B0 20 00 00 00 63 58 00 
   1495      2940.688 DT 18FFDC00 Rx 8  81 00 00 00 00 A4 FF 7A 
   1496      2941.256 DT 19FA041C Rx 8  82 FF FF 0A 3E 17 BC B1 
   1497      2942.784 DT 19FA041C Rx 8  83 04 10 FF FF FF FF FF 
   1498      2943.768 DT 19FA041C Rx 8  84 0D 5B 0E B6 1C E4 0C 
   1499      2944.796 DT 19FA041C Rx 8  85 FF FF FF FF FF 0F DD 
   1500      2945.372 DT 0CF00400 Rx 8  FF 7D 7D 00 00 00 FF FF 
   1501      2945.916 DT 04EF001C Rx 8  0F 50 8F 2E F0 B7 70 CD 
   1502      2946.480 DT 18FFDC00 Rx 8  82 FF FF D2 24 23 00 FF 
   1503      2947.040 DT 19FA041C Rx 8  86 22 04 29 D8 0E FF FF 
   1504      2947.876 DT 19FA041C Rx 8  87 FF FF FF 10 D6 06 0A 
   1505      2948.839 DT 19FA041C Rx 8  88 BE D0 07 FF FF FF FF 
   1506      2949.839 DT 19FA041C Rx 8  89 FF 12 A3 34 8C 23 30 
   1507      2950.423 DT 18FECA00 Rx 8  40 FF 00 00 00 00 FF FF 
   1508      2951.003 DT 19FA041C Rx 8  8A 11 FF FF FF FF FF 17 
   1509      2951.875 DT 19FA041C Rx 8  8B 89 30 8C D2 CC 10 FF 
   1510      2952.891 DT 19FA041C Rx 8  8C FF FF FF FF 18 F0 0A 
   1511      2953.902 DT 19FA041C Rx 8  8D 08 52 54 0B FF FF FF 
   1512      2954.902 DT 19FA041C Rx 8  8E FF FF 1A 00 00 88 A9 
   1513      2955.838 DT 04EF001C Rx 8  DB 52 4D 8C 24 F5 B2 2F 
   1514      2956.938 DT 19FA041C Rx 8  8F A4 06 FF FF FF FF FF 
   1515      2957.933 DT 19FA041C Rx 8  90 1B 68 10 48 D5 04 10 
   1516      2958.965 DT 19FA041C Rx 8  91 FF FF FF FF FF 1D B9 
   1517      2959.934 DT 18FEF200 Rx 8  00 00 FF FF FF FF 37 FF 
   1518      2960.514 DT 0CEF0100 Rx 8  B0 20 00 00 00 63 58 00 
   1519      2961.086 DT 19FA041C Rx 8  92 0F 36 74 10 0E FF FF 
   1520      2962.006 DT 19FA041C Rx 8  93 FF FF FF 20 C9 04 16 
   1521      2962.550 DT 18FF50E0 Rx 8  00 84 F7 BD 79 8D 73 09 
   1522      2963.126 DT 19FA041C Rx 8  94 8A FC 08 FF FF FF FF 
   1523      2963.990 DT 19FA041C Rx 8  95 FF 2C B6 1C FC 85 F8 
   1524      2964.922 DT 0CF00400 Rx 8  FF 7D 7D 00 00 00 FF FF 
   1525      2965.498 DT 19FA041C Rx 8  96 11 FF FF FF FF FF 30 
   1526      2966.970 DT 04EF001C Rx 8  8A 55 26 03 75 D2 D9 80 
   1527      2968.058 DT 19FA041C Rx 8  96 11 FF FF FF FF FF 30 
   1528      2969.045 DT 19FA041C Rx 8  97 A9 1A 30 8E CC 10 FF 
   1529      2969.893 DT 0CEF1100 Rx 8  F7 F4 35 C0 97 B0 3B CE 
   1530      2970.477 DT 19FA041C Rx 8  98 FF FF FF FF FF FF FF 
   1531      2971.045 DT 15FD069B Rx 8  9F E5 75 FF FF FF FF FF 
   1532      2976.069 DT 04EF001C Rx 8  80 57 3C 51 7F D0 C3 D2 
