;$FILEVERSION=2.0
;$STARTTIME=45855.3738572454
;$COLUMNS=N,O,T,I,d,l,D
;
;   Start time: 7/17/2025 08:58:21.266.0
;   Generated by PCAN-View v5.3.0.942
;   Message   Time    Type ID     Rx/Tx
;   Number    Offset  |    [hex]  |  Data Length
;   |         [ms]    |    |      |  |  Data [hex] ...
;   |         |       |    |      |  |  |
;---+-- ------+------ +- --+----- +- +- +- +- -- -- -- -- -- -- --
      1      6131.238 ST          Rx    00 00 00 08
      2      6131.266 DT 09F112F8 Rx 8  FF AE 6E 00 00 FF 7F FD 
      3      6132.751 DT 1DEFFFF8 Rx 8  E0 0C E5 98 6C 07 02 02 
      4      6133.463 DT 1DEFFFF8 Rx 8  E1 41 00 89 00 00 00 FF 
      5      6134.467 DT 1DEFFFF8 Rx 8  00 0C E5 98 6C 07 02 02 
      6      6135.475 DT 1DEFFFF8 Rx 8  01 43 00 01 00 00 00 FF 
      7      6136.464 DT 1DEFFFF8 Rx 8  20 09 E5 98 6C 07 02 02 
      8      6137.476 DT 1DEFFFF8 Rx 8  21 28 00 00 FF FF FF FF 
      9      6140.060 DT 1DEFFFF8 Rx 8  40 09 E5 98 6C 07 02 02 
     10      6141.032 DT 1DEFFFF8 Rx 8  41 34 00 00 FF FF FF FF 
     11      6142.457 DT 1DEFFFF8 Rx 8  60 09 E5 98 6C 07 02 02 
     12      6143.325 DT 1DEFFFF8 Rx 8  61 1B 00 FF FF FF FF FF 
     13      6144.461 DT 1DEFFFF8 Rx 8  80 09 E5 98 6C 07 02 02 
     14      6145.477 DT 1DEFFFF8 Rx 8  81 1D 00 FF FF FF FF FF 
     15      6146.454 DT 1DEFFFF8 Rx 8  A0 0C E5 98 6C 07 02 02 
     16      6147.470 DT 1DEFFFF8 Rx 8  A1 41 00 89 00 00 00 FF 
     17      6149.986 DT 1DEFFFF8 Rx 8  C0 0C E5 98 6C 07 02 02 
     18      6150.694 DT 1DEFFFF8 Rx 8  C1 43 00 01 00 00 00 FF 
     19      6151.735 DT 1DEFFFF8 Rx 8  E0 09 E5 98 6C 07 02 02 
     20      6152.475 DT 1DEFFFF8 Rx 8  E1 28 00 00 FF FF FF FF 
     21      6153.459 DT 1DEFFFF8 Rx 8  00 09 E5 98 6C 07 02 02 
     22      6154.331 DT 1DEFFFF8 Rx 8  01 34 00 00 FF FF FF FF 
     23      6155.464 DT 1DEFFFF8 Rx 8  20 09 E5 98 6C 07 02 02 
     24      6156.336 DT 1DEFFFF8 Rx 8  21 1B 00 FF FF FF FF FF 
     25      6157.456 DT 1DEFFFF8 Rx 8  40 09 E5 98 6C 07 02 02 
     26      6159.997 DT 1DEFFFF8 Rx 8  41 1D 00 FF FF FF FF FF 
     27      6160.661 DT 09F112F8 Rx 8  FF A5 6E 00 00 FF 7F FD 
     28      6161.457 DT 1DEFFFF8 Rx 8  60 0C E5 98 6C 07 02 02 
     29      6162.465 DT 1DEFFFF8 Rx 8  61 41 00 89 00 00 00 FF 
     30      6163.458 DT 1DEFFFF8 Rx 8  80 0C E5 98 6C 07 02 02 
     31      6164.754 DT 1DEFFFF8 Rx 8  81 43 00 01 00 00 00 FF 
     32      6165.450 DT 1DEFFFF8 Rx 8  A0 09 E5 98 6C 07 02 02 
     33      6166.474 DT 1DEFFFF8 Rx 8  A1 28 00 00 FF FF FF FF 
     34      6167.279 ST          Rx    00 00 00 00
     35      6167.307 DT 1DEFFFF8 Rx 8  C0 09 E5 98 6C 07 02 02 
     36      6170.012 DT 1DEFFFF8 Rx 8  C1 34 00 00 FF FF FF FF 
     37      6170.680 DT 1DEFFFF8 Rx 8  E0 09 E5 98 6C 07 02 02 
     38      6171.328 DT 1DEFFFF8 Rx 8  E1 1B 00 FF FF FF FF FF 
     39      6172.465 DT 1DEFFFF8 Rx 8  00 09 E5 98 6C 07 02 02 
     40      6173.485 DT 1DEFFFF8 Rx 8  01 1D 00 FF FF FF FF FF 
     41      6174.461 DT 09F112F8 Rx 8  FF AA 6E 00 00 FF 7F FD 
     42      6175.465 DT 1DEFFFF8 Rx 8  20 0A E5 98 EE 04 04 04 
     43      6176.486 DT 1DEFFFF8 Rx 8  21 03 00 00 00 FF FF FF 
     44      6177.709 DT 1DEFFFF8 Rx 8  40 0C E5 98 6C 07 02 02 
     45      6179.977 DT 1DEFFFF8 Rx 8  41 41 00 89 00 00 00 FF 
     46      6180.649 DT 1DEFFFF8 Rx 8  60 0C E5 98 6C 07 02 02 
     47      6181.298 DT 1DEFFFF8 Rx 8  61 43 00 01 00 00 00 FF 
     48      6182.434 DT 1DEFFFF8 Rx 8  80 09 E5 98 6C 07 02 02 
     49      6183.302 DT 1DEFFFF8 Rx 8  81 28 00 00 FF FF FF FF 
     50      6184.427 DT 1DEFFFF8 Rx 8  A0 09 E5 98 6C 07 02 02 
     51      6185.443 DT 1DEFFFF8 Rx 8  A1 34 00 00 FF FF FF FF 
     52      6186.431 DT 1DEFFFF8 Rx 8  C0 09 E5 98 6C 07 02 02 
     53      6187.447 DT 1DEFFFF8 Rx 8  C1 1B 00 FF FF FF FF FF 
     54      6189.964 DT 1DEFFFF8 Rx 8  E0 09 E5 98 6C 07 02 02 
     55      6190.948 DT 1DEFFFF8 Rx 8  E1 1D 00 FF FF FF FF FF 
     56      6192.440 DT 09F112F8 Rx 8  FF AB 6E 00 00 FF 7F FD 
     57      6193.288 DT 1DEFFFF8 Rx 8  00 0C E5 98 6C 07 02 02 
     58      6194.445 DT 1DEFFFF8 Rx 8  01 41 00 89 00 00 00 FF 
     59      6195.285 DT 1DEFFFF8 Rx 8  20 0C E5 98 6C 07 02 02 
     60      6196.449 DT 1DEFFFF8 Rx 8  21 43 00 01 00 00 00 FF 
     61      6197.429 DT 1DEFFFF8 Rx 8  40 09 E5 98 6C 07 02 02 
     62      6199.974 DT 1DEFFFF8 Rx 8  41 28 00 00 FF FF FF FF 
     63      6200.626 DT 1DEFFFF8 Rx 8  60 09 E5 98 6C 07 02 02 
     64      6201.450 DT 1DEFFFF8 Rx 8  61 34 00 00 FF FF FF FF 
     65      6202.714 DT 1DEFFFF8 Rx 8  80 09 E5 98 6C 07 02 02 
     66      6203.446 DT 1DEFFFF8 Rx 8  81 1B 00 FF FF FF FF FF 
     67      6204.431 DT 1DEFFFF8 Rx 8  A0 09 E5 98 6C 07 02 02 
     68      6205.447 DT 1DEFFFF8 Rx 8  A1 1D 00 FF FF FF FF FF 
     69      6206.431 DT 1DEFFFF8 Rx 8  C0 0C E5 98 6C 07 02 02 
     70      6207.295 DT 1DEFFFF8 Rx 8  C1 41 00 89 00 00 00 FF 
     71      6210.052 DT 1DEFFFF8 Rx 8  E0 0C E5 98 6C 07 02 02 
     72      6210.744 DT 1DEFFFF8 Rx 8  E1 43 00 01 00 00 00 FF 
     73      6212.432 DT 1DEFFFF8 Rx 8  00 09 E5 98 6C 07 02 02 
     74      6213.453 DT 1DEFFFF8 Rx 8  01 28 00 00 FF FF FF FF 
     75      6214.437 DT 1DEFFFF8 Rx 8  20 09 E5 98 6C 07 02 02 
     76      6215.729 DT 1DEFFFF8 Rx 8  21 34 00 00 FF FF FF FF 
     77      6216.429 DT 1DEFFFF8 Rx 8  40 09 E5 98 6C 07 02 02 
     78      6217.458 DT 1DEFFFF8 Rx 8  41 1B 00 FF FF FF FF FF 
     79      6219.958 DT 1DEFFFF8 Rx 8  60 09 E5 98 6C 07 02 02 
     80      6220.654 DT 1DEFFFF8 Rx 8  61 1D 00 FF FF FF FF FF 
     81      6221.286 DT 09F112F8 Rx 8  FF A6 6E 00 00 FF 7F FD 
     82      6222.430 DT 1DEFFFF8 Rx 8  80 0C E5 98 6C 07 02 02 
     83      6223.443 DT 1DEFFFF8 Rx 8  81 41 00 89 00 00 00 FF 
     84      6224.427 DT 1DEFFFF8 Rx 8  A0 0C E5 98 6C 07 02 02 
     85      6225.443 DT 1DEFFFF8 Rx 8  A1 43 00 01 00 00 00 FF 
     86      6226.431 DT 1DEFFFF8 Rx 8  C0 09 E5 98 6C 07 02 02 
     87      6227.732 DT 1DEFFFF8 Rx 8  C1 28 00 00 FF FF FF FF 
     88      6229.980 DT 1DEFFFF8 Rx 8  E0 09 E5 98 6C 07 02 02 
     89      6230.664 DT 1DEFFFF8 Rx 8  E1 34 00 00 FF FF FF FF 
     90      6231.436 DT 1DEFFFF8 Rx 8  00 09 E5 98 6C 07 02 02 
     91      6232.457 DT 1DEFFFF8 Rx 8  01 1B 00 FF FF FF FF FF 
     92      6233.289 DT 1DEFFFF8 Rx 8  20 09 E5 98 6C 07 02 02 
     93      6234.453 DT 1DEFFFF8 Rx 8  21 1D 00 FF FF FF FF FF 
     94      6235.285 DT 09F112F8 Rx 8  FF 99 6E 00 00 FF 7F FD 
     95      6236.430 DT 1DEFFFF8 Rx 8  40 0C E5 98 6C 07 02 02 
     96      6237.446 DT 1DEFFFF8 Rx 8  41 41 00 89 00 00 00 FF 
     97      6239.958 DT 1DEFFFF8 Rx 8  60 0C E5 98 6C 07 02 02 
     98      6240.939 DT 1DEFFFF8 Rx 8  61 43 00 01 00 00 00 FF 
     99      6242.435 DT 1DEFFFF8 Rx 8  80 09 E5 98 6C 07 02 02 
    100      6243.455 DT 1DEFFFF8 Rx 8  81 28 00 00 FF FF FF FF 
    101      6244.427 DT 1DEFFFF8 Rx 8  A0 09 E5 98 6C 07 02 02 
    102      6245.448 DT 1DEFFFF8 Rx 8  A1 34 00 00 FF FF FF FF 
    103      6246.280 DT 1DEFFFF8 Rx 8  C0 09 E5 98 6C 07 02 02 
    104      6247.452 DT 1DEFFFF8 Rx 8  C1 1B 00 FF FF FF FF FF 
    105      6249.341 DT 1DEFFFF8 Rx 8  E0 09 E5 98 6C 07 02 02 
    106      6250.029 DT 1DEFFFF8 Rx 8  E1 1D 00 FF FF FF FF FF 
    107      6251.437 DT 1DEFFFF8 Rx 8  00 0C E5 98 6C 07 02 02 
    108      6252.726 DT 1DEFFFF8 Rx 8  01 41 00 89 00 00 00 FF 
    109      6253.434 DT 1DEFFFF8 Rx 8  20 0C E5 98 6C 07 02 02 
    110      6254.450 DT 1DEFFFF8 Rx 8  21 43 00 01 00 00 00 FF 
    111      6255.430 DT 1DEFFFF8 Rx 8  40 09 E5 98 6C 07 02 02 
    112      6256.455 DT 1DEFFFF8 Rx 8  41 28 00 00 FF FF FF FF 
    113      6257.427 DT 1DEFFFF8 Rx 8  60 09 E5 98 6C 07 02 02 
    114      6259.999 DT 1DEFFFF8 Rx 8  61 34 00 00 FF FF FF FF 
    115      6260.655 DT 1DEFFFF8 Rx 8  80 09 E5 98 6C 07 02 02 
    116      6261.304 DT 1DEFFFF8 Rx 8  81 1B 00 FF FF FF FF FF 
    117      6262.428 DT 1DEFFFF8 Rx 8  A0 09 E5 98 6C 07 02 02 
    118      6263.452 DT 1DEFFFF8 Rx 8  A1 1D 00 FF FF FF FF FF 
    119      6264.432 DT 09F112F8 Rx 8  FF 99 6E 00 00 FF 7F FD 
    120      6265.709 DT 1DEFFFF8 Rx 8  C0 0C E5 98 6C 07 02 02 
    121      6266.449 DT 1DEFFFF8 Rx 8  C1 41 00 89 00 00 00 FF 
    122      6267.429 DT 1DEFFFF8 Rx 8  E0 0C E5 98 6C 07 02 02 
    123      6269.977 DT 1DEFFFF8 Rx 8  E1 43 00 01 00 00 00 FF 
    124      6270.658 DT 1DEFFFF8 Rx 8  00 09 E5 98 6C 07 02 02 
    125      6271.458 DT 1DEFFFF8 Rx 8  01 28 00 00 FF FF FF FF 
    126      6272.438 DT 1DEFFFF8 Rx 8  20 09 E5 98 6C 07 02 02 
    127      6273.306 DT 1DEFFFF8 Rx 8  21 34 00 00 FF FF FF FF 
    128      6274.431 DT 1DEFFFF8 Rx 8  40 09 E5 98 6C 07 02 02 
    129      6275.307 DT 1DEFFFF8 Rx 8  41 1B 00 FF FF FF FF FF 
    130      6276.427 DT 1DEFFFF8 Rx 8  60 09 E5 98 6C 07 02 02 
    131      6277.435 DT 09F112F8 Rx 8  FF B4 6E 00 00 FF 7F FD 
    132      6306.436 DT 09F112F8 Rx 8  FF B3 6E 00 00 FF 7F FD 
    133      6419.487 DT 1DEFFFF8 Rx 8  E0 0C E5 98 6C 07 02 02 
    134      6420.195 DT 1DEFFFF8 Rx 8  E1 41 00 89 00 00 00 FF 
    135      6421.444 DT 1DEFFFF8 Rx 8  00 0C E5 98 6C 07 02 02 
    136      6422.464 DT 1DEFFFF8 Rx 8  01 43 00 00 00 00 00 FF 
    137      6423.444 DT 1DEFFFF8 Rx 8  20 09 E5 98 6C 07 02 02 
    138      6424.452 DT 1DEFFFF8 Rx 8  21 28 00 00 FF FF FF FF 
    139      6425.436 DT 1DEFFFF8 Rx 8  40 09 E5 98 6C 07 02 02 
    140      6426.457 DT 1DEFFFF8 Rx 8  41 34 00 00 FF FF FF FF 
    141      6427.433 DT 1DEFFFF8 Rx 8  60 09 E5 98 6C 07 02 02 
    142      6430.001 DT 1DEFFFF8 Rx 8  61 1B 00 FF FF FF FF FF 
    143      6430.937 DT 1DEFFFF8 Rx 8  80 09 E5 98 6C 07 02 02 
    144      6432.454 DT 1DEFFFF8 Rx 8  81 1D 00 FF FF FF FF FF 
    145      6452.438 DT 09F112F8 Rx 8  FF B1 6E 00 00 FF 7F FD 
    146      6594.721 DT 09F112F8 Rx 8  FF AE 6E 00 00 FF 7F FD 
    147      6732.449 DT 09F112F8 Rx 8  FF AB 6E 00 00 FF 7F FD 
    148      6874.448 DT 09F112F8 Rx 8  FF A7 6E 00 00 FF 7F FD 
    149      6920.117 DT 1DEFFFF8 Rx 8  A0 0C E5 98 6C 07 02 02 
    150      6920.814 DT 1DEFFFF8 Rx 8  A1 41 00 89 00 00 00 FF 
    151      6922.726 DT 1DEFFFF8 Rx 8  C0 0C E5 98 6C 07 02 02 
    152      6923.466 DT 1DEFFFF8 Rx 8  C1 43 00 00 00 00 00 FF 
    153      6924.447 DT 1DEFFFF8 Rx 8  E0 09 E5 98 6C 07 02 02 
    154      6925.463 DT 1DEFFFF8 Rx 8  E1 28 00 00 FF FF FF FF 
    155      6926.451 DT 1DEFFFF8 Rx 8  00 09 E5 98 6C 07 02 02 
    156      6927.471 DT 1DEFFFF8 Rx 8  01 34 00 00 FF FF FF FF 
    157      6929.980 DT 1DEFFFF8 Rx 8  20 09 E5 98 6C 07 02 02 
    158      6930.680 DT 1DEFFFF8 Rx 8  21 1B 00 FF FF FF FF FF 
    159      6931.448 DT 1DEFFFF8 Rx 8  40 09 E5 98 6C 07 02 02 
    160      6932.464 DT 1DEFFFF8 Rx 8  41 1D 00 FF FF FF FF FF 
    161      7011.254 DT 09F112F8 Rx 8  FF A0 6E 00 00 FF 7F FD 
    162      7153.458 DT 09F112F8 Rx 8  FF 9B 6E 00 00 FF 7F FD 
    163      7154.450 DT 1DEFFFF8 Rx 8  60 0A E5 98 EE 04 04 04 
    164      7155.470 DT 1DEFFFF8 Rx 8  61 03 00 00 00 FF FF FF 
    165      7189.073 DT 18EEFF1C Rx 8  02 04 45 0E 00 00 00 42 
    166      7192.117 DT 05F8021C Rx 8  FF FC 00 00 00 00 FF FF 
    167      7202.220 DT 05F8021C Rx 8  FF FC 00 00 00 00 FF FF 
    168      7211.331 DT 09F8011C Rx 8  00 00 00 00 00 00 00 00 
    169      7212.335 DT 05F8021C Rx 8  FF FC 00 00 00 00 FF FF 
    170      7213.363 DT 19FA031C Rx 8  FF C2 00 00 00 00 00 00 
    171      7214.371 DT 0DF0101C Rx 8  FF 00 00 00 00 00 00 00 
    172      7215.379 DT 18FEE81C Rx 8  FF FF FF FF FF FF FF FF 
    173      7222.447 DT 05F8021C Rx 8  FF FC 00 00 00 00 FF FF 
    174      7232.558 DT 05F8021C Rx 8  FF FC 00 00 00 00 FF FF 
    175      7242.684 DT 05F8021C Rx 8  FF FC 00 00 00 00 FF FF 
    176      7252.780 DT 05F8021C Rx 8  FF FC 00 00 00 00 FF FF 
    177      7262.891 DT 05F8021C Rx 8  FF FC 00 00 00 00 FF FF 
    178      7273.002 DT 05F8021C Rx 8  FF FC 00 00 00 00 FF FF 
    179      7283.114 DT 05F8021C Rx 8  FF FC 00 00 00 00 FF FF 
    180      7291.218 DT 09F112F8 Rx 8  FF 96 6E 00 00 FF 7F FD 
    181      7293.226 DT 05F8021C Rx 8  FF FC 00 00 00 00 FF FF 
    182      7303.337 DT 05F8021C Rx 8  FF FC 00 00 00 00 FF FF 
    183      7313.460 DT 05F8021C Rx 8  FF FC 00 00 00 00 FF FF 
    184      7323.559 DT 05F8021C Rx 8  FF FC 00 00 00 00 FF FF 
    185      7324.652 DT 19FA041C Rx 8  C0 C3 FF FF 10 3F 00 00 
    186      7325.627 DT 19FA041C Rx 8  C1 00 00 00 00 FF FF FF 
    187      7326.631 DT 19FA041C Rx 8  C2 FF FF 36 00 00 00 00 
    188      7327.648 DT 19FA041C Rx 8  C3 00 00 FF FF FF FF FF 
    189      7328.667 DT 19FA041C Rx 8  C4 FB 00 00 00 00 00 00 
    190      7329.672 DT 19FA041C Rx 8  C5 FF FF FF FF FF F9 00 
    191      7330.687 DT 19FA041C Rx 8  C6 00 00 00 00 00 FF FF 
    192      7331.696 DT 19FA041C Rx 8  C7 FF FF FF FE 00 00 00 
    193      7332.712 DT 19FA041C Rx 8  C8 00 00 00 FF FF FF FF 
    194      7333.672 DT 05F8021C Rx 8  FF FC 00 00 00 00 FF FF 
    195      7334.740 DT 19FA041C Rx 8  C9 FF FD 00 00 00 00 00 
    196      7335.727 DT 19FA041C Rx 8  CA 00 FF FF FF FF FF 4C 
    197      7336.756 DT 19FA041C Rx 8  CB 00 00 00 00 00 00 FF 
    198      7337.756 DT 19FA041C Rx 8  CC FF FF FF FF F7 00 00 
    199      7338.768 DT 19FA041C Rx 8  CD 00 00 00 00 FF FF FF 
    200      7339.784 DT 19FA041C Rx 8  CE FF FF BE 00 00 00 00 
    201      7340.792 DT 19FA041C Rx 8  CF 00 00 FF FF FF FF FF 
    202      7341.808 DT 19FA041C Rx 8  D0 55 00 00 00 00 00 00 
    203      7342.804 DT 19FA041C Rx 8  D1 FF FF FF FF FF CF 00 
    204      7343.780 DT 05F8021C Rx 8  FF FC 00 00 00 00 FF FF 
    205      7344.848 DT 19FA041C Rx 8  D2 00 00 00 00 00 FF FF 
    206      7345.848 DT 19FA041C Rx 8  D3 FF FF FF BB 00 00 00 
    207      7346.863 DT 19FA041C Rx 8  D4 00 00 00 FF FF FF FF 
    208      7347.871 DT 19FA041C Rx 8  D5 FF D7 00 00 00 00 00 
    209      7348.887 DT 19FA041C Rx 8  D6 00 FF FF FF FF FF F3 
    210      7349.912 DT 19FA041C Rx 8  D7 00 00 00 00 00 00 FF 
    211      7350.907 DT 19FA041C Rx 8  D8 FF FF FF FF CE 00 00 
    212      7351.931 DT 19FA041C Rx 8  D9 00 00 00 00 FF FF FF 
    213      7352.936 DT 19FA041C Rx 8  DA FF FF 14 00 00 00 00 
    214      7353.907 DT 05F8021C Rx 8  FF FC 00 00 00 00 FF FF 
    215      7354.971 DT 19FA041C Rx 8  DB 00 00 FF FF FF FF FF 
    216      7364.002 DT 05F8021C Rx 8  FF FC 00 00 00 00 FF FF 
    217      7374.105 DT 05F8021C Rx 8  FF FC 00 00 00 00 FF FF 
    218      7384.216 DT 05F8021C Rx 8  FF FC 00 00 00 00 FF FF 
    219      7394.328 DT 05F8021C Rx 8  FF FC 00 00 00 00 FF FF 
    220      7404.439 DT 05F8021C Rx 8  FF FC 00 00 00 00 FF FF 
    221      7414.550 DT 05F8021C Rx 8  FF FC 00 00 00 00 FF FF 
    222      7424.677 DT 05F8021C Rx 8  FF FC 00 00 00 00 FF FF 
    223      7430.193 DT 1DEFFFF8 Rx 8  80 0C E5 98 6C 07 02 02 
    224      7430.881 DT 1DEFFFF8 Rx 8  81 41 00 89 00 00 00 FF 
    225      7432.502 DT 1DEFFFF8 Rx 8  A0 0C E5 98 6C 07 02 02 
    226      7433.518 DT 1DEFFFF8 Rx 8  A1 43 00 01 00 00 00 FF 
    227      7434.506 DT 1DEFFFF8 Rx 8  C0 09 E5 98 6C 07 02 02 
    228      7435.086 DT 05F8021C Rx 8  FF FC 00 00 00 00 FF FF 
    229      7435.670 DT 1DEFFFF8 Rx 8  C1 28 00 00 FF FF FF FF 
    230      7436.510 DT 1DEFFFF8 Rx 8  E0 09 E5 98 6C 07 02 02 
    231      7437.375 DT 1DEFFFF8 Rx 8  E1 34 00 00 FF FF FF FF 
    232      7440.031 DT 1DEFFFF8 Rx 8  00 09 E5 98 6C 07 02 02 
    233      7440.999 DT 1DEFFFF8 Rx 8  01 1B 00 FF FF FF FF FF 
    234      7442.519 DT 1DEFFFF8 Rx 8  20 09 E5 98 6C 07 02 02 
    235      7443.536 DT 1DEFFFF8 Rx 8  21 1D 00 FF FF FF FF FF 
    236      7444.512 DT 09F112F8 Rx 8  FF 91 6E 00 00 FF 7F FD 
    237      7445.092 DT 05F8021C Rx 8  FF FC 00 00 00 00 FF FF 
    238      7454.994 DT 05F8021C Rx 8  FF FC 00 00 00 00 FF FF 
    239      7465.118 DT 05F8021C Rx 8  FF FC 00 00 00 00 FF FF 
    240      7475.218 DT 05F8021C Rx 8  FF FC 00 00 00 00 FF FF 
    241      7485.329 DT 05F8021C Rx 8  FF FC 00 00 00 00 FF FF 
    242      7495.440 DT 05F8021C Rx 8  FF FC 00 00 00 00 FF FF 
    243      7505.551 DT 05F8021C Rx 8  FF FC 00 00 00 00 FF FF 
    244      7515.662 DT 05F8021C Rx 8  FF FC 00 00 00 00 FF FF 
    245      7525.773 DT 05F8021C Rx 8  FF FC 00 00 00 00 FF FF 
    246      7535.885 DT 05F8021C Rx 8  FF FC 00 00 00 00 FF FF 
    247      7545.996 DT 05F8021C Rx 8  FF FC 00 00 00 00 FF FF 
    248      7556.107 DT 05F8021C Rx 8  FF FC 00 00 00 00 FF FF 
    249      7566.218 DT 05F8021C Rx 8  FF FC 00 00 00 00 FF FF 
    250      7575.518 DT 09F112F8 Rx 8  FF 8C 6E 00 00 FF 7F FD 
    251      7576.326 DT 05F8021C Rx 8  FF FC 00 00 00 00 FF FF 
    252      7586.437 DT 05F8021C Rx 8  FF FC 00 00 00 00 FF FF 
    253      7596.548 DT 05F8021C Rx 8  FF FC 00 00 00 00 FF FF 
    254      7606.660 DT 05F8021C Rx 8  FF FC 00 00 00 00 FF FF 
    255      7616.771 DT 05F8021C Rx 8  FF FC 00 00 00 00 FF FF 
    256      7626.882 DT 05F8021C Rx 8  FF FC 00 00 00 00 FF FF 
    257      7636.993 DT 05F8021C Rx 8  FF FC 00 00 00 00 FF FF 
    258      7647.104 DT 05F8021C Rx 8  FF FC 00 00 00 00 FF FF 
    259      7657.215 DT 05F8021C Rx 8  FF FC 00 00 00 00 FF FF 
    260      7667.326 DT 05F8021C Rx 8  FF FC 00 00 00 00 FF FF 
    261      7677.438 DT 05F8021C Rx 8  FF FC 00 00 00 00 FF FF 
    262      7687.549 DT 05F8021C Rx 8  FF FC 00 00 00 00 FF FF 
    263      7697.660 DT 05F8021C Rx 8  FF FC 00 00 00 00 FF FF 
    264      7707.771 DT 05F8021C Rx 8  FF FC 00 00 00 00 FF FF 
    265      7717.882 DT 05F8021C Rx 8  FF FC 00 00 00 00 FF FF 
    266      7721.239 DT 09F112F8 Rx 8  FF 88 6E 00 00 FF 7F FD 
    267      7725.982 DT 09F8011C Rx 8  00 00 00 00 00 00 00 00 
    268      7727.006 DT 19FA031C Rx 8  FF C2 00 00 00 00 00 00 
    269      7727.998 DT 05F8021C Rx 8  FF FC 00 00 00 00 FF FF 
    270      7729.022 DT 0DF0101C Rx 8  FF 00 00 00 00 00 00 00 
    271      7730.030 DT 18FEE81C Rx 8  FF FF FF FF FF FF FF FF 
    272      7731.050 DT 19FA041C Rx 8  00 1B FF FF 02 0C 00 00 
    273      7732.098 DT 19FA041C Rx 8  01 00 00 00 00 FF FF FF 
    274      7733.098 DT 19FA041C Rx 8  02 FF FF 2C 00 00 00 00 
    275      7734.117 DT 19FA041C Rx 8  03 00 00 FF FF FF FF FF 
    276      7738.109 DT 05F8021C Rx 8  FF FC 00 00 00 00 FF FF 
    277      7748.213 DT 05F8021C Rx 8  FF FC 00 00 00 00 FF FF 
    278      7758.324 DT 05F8021C Rx 8  FF FC 00 00 00 00 FF FF 
    279      7768.435 DT 05F8021C Rx 8  FF FC 00 00 00 00 FF FF 
    280      7778.547 DT 05F8021C Rx 8  FF FC 00 00 00 00 FF FF 
    281      7788.658 DT 05F8021C Rx 8  FF FC 00 00 00 00 FF FF 
    282      7798.769 DT 05F8021C Rx 8  FF FC 00 00 00 00 FF FF 
    283      7808.880 DT 05F8021C Rx 8  FF FC 00 00 00 00 FF FF 
    284      7818.992 DT 05F8021C Rx 8  FF FC 00 00 00 00 FF FF 
    285      7829.103 DT 05F8021C Rx 8  FF FC 00 00 00 00 FF FF 
    286      7839.214 DT 05F8021C Rx 8  FF FC 00 00 00 00 FF FF 
    287      7849.325 DT 05F8021C Rx 8  FF FC 00 00 00 00 FF FF 
    288      7859.436 DT 05F8021C Rx 8  FF FC 00 00 00 00 FF FF 
    289      7860.320 DT 09F112F8 Rx 8  FF 87 6E 00 00 FF 7F FD 
    290      7869.547 DT 05F8021C Rx 8  FF FC 00 00 00 00 FF FF 
    291      7879.658 DT 05F8021C Rx 8  FF FC 00 00 00 00 FF FF 
    292      7889.770 DT 05F8021C Rx 8  FF FC 00 00 00 00 FF FF 
    293      7899.881 DT 05F8021C Rx 8  FF FC 00 00 00 00 FF FF 
    294      7909.992 DT 05F8021C Rx 8  FF FC 00 00 00 00 FF FF 
    295      7920.103 DT 05F8021C Rx 8  FF FC 00 00 00 00 FF FF 
    296      7930.214 DT 05F8021C Rx 8  FF FC 00 00 00 00 FF FF 
    297      7940.155 DT 1DEFFFF8 Rx 8  40 0C E5 98 6C 07 02 02 
    298      7940.734 DT 05F8021C Rx 8  FF FC 00 00 00 00 FF FF 
    299      7941.311 DT 1DEFFFF8 Rx 8  41 41 00 89 00 00 00 FF 
    300      7942.519 DT 1DEFFFF8 Rx 8  60 0C E5 98 6C 07 02 02 
    301      7943.535 DT 1DEFFFF8 Rx 8  61 43 00 01 00 00 00 FF 
    302      7944.519 DT 1DEFFFF8 Rx 8  80 09 E5 98 6C 07 02 02 
    303      7945.820 DT 1DEFFFF8 Rx 8  81 28 00 00 FF FF FF FF 
    304      7946.516 DT 1DEFFFF8 Rx 8  A0 09 E5 98 6C 07 02 02 
    305      7947.532 DT 1DEFFFF8 Rx 8  A1 34 00 00 FF FF FF FF 
    306      7950.072 DT 1DEFFFF8 Rx 8  C0 09 E5 98 6C 07 02 02 
    307      7950.652 DT 05F8021C Rx 8  FF FC 00 00 00 00 FF FF 
    308      7951.232 DT 1DEFFFF8 Rx 8  C1 1B 00 FF FF FF FF FF 
    309      7952.517 DT 1DEFFFF8 Rx 8  E0 09 E5 98 6C 07 02 02 
    310      7953.537 DT 1DEFFFF8 Rx 8  E1 1D 00 FF FF FF FF FF 
    311      7960.545 DT 05F8021C Rx 8  FF FC 00 00 00 00 FF FF 
    312      7970.656 DT 05F8021C Rx 8  FF FC 00 00 00 00 FF FF 
    313      7980.767 DT 05F8021C Rx 8  FF FC 00 00 00 00 FF FF 
    314      7990.878 DT 05F8021C Rx 8  FF FC 00 00 00 00 FF FF 
    315      8000.989 DT 05F8021C Rx 8  FF FC 00 00 00 00 FF FF 
    316      8004.901 DT 09F112F8 Rx 8  FF 83 6E 00 00 FF 7F FD 
    317      8011.100 DT 05F8021C Rx 8  FF FC 00 00 00 00 FF FF 
    318      8021.211 DT 05F8021C Rx 8  FF FC 00 00 00 00 FF FF 
    319      8031.323 DT 05F8021C Rx 8  FF FC 00 00 00 00 FF FF 
    320      8041.434 DT 05F8021C Rx 8  FF FC 00 00 00 00 FF FF 
    321      8051.545 DT 05F8021C Rx 8  FF FC 00 00 00 00 FF FF 
    322      8061.656 DT 05F8021C Rx 8  FF FC 00 00 00 00 FF FF 
    323      8071.767 DT 05F8021C Rx 8  FF FC 00 00 00 00 FF FF 
    324      8081.878 DT 05F8021C Rx 8  FF FC 00 00 00 00 FF FF 
    325      8091.989 DT 05F8021C Rx 8  FF FC 00 00 00 00 FF FF 
    326      8102.101 DT 05F8021C Rx 8  FF FC 00 00 00 00 FF FF 
    327      8112.213 DT 05F8021C Rx 8  FF FC 00 00 00 00 FF FF 
    328      8122.323 DT 05F8021C Rx 8  FF FC 00 00 00 00 FF FF 
    329      8132.434 DT 05F8021C Rx 8  FF FC 00 00 00 00 FF FF 
    330      8142.545 DT 05F8021C Rx 8  FF FC 00 00 00 00 FF FF 
    331      8146.530 DT 09F112F8 Rx 8  FF 82 6E 00 00 FF 7F FD 
    332      8152.657 DT 05F8021C Rx 8  FF FC 00 00 00 00 FF FF 
    333      8162.764 DT 05F8021C Rx 8  FF FC 00 00 00 00 FF FF 
    334      8172.879 DT 05F8021C Rx 8  FF FC 00 00 00 00 FF FF 
    335      8182.924 DT 05F8021C Rx 8  FF FC 00 00 00 00 FF FF 
    336      8193.031 DT 05F8021C Rx 8  FF FC 00 00 00 00 FF FF 
    337      8203.142 DT 05F8021C Rx 8  FF FC 00 00 00 00 FF FF 
    338      8213.253 DT 05F8021C Rx 8  FF FC 00 00 00 00 FF FF 
    339      8223.364 DT 05F8021C Rx 8  FF FC 00 00 00 00 FF FF 
    340      8226.412 DT 09F8011C Rx 8  00 00 00 00 00 00 00 00 
    341      8227.432 DT 19FA031C Rx 8  FF C2 00 00 00 00 00 00 
    342      8228.436 DT 0DF0101C Rx 8  FF 00 00 00 00 00 00 00 
    343      8229.448 DT 18FEE81C Rx 8  FF FF FF FF FF FF FF FF 
    344      8230.476 DT 19FA041C Rx 8  20 1B FF FF 02 0C 00 00 
    345      8231.512 DT 19FA041C Rx 8  21 00 00 00 00 FF FF FF 
    346      8232.523 DT 19FA041C Rx 8  22 FF FF 2C 00 00 00 00 
    347      8233.484 DT 05F8021C Rx 8  FF FC 00 00 00 00 FF FF 
    348      8234.548 DT 19FA041C Rx 8  23 00 00 FF FF FF FF FF 
    349      8243.607 DT 05F8021C Rx 8  FF FC 00 00 00 00 FF FF 
    350      8253.699 DT 05F8021C Rx 8  FF FC 00 00 00 00 FF FF 
    351      8263.810 DT 05F8021C Rx 8  FF FC 00 00 00 00 FF FF 
    352      8273.921 DT 05F8021C Rx 8  FF FC 00 00 00 00 FF FF 
    353      8284.032 DT 05F8021C Rx 8  FF FC 00 00 00 00 FF FF 
    354      8285.468 DT 09F112F8 Rx 8  FF 80 6E 00 00 FF 7F FD 
    355      8294.143 DT 05F8021C Rx 8  FF FC 00 00 00 00 FF FF 
    356      8304.254 DT 05F8021C Rx 8  FF FC 00 00 00 00 FF FF 
    357      8314.365 DT 05F8021C Rx 8  FF FC 00 00 00 00 FF FF 
    358      8324.477 DT 05F8021C Rx 8  FF FC 00 00 00 00 FF FF 
    359      8334.588 DT 05F8021C Rx 8  FF FC 00 00 00 00 FF FF 
    360      8344.699 DT 05F8021C Rx 8  FF FC 00 00 00 00 FF FF 
    361      8354.810 DT 05F8021C Rx 8  FF FC 00 00 00 00 FF FF 
    362      8364.921 DT 05F8021C Rx 8  FF FC 00 00 00 00 FF FF 
    363      8375.028 DT 05F8021C Rx 8  FF FC 00 00 00 00 FF FF 
    364      8385.143 DT 05F8021C Rx 8  FF FC 00 00 00 00 FF FF 
    365      8395.251 DT 05F8021C Rx 8  FF FC 00 00 00 00 FF FF 
    366      8405.362 DT 05F8021C Rx 8  FF FC 00 00 00 00 FF FF 
    367      8415.473 DT 05F8021C Rx 8  FF FC 00 00 00 00 FF FF 
    368      8422.470 DT 09F112F8 Rx 8  FF 7F 6E 00 00 FF 7F FD 
    369      8425.585 DT 05F8021C Rx 8  FF FC 00 00 00 00 FF FF 
    370      8435.696 DT 05F8021C Rx 8  FF FC 00 00 00 00 FF FF 
    371      8440.381 DT 1DEFFFF8 Rx 8  00 0C E5 98 6C 07 02 02 
    372      8441.061 DT 1DEFFFF8 Rx 8  01 41 00 89 00 00 00 FF 
    373      8442.465 DT 1DEFFFF8 Rx 8  20 0C E5 98 6C 07 02 02 
    374      8443.481 DT 1DEFFFF8 Rx 8  21 43 00 01 00 00 00 FF 
    375      8444.461 DT 1DEFFFF8 Rx 8  40 09 E5 98 6C 07 02 02 
    376      8445.485 DT 1DEFFFF8 Rx 8  41 28 00 00 FF FF FF FF 
    377      8446.065 DT 05F8021C Rx 8  FF FC 00 00 00 00 FF FF 
    378      8446.621 DT 1DEFFFF8 Rx 8  60 09 E5 98 6C 07 02 02 
    379      8447.482 DT 1DEFFFF8 Rx 8  61 34 00 00 FF FF FF FF 
    380      8449.966 DT 1DEFFFF8 Rx 8  80 09 E5 98 6C 07 02 02 
    381      8450.662 DT 1DEFFFF8 Rx 8  81 1B 00 FF FF FF FF FF 
    382      8451.734 DT 1DEFFFF8 Rx 8  A0 09 E5 98 6C 07 02 02 
    383      8452.335 DT 1DEFFFF8 Rx 8  A1 1D 00 FF FF FF FF FF 
    384      8455.918 DT 05F8021C Rx 8  FF FC 00 00 00 00 FF FF 
    385      8466.030 DT 05F8021C Rx 8  FF FC 00 00 00 00 FF FF 
    386      8476.141 DT 05F8021C Rx 8  FF FC 00 00 00 00 FF FF 
    387      8486.253 DT 05F8021C Rx 8  FF FC 00 00 00 00 FF FF 
    388      8496.364 DT 05F8021C Rx 8  FF FC 00 00 00 00 FF FF 
    389      8506.475 DT 05F8021C Rx 8  FF FC 00 00 00 00 FF FF 
    390      8516.586 DT 05F8021C Rx 8  FF FC 00 00 00 00 FF FF 
    391      8526.697 DT 05F8021C Rx 8  FF FC 00 00 00 00 FF FF 
    392      8536.809 DT 05F8021C Rx 8  FF FC 00 00 00 00 FF FF 
    393      8546.920 DT 05F8021C Rx 8  FF FC 00 00 00 00 FF FF 
    394      8557.031 DT 05F8021C Rx 8  FF FC 00 00 00 00 FF FF 
    395      8557.599 DT 09F112F8 Rx 8  FF 80 6E 00 00 FF 7F FD 
    396      8559.331 DT 1DEFFFF8 Rx 8  C0 0A E5 98 EE 04 04 04 
    397      8560.047 DT 1DEFFFF8 Rx 8  C1 03 00 00 00 FF FF FF 
    398      8567.138 DT 05F8021C Rx 8  FF FC 00 00 00 00 FF FF 
    399      8577.249 DT 05F8021C Rx 8  FF FC 00 00 00 00 FF FF 
    400      8587.360 DT 05F8021C Rx 8  FF FC 00 00 00 00 FF FF 
    401      8597.475 DT 05F8021C Rx 8  FF FC 00 00 00 00 FF FF 
    402      8607.583 DT 05F8021C Rx 8  FF FC 00 00 00 00 FF FF 
    403      8617.694 DT 05F8021C Rx 8  FF FC 00 00 00 00 FF FF 
    404      8627.805 DT 05F8021C Rx 8  FF FC 00 00 00 00 FF FF 
    405      8637.916 DT 05F8021C Rx 8  FF FC 00 00 00 00 FF FF 
    406      8648.027 DT 05F8021C Rx 8  FF FC 00 00 00 00 FF FF 
    407      8658.138 DT 05F8021C Rx 8  FF FC 00 00 00 00 FF FF 
    408      8668.249 DT 05F8021C Rx 8  FF FC 00 00 00 00 FF FF 
    409      8678.361 DT 05F8021C Rx 8  FF FC 00 00 00 00 FF FF 
    410      8688.472 DT 05F8021C Rx 8  FF FC 00 00 00 00 FF FF 
    411      8698.583 DT 05F8021C Rx 8  FF FC 00 00 00 00 FF FF 
    412      8699.972 DT 09F112F8 Rx 8  FF 80 6E 00 00 FF 7F FD 
    413      8708.695 DT 05F8021C Rx 8  FF FC 00 00 00 00 FF FF 
    414      8718.805 DT 05F8021C Rx 8  FF FC 00 00 00 00 FF FF 
    415      8726.905 DT 09F8011C Rx 8  00 00 00 00 00 00 00 00 
    416      8727.929 DT 19FA031C Rx 8  FF C2 00 00 00 00 00 00 
    417      8728.925 DT 05F8021C Rx 8  FF FC 00 00 00 00 FF FF 
    418      8729.945 DT 0DF0101C Rx 8  FF 00 00 00 00 00 00 00 
    419      8730.953 DT 18FEE81C Rx 8  FF FF FF FF FF FF FF FF 
    420      8731.973 DT 19FA041C Rx 8  40 1B FF FF 02 0C 00 00 
    421      8733.017 DT 19FA041C Rx 8  41 00 00 00 00 FF FF FF 
    422      8734.025 DT 19FA041C Rx 8  42 FF FF 2C 00 00 00 00 
    423      8735.037 DT 19FA041C Rx 8  43 00 00 FF FF FF FF FF 
    424      8739.033 DT 05F8021C Rx 8  FF FC 00 00 00 00 FF FF 
    425      8749.141 DT 05F8021C Rx 8  FF FC 00 00 00 00 FF FF 
    426      8759.248 DT 05F8021C Rx 8  FF FC 00 00 00 00 FF FF 
    427      8769.359 DT 05F8021C Rx 8  FF FC 00 00 00 00 FF FF 
    428      8779.474 DT 05F8021C Rx 8  FF FC 00 00 00 00 FF FF 
    429      8789.581 DT 05F8021C Rx 8  FF FC 00 00 00 00 FF FF 
    430      8799.692 DT 05F8021C Rx 8  FF FC 00 00 00 00 FF FF 
    431      8809.803 DT 05F8021C Rx 8  FF FC 00 00 00 00 FF FF 
    432      8819.915 DT 05F8021C Rx 8  FF FC 00 00 00 00 FF FF 
    433      8830.026 DT 05F8021C Rx 8  FF FC 00 00 00 00 FF FF 
    434      8840.137 DT 05F8021C Rx 8  FF FC 00 00 00 00 FF FF 
    435      8840.853 DT 09F112F8 Rx 8  FF 7F 6E 00 00 FF 7F FD 
    436      8850.248 DT 05F8021C Rx 8  FF FC 00 00 00 00 FF FF 
    437      8860.359 DT 05F8021C Rx 8  FF FC 00 00 00 00 FF FF 
    438      8870.470 DT 05F8021C Rx 8  FF FC 00 00 00 00 FF FF 
    439      8880.581 DT 05F8021C Rx 8  FF FC 00 00 00 00 FF FF 
    440      8890.693 DT 05F8021C Rx 8  FF FC 00 00 00 00 FF FF 
    441      8900.804 DT 05F8021C Rx 8  FF FC 00 00 00 00 FF FF 
    442      8910.915 DT 05F8021C Rx 8  FF FC 00 00 00 00 FF FF 
    443      8921.026 DT 05F8021C Rx 8  FF FC 00 00 00 00 FF FF 
    444      8931.137 DT 05F8021C Rx 8  FF FC 00 00 00 00 FF FF 
    445      8941.248 DT 05F8021C Rx 8  FF FC 00 00 00 00 FF FF 
    446      8950.105 DT 1DEFFFF8 Rx 8  E0 0C E5 98 6C 07 02 02 
    447      8950.789 DT 1DEFFFF8 Rx 8  E1 41 00 89 00 00 00 FF 
    448      8951.369 DT 05F8021C Rx 8  FF FC 00 00 00 00 FF FF 
    449      8951.937 DT 1DEFFFF8 Rx 8  00 0C E5 98 6C 07 02 02 
    450      8953.493 DT 1DEFFFF8 Rx 8  01 43 00 01 00 00 00 FF 
    451      8954.333 DT 1DEFFFF8 Rx 8  20 09 E5 98 6C 07 02 02 
    452      8955.493 DT 1DEFFFF8 Rx 8  21 28 00 00 FF FF FF FF 
    453      8956.326 DT 1DEFFFF8 Rx 8  40 09 E5 98 6C 07 02 02 
    454      8957.774 DT 1DEFFFF8 Rx 8  41 34 00 00 FF FF FF FF 
    455      8959.955 DT 1DEFFFF8 Rx 8  60 09 E5 98 6C 07 02 02 
    456      8960.655 DT 1DEFFFF8 Rx 8  61 1B 00 FF FF FF FF FF 
    457      8961.471 DT 05F8021C Rx 8  FF FC 00 00 00 00 FF FF 
    458      8962.035 DT 1DEFFFF8 Rx 8  80 09 E5 98 6C 07 02 02 
    459      8963.495 DT 1DEFFFF8 Rx 8  81 1D 00 FF FF FF FF FF 
    460      8971.582 DT 05F8021C Rx 8  FF FC 00 00 00 00 FF FF 
    461      8980.859 DT 09F112F8 Rx 8  FF 79 6E 00 00 FF 7F FD 
    462      8981.691 DT 05F8021C Rx 8  FF FC 00 00 00 00 FF FF 
    463      8991.802 DT 05F8021C Rx 8  FF FC 00 00 00 00 FF FF 
    464      9001.912 DT 05F8021C Rx 8  FF FC 00 00 00 00 FF FF 
    465      9012.023 DT 05F8021C Rx 8  FF FC 00 00 00 00 FF FF 
    466      9022.134 DT 05F8021C Rx 8  FF FC 00 00 00 00 FF FF 
    467      9032.246 DT 05F8021C Rx 8  FF FC 00 00 00 00 FF FF 
    468      9042.357 DT 05F8021C Rx 8  FF FC 00 00 00 00 FF FF 
    469      9052.468 DT 05F8021C Rx 8  FF FC 00 00 00 00 FF FF 
    470      9062.580 DT 05F8021C Rx 8  FF FC 00 00 00 00 FF FF 
    471      9072.691 DT 05F8021C Rx 8  FF FC 00 00 00 00 FF FF 
    472      9082.802 DT 05F8021C Rx 8  FF FC 00 00 00 00 FF FF 
    473      9092.913 DT 05F8021C Rx 8  FF FC 00 00 00 00 FF FF 
    474      9103.024 DT 05F8021C Rx 8  FF FC 00 00 00 00 FF FF 
    475      9113.136 DT 05F8021C Rx 8  FF FC 00 00 00 00 FF FF 
    476      9121.136 DT 09F112F8 Rx 8  FF 78 6E 00 00 FF 7F FD 
    477      9123.248 DT 05F8021C Rx 8  FF FC 00 00 00 00 FF FF 
    478      9133.359 DT 05F8021C Rx 8  FF FC 00 00 00 00 FF FF 
    479      9143.469 DT 05F8021C Rx 8  FF FC 00 00 00 00 FF FF 
    480      9153.580 DT 05F8021C Rx 8  FF FC 00 00 00 00 FF FF 
    481      9163.691 DT 05F8021C Rx 8  FF FC 00 00 00 00 FF FF 
    482      9173.804 DT 05F8021C Rx 8  FF FC 00 00 00 00 FF FF 
    483      9183.908 DT 05F8021C Rx 8  FF FC 00 00 00 00 FF FF 
    484      9194.019 DT 05F8021C Rx 8  FF FC 00 00 00 00 FF FF 
    485      9204.126 DT 05F8021C Rx 8  FF FC 00 00 00 00 FF FF 
    486      9214.237 DT 05F8021C Rx 8  FF FC 00 00 00 00 FF FF 
    487      9224.348 DT 05F8021C Rx 8  FF FC 00 00 00 00 FF FF 
    488      9227.395 DT 09F8011C Rx 8  00 00 00 00 00 00 00 00 
    489      9228.415 DT 19FA031C Rx 8  FF C2 00 00 00 00 00 00 
    490      9229.423 DT 0DF0101C Rx 8  FF 00 00 00 00 00 00 00 
    491      9230.431 DT 18FEE81C Rx 8  FF FF FF FF FF FF FF FF 
    492      9231.447 DT 19FA041C Rx 8  60 1B FF FF 02 0C 00 00 
    493      9232.495 DT 19FA041C Rx 8  61 00 00 00 00 FF FF FF 
    494      9233.495 DT 19FA041C Rx 8  62 FF FF 2C 00 00 00 00 
    495      9234.467 DT 05F8021C Rx 8  FF FC 00 00 00 00 FF FF 
    496      9235.532 DT 19FA041C Rx 8  63 00 00 FF FF FF FF FF 
    497      9244.578 DT 05F8021C Rx 8  FF FC 00 00 00 00 FF FF 
    498      9254.682 DT 05F8021C Rx 8  FF FC 00 00 00 00 FF FF 
    499      9259.350 DT 09F112F8 Rx 8  FF 77 6E 00 00 FF 7F FD 
    500      9264.794 DT 05F8021C Rx 8  FF FC 00 00 00 00 FF FF 
    501      9274.905 DT 05F8021C Rx 8  FF FC 00 00 00 00 FF FF 
    502      9285.016 DT 05F8021C Rx 8  FF FC 00 00 00 00 FF FF 
    503      9295.127 DT 05F8021C Rx 8  FF FC 00 00 00 00 FF FF 
    504      9305.238 DT 05F8021C Rx 8  FF FC 00 00 00 00 FF FF 
    505      9315.349 DT 05F8021C Rx 8  FF FC 00 00 00 00 FF FF 
    506      9325.461 DT 05F8021C Rx 8  FF FC 00 00 00 00 FF FF 
    507      9335.572 DT 05F8021C Rx 8  FF FC 00 00 00 00 FF FF 
    508      9345.683 DT 05F8021C Rx 8  FF FC 00 00 00 00 FF FF 
    509      9355.794 DT 05F8021C Rx 8  FF FC 00 00 00 00 FF FF 
    510      9365.905 DT 05F8021C Rx 8  FF FC 00 00 00 00 FF FF 
    511      9376.016 DT 05F8021C Rx 8  FF FC 00 00 00 00 FF FF 
    512      9386.127 DT 05F8021C Rx 8  FF FC 00 00 00 00 FF FF 
    513      9396.235 DT 05F8021C Rx 8  FF FC 00 00 00 00 FF FF 
    514      9400.252 DT 09F112F8 Rx 8  FF 76 6E 00 00 FF 7F FD 
    515      9406.347 DT 05F8021C Rx 8  FF FC 00 00 00 00 FF FF 
    516      9416.458 DT 05F8021C Rx 8  FF FC 00 00 00 00 FF FF 
    517      9426.568 DT 05F8021C Rx 8  FF FC 00 00 00 00 FF FF 
    518      9436.679 DT 05F8021C Rx 8  FF FC 00 00 00 00 FF FF 
    519      9446.791 DT 05F8021C Rx 8  FF FC 00 00 00 00 FF FF 
    520      9456.902 DT 05F8021C Rx 8  FF FC 00 00 00 00 FF FF 
    521      9459.486 DT 1DEFFFF8 Rx 8  A0 0C E5 98 6C 07 02 02 
    522      9460.170 DT 1DEFFFF8 Rx 8  A1 41 00 89 00 00 00 FF 
    523      9461.478 DT 1DEFFFF8 Rx 8  C0 0C E5 98 6C 07 02 02 
    524      9462.776 DT 1DEFFFF8 Rx 8  C1 43 00 01 00 00 00 FF 
    525      9463.480 DT 1DEFFFF8 Rx 8  E0 09 E5 98 6C 07 02 02 
    526      9464.496 DT 1DEFFFF8 Rx 8  E1 28 00 00 FF FF FF FF 
    527      9465.488 DT 1DEFFFF8 Rx 8  00 09 E5 98 6C 07 02 02 
    528      9466.505 DT 1DEFFFF8 Rx 8  01 34 00 00 FF FF FF FF 
    529      9467.084 DT 05F8021C Rx 8  FF FC 00 00 00 00 FF FF 
    530      9467.653 DT 1DEFFFF8 Rx 8  20 09 E5 98 6C 07 02 02 
    531      9470.001 DT 1DEFFFF8 Rx 8  21 1B 00 FF FF FF FF FF 
    532      9470.661 DT 1DEFFFF8 Rx 8  40 09 E5 98 6C 07 02 02 
    533      9471.353 DT 1DEFFFF8 Rx 8  41 1D 00 FF FF FF FF FF 
    534      9477.124 DT 05F8021C Rx 8  FF FC 00 00 00 00 FF FF 
    535      9487.235 DT 05F8021C Rx 8  FF FC 00 00 00 00 FF FF 
    536      9497.346 DT 05F8021C Rx 8  FF FC 00 00 00 00 FF FF 
    537      9507.457 DT 05F8021C Rx 8  FF FC 00 00 00 00 FF FF 
    538      9517.568 DT 05F8021C Rx 8  FF FC 00 00 00 00 FF FF 
    539      9527.679 DT 05F8021C Rx 8  FF FC 00 00 00 00 FF FF 
    540      9537.791 DT 05F8021C Rx 8  FF FC 00 00 00 00 FF FF 
    541      9541.155 DT 09F112F8 Rx 8  FF 75 6E 00 00 FF 7F FD 
    542      9547.903 DT 05F8021C Rx 8  FF FC 00 00 00 00 FF FF 
    543      9558.013 DT 05F8021C Rx 8  FF FC 00 00 00 00 FF FF 
    544      9568.124 DT 05F8021C Rx 8  FF FC 00 00 00 00 FF FF 
    545      9578.235 DT 05F8021C Rx 8  FF FC 00 00 00 00 FF FF 
    546      9588.346 DT 05F8021C Rx 8  FF FC 00 00 00 00 FF FF 
    547      9598.457 DT 05F8021C Rx 8  FF FC 00 00 00 00 FF FF 
    548      9608.569 DT 05F8021C Rx 8  FF FC 00 00 00 00 FF FF 
    549      9618.681 DT 05F8021C Rx 8  FF FC 00 00 00 00 FF FF 
    550      9628.792 DT 05F8021C Rx 8  FF FC 00 00 00 00 FF FF 
    551      9638.902 DT 05F8021C Rx 8  FF FC 00 00 00 00 FF FF 
    552      9649.013 DT 05F8021C Rx 8  FF FC 00 00 00 00 FF FF 
    553      9659.125 DT 05F8021C Rx 8  FF FC 00 00 00 00 FF FF 
    554      9669.236 DT 05F8021C Rx 8  FF FC 00 00 00 00 FF FF 
    555      9673.492 DT 09F112F8 Rx 8  FF 78 6E 00 00 FF 7F FD 
    556      9679.344 DT 05F8021C Rx 8  FF FC 00 00 00 00 FF FF 
    557      9689.455 DT 05F8021C Rx 8  FF FC 00 00 00 00 FF FF 
    558      9699.566 DT 05F8021C Rx 8  FF FC 00 00 00 00 FF FF 
    559      9709.677 DT 05F8021C Rx 8  FF FC 00 00 00 00 FF FF 
    560      9719.789 DT 05F8021C Rx 8  FF FC 00 00 00 00 FF FF 
    561      9727.892 DT 09F8011C Rx 8  00 00 00 00 00 00 00 00 
    562      9728.912 DT 19FA031C Rx 8  FF C2 00 00 00 00 00 00 
    563      9729.908 DT 05F8021C Rx 8  FF FC 00 00 00 00 FF FF 
    564      9730.928 DT 0DF0101C Rx 8  FF 00 00 00 00 00 00 00 
    565      9731.940 DT 18FEE81C Rx 8  FF FF FF FF FF FF FF FF 
    566      9732.960 DT 19FA041C Rx 8  80 1B FF FF 02 0C 00 00 
    567      9734.004 DT 19FA041C Rx 8  81 00 00 00 00 FF FF FF 
    568      9735.012 DT 19FA041C Rx 8  82 FF FF 2C 00 00 00 00 
    569      9736.020 DT 19FA041C Rx 8  83 00 00 FF FF FF FF FF 
    570      9740.020 DT 05F8021C Rx 8  FF FC 00 00 00 00 FF FF 
    571      9750.124 DT 05F8021C Rx 8  FF FC 00 00 00 00 FF FF 
    572      9760.235 DT 05F8021C Rx 8  FF FC 00 00 00 00 FF FF 
    573      9770.346 DT 05F8021C Rx 8  FF FC 00 00 00 00 FF FF 
    574      9780.457 DT 05F8021C Rx 8  FF FC 00 00 00 00 FF FF 
    575      9790.568 DT 05F8021C Rx 8  FF FC 00 00 00 00 FF FF 
    576      9800.679 DT 05F8021C Rx 8  FF FC 00 00 00 00 FF FF 
    577      9807.491 DT 09F112F8 Rx 8  FF 7A 6E 00 00 FF 7F FD 
    578      9810.787 DT 05F8021C Rx 8  FF FC 00 00 00 00 FF FF 
    579      9820.899 DT 05F8021C Rx 8  FF FC 00 00 00 00 FF FF 
    580      9831.009 DT 05F8021C Rx 8  FF FC 00 00 00 00 FF FF 
    581      9841.120 DT 05F8021C Rx 8  FF FC 00 00 00 00 FF FF 
    582      9851.231 DT 05F8021C Rx 8  FF FC 00 00 00 00 FF FF 
    583      9861.342 DT 05F8021C Rx 8  FF FC 00 00 00 00 FF FF 
    584      9871.453 DT 05F8021C Rx 8  FF FC 00 00 00 00 FF FF 
    585      9881.564 DT 05F8021C Rx 8  FF FC 00 00 00 00 FF FF 
    586      9891.677 DT 05F8021C Rx 8  FF FC 00 00 00 00 FF FF 
    587      9901.788 DT 05F8021C Rx 8  FF FC 00 00 00 00 FF FF 
    588      9911.898 DT 05F8021C Rx 8  FF FC 00 00 00 00 FF FF 
    589      9922.009 DT 05F8021C Rx 8  FF FC 00 00 00 00 FF FF 
    590      9932.120 DT 05F8021C Rx 8  FF FC 00 00 00 00 FF FF 
    591      9942.232 DT 05F8021C Rx 8  FF FC 00 00 00 00 FF FF 
    592      9944.868 DT 09F112F8 Rx 8  FF 77 6E 00 00 FF 7F FD 
    593      9946.488 DT 1DEFFFF8 Rx 8  60 0A E5 98 EE 04 04 04 
    594      9947.364 DT 1DEFFFF8 Rx 8  61 03 00 00 00 FF FF FF 
    595      9952.344 DT 05F8021C Rx 8  FF FC 00 00 00 00 FF FF 
    596      9959.497 DT 1DEFFFF8 Rx 8  80 0C E5 98 6C 07 02 02 
    597      9960.177 DT 1DEFFFF8 Rx 8  81 41 00 89 00 00 00 FF 
    598      9961.490 DT 1DEFFFF8 Rx 8  A0 0C E5 98 6C 07 02 02 
    599      9962.453 DT 05F8021C Rx 8  FF FC 00 00 00 00 FF FF 
    600      9963.026 DT 1DEFFFF8 Rx 8  A1 43 00 01 00 00 00 FF 
    601      9964.490 DT 1DEFFFF8 Rx 8  C0 09 E5 98 6C 07 02 02 
    602      9965.514 DT 1DEFFFF8 Rx 8  C1 28 00 00 FF FF FF FF 
    603      9966.490 DT 1DEFFFF8 Rx 8  E0 09 E5 98 6C 07 02 02 
    604      9967.783 DT 1DEFFFF8 Rx 8  E1 34 00 00 FF FF FF FF 
    605      9969.991 DT 1DEFFFF8 Rx 8  00 09 E5 98 6C 07 02 02 
    606      9970.699 DT 1DEFFFF8 Rx 8  01 1B 00 FF FF FF FF FF 
    607      9971.351 DT 1DEFFFF8 Rx 8  20 09 E5 98 6C 07 02 02 
    608      9972.515 DT 1DEFFFF8 Rx 8  21 1D 00 FF FF FF FF FF 
    609      9973.095 DT 05F8021C Rx 8  FF FC 00 00 00 00 FF FF 
    610      9982.678 DT 05F8021C Rx 8  FF FC 00 00 00 00 FF FF 
    611      9992.789 DT 05F8021C Rx 8  FF FC 00 00 00 00 FF FF 
    612     10002.896 DT 05F8021C Rx 8  FF FC 00 00 00 00 FF FF 
    613     10013.011 DT 05F8021C Rx 8  FF FC 00 00 00 00 FF FF 
    614     10023.118 DT 05F8021C Rx 8  FF FC 00 00 00 00 FF FF 
    615     10033.230 DT 05F8021C Rx 8  FF FC 00 00 00 00 FF FF 
    616     10043.341 DT 05F8021C Rx 8  FF FC 00 00 00 00 FF FF 
    617     10053.452 DT 05F8021C Rx 8  FF FC 00 00 00 00 FF FF 
    618     10063.563 DT 05F8021C Rx 8  FF FC 00 00 00 00 FF FF 
    619     10073.674 DT 05F8021C Rx 8  FF FC 00 00 00 00 FF FF 
    620     10083.785 DT 05F8021C Rx 8  FF FC 00 00 00 00 FF FF 
    621     10089.994 DT 09F112F8 Rx 8  FF 76 6E 00 00 FF 7F FD 
    622     10093.897 DT 05F8021C Rx 8  FF FC 00 00 00 00 FF FF 
    623     10104.009 DT 05F8021C Rx 8  FF FC 00 00 00 00 FF FF 
    624     10114.120 DT 05F8021C Rx 8  FF FC 00 00 00 00 FF FF 
    625     10124.231 DT 05F8021C Rx 8  FF FC 00 00 00 00 FF FF 
    626     10134.343 DT 05F8021C Rx 8  FF FC 00 00 00 00 FF FF 
    627     10144.453 DT 05F8021C Rx 8  FF FC 00 00 00 00 FF FF 
    628     10154.564 DT 05F8021C Rx 8  FF FC 00 00 00 00 FF FF 
    629     10164.675 DT 05F8021C Rx 8  FF FC 00 00 00 00 FF FF 
    630     10174.787 DT 05F8021C Rx 8  FF FC 00 00 00 00 FF FF 
    631     10184.938 DT 05F8021C Rx 8  FF FC 00 00 00 00 FF FF 
    632     10195.049 DT 05F8021C Rx 8  FF FC 00 00 00 00 FF FF 
    633     10205.156 DT 05F8021C Rx 8  FF FC 00 00 00 00 FF FF 
    634     10215.271 DT 05F8021C Rx 8  FF FC 00 00 00 00 FF FF 
    635     10225.378 DT 05F8021C Rx 8  FF FC 00 00 00 00 FF FF 
    636     10226.538 DT 09F112F8 Rx 8  FF 73 6E 00 00 FF 7F FD 
    637     10228.426 DT 09F8011C Rx 8  00 00 00 00 00 00 00 00 
    638     10229.446 DT 19FA031C Rx 8  FF C2 00 00 00 00 00 00 
    639     10230.454 DT 0DF0101C Rx 8  FF 00 00 00 00 00 00 00 
    640     10231.462 DT 18FEE81C Rx 8  FF FF FF FF FF FF FF FF 
    641     10232.482 DT 19FA041C Rx 8  A0 1B FF FF 02 0C 00 00 
    642     10233.518 DT 19FA041C Rx 8  A1 00 00 00 00 FF FF FF 
    643     10234.534 DT 19FA041C Rx 8  A2 FF FF 2C 00 00 00 00 
    644     10235.497 DT 05F8021C Rx 8  FF FC 00 00 00 00 FF FF 
    645     10236.558 DT 19FA041C Rx 8  A3 00 00 FF FF FF FF FF 
    646     10245.609 DT 05F8021C Rx 8  FF FC 00 00 00 00 FF FF 
    647     10255.712 DT 05F8021C Rx 8  FF FC 00 00 00 00 FF FF 
    648     10265.824 DT 05F8021C Rx 8  FF FC 00 00 00 00 FF FF 
    649     10275.951 DT 05F8021C Rx 8  FF FC 00 00 00 00 FF FF 
    650     10286.046 DT 05F8021C Rx 8  FF FC 00 00 00 00 FF FF 
    651     10296.157 DT 05F8021C Rx 8  FF FC 00 00 00 00 FF FF 
    652     10306.268 DT 05F8021C Rx 8  FF FC 00 00 00 00 FF FF 
    653     10316.379 DT 05F8021C Rx 8  FF FC 00 00 00 00 FF FF 
    654     10326.491 DT 05F8021C Rx 8  FF FC 00 00 00 00 FF FF 
    655     10336.602 DT 05F8021C Rx 8  FF FC 00 00 00 00 FF FF 
    656     10346.713 DT 05F8021C Rx 8  FF FC 00 00 00 00 FF FF 
    657     10356.824 DT 05F8021C Rx 8  FF FC 00 00 00 00 FF FF 
    658     10364.544 DT 09F112F8 Rx 8  FF 75 6E 00 00 FF 7F FD 
    659     10366.932 DT 05F8021C Rx 8  FF FC 00 00 00 00 FF FF 
    660     10377.047 DT 05F8021C Rx 8  FF FC 00 00 00 00 FF FF 
    661     10387.154 DT 05F8021C Rx 8  FF FC 00 00 00 00 FF FF 
    662     10397.270 DT 05F8021C Rx 8  FF FC 00 00 00 00 FF FF 
    663     10407.377 DT 05F8021C Rx 8  FF FC 00 00 00 00 FF FF 
    664     10417.488 DT 05F8021C Rx 8  FF FC 00 00 00 00 FF FF 
    665     10427.599 DT 05F8021C Rx 8  FF FC 00 00 00 00 FF FF 
    666     10437.710 DT 05F8021C Rx 8  FF FC 00 00 00 00 FF FF 
    667     10447.821 DT 05F8021C Rx 8  FF FC 00 00 00 00 FF FF 
    668     10457.932 DT 05F8021C Rx 8  FF FC 00 00 00 00 FF FF 
    669     10460.188 DT 1DEFFFF8 Rx 8  40 0C E5 98 6C 07 02 02 
    670     10461.157 DT 1DEFFFF8 Rx 8  41 41 00 89 00 00 00 FF 
    671     10462.541 DT 1DEFFFF8 Rx 8  60 0C E5 98 6C 07 02 02 
    672     10463.558 DT 1DEFFFF8 Rx 8  61 43 00 01 00 00 00 FF 
    673     10464.546 DT 1DEFFFF8 Rx 8  80 09 E5 98 6C 07 02 02 
    674     10465.566 DT 1DEFFFF8 Rx 8  81 28 00 00 FF FF FF FF 
    675     10466.538 DT 1DEFFFF8 Rx 8  A0 09 E5 98 6C 07 02 02 
    676     10467.559 DT 1DEFFFF8 Rx 8  A1 34 00 00 FF FF FF FF 
    677     10468.139 DT 05F8021C Rx 8  FF FC 00 00 00 00 FF FF 
    678     10470.039 DT 1DEFFFF8 Rx 8  C0 09 E5 98 6C 07 02 02 
    679     10470.743 DT 1DEFFFF8 Rx 8  C1 1B 00 FF FF FF FF FF 
    680     10471.543 DT 1DEFFFF8 Rx 8  E0 09 E5 98 6C 07 02 02 
    681     10472.839 DT 1DEFFFF8 Rx 8  E1 1D 00 FF FF FF FF FF 
    682     10478.155 DT 05F8021C Rx 8  FF FC 00 00 00 00 FF FF 
    683     10488.266 DT 05F8021C Rx 8  FF FC 00 00 00 00 FF FF 
    684     10498.377 DT 05F8021C Rx 8  FF FC 00 00 00 00 FF FF 
    685     10501.217 DT 09F112F8 Rx 8  FF 7A 6E 00 00 FF 7F FD 
    686     10508.488 DT 05F8021C Rx 8  FF FC 00 00 00 00 FF FF 
    687     10518.599 DT 05F8021C Rx 8  FF FC 00 00 00 00 FF FF 
    688     10528.710 DT 05F8021C Rx 8  FF FC 00 00 00 00 FF FF 
    689     10538.822 DT 05F8021C Rx 8  FF FC 00 00 00 00 FF FF 
    690     10548.933 DT 05F8021C Rx 8  FF FC 00 00 00 00 FF FF 
    691     10559.044 DT 05F8021C Rx 8  FF FC 00 00 00 00 FF FF 
    692     10569.155 DT 05F8021C Rx 8  FF FC 00 00 00 00 FF FF 
    693     10579.266 DT 05F8021C Rx 8  FF FC 00 00 00 00 FF FF 
    694     10589.377 DT 05F8021C Rx 8  FF FC 00 00 00 00 FF FF 
    695     10599.488 DT 05F8021C Rx 8  FF FC 00 00 00 00 FF FF 
    696     10609.600 DT 05F8021C Rx 8  FF FC 00 00 00 00 FF FF 
    697     10619.711 DT 05F8021C Rx 8  FF FC 00 00 00 00 FF FF 
    698     10629.822 DT 05F8021C Rx 8  FF FC 00 00 00 00 FF FF 
    699     10637.827 DT 09F112F8 Rx 8  FF 79 6E 00 00 FF 7F FD 
    700     10639.930 DT 05F8021C Rx 8  FF FC 00 00 00 00 FF FF 
    701     10650.042 DT 05F8021C Rx 8  FF FC 00 00 00 00 FF FF 
    702     10660.153 DT 05F8021C Rx 8  FF FC 00 00 00 00 FF FF 
    703     10670.264 DT 05F8021C Rx 8  FF FC 00 00 00 00 FF FF 
    704     10680.376 DT 05F8021C Rx 8  FF FC 00 00 00 00 FF FF 
    705     10690.486 DT 05F8021C Rx 8  FF FC 00 00 00 00 FF FF 
    706     10700.598 DT 05F8021C Rx 8  FF FC 00 00 00 00 FF FF 
    707     10710.709 DT 05F8021C Rx 8  FF FC 00 00 00 00 FF FF 
    708     10720.820 DT 05F8021C Rx 8  FF FC 00 00 00 00 FF FF 
    709     10728.919 DT 09F8011C Rx 8  00 00 00 00 00 00 00 00 
    710     10729.943 DT 19FA031C Rx 8  FF C2 00 00 00 00 00 00 
    711     10730.939 DT 05F8021C Rx 8  FF FC 00 00 00 00 FF FF 
    712     10731.959 DT 0DF0101C Rx 8  FF 00 00 00 00 00 00 00 
    713     10732.971 DT 18FEE81C Rx 8  FF FF FF FF FF FF FF FF 
    714     10733.987 DT 19FA041C Rx 8  C0 1B FF FF 02 0C 00 00 
    715     10735.027 DT 19FA041C Rx 8  C1 00 00 00 00 FF FF FF 
    716     10736.043 DT 19FA041C Rx 8  C2 FF FF 2C 00 00 00 00 
    717     10737.047 DT 19FA041C Rx 8  C3 00 00 FF FF FF FF FF 
    718     10741.051 DT 05F8021C Rx 8  FF FC 00 00 00 00 FF FF 
    719     10751.155 DT 05F8021C Rx 8  FF FC 00 00 00 00 FF FF 
    720     10761.266 DT 05F8021C Rx 8  FF FC 00 00 00 00 FF FF 
    721     10771.377 DT 05F8021C Rx 8  FF FC 00 00 00 00 FF FF 
    722     10780.925 DT 09F112F8 Rx 8  FF 7A 6E 00 00 FF 7F FD 
    723     10781.505 DT 05F8021C Rx 8  FF FC 00 00 00 00 FF FF 
    724     10791.596 DT 05F8021C Rx 8  FF FC 00 00 00 00 FF FF 
    725     10801.707 DT 05F8021C Rx 8  FF FC 00 00 00 00 FF FF 
    726     10811.818 DT 05F8021C Rx 8  FF FC 00 00 00 00 FF FF 
    727     10821.930 DT 05F8021C Rx 8  FF FC 00 00 00 00 FF FF 
    728     10832.041 DT 05F8021C Rx 8  FF FC 00 00 00 00 FF FF 
    729     10842.152 DT 05F8021C Rx 8  FF FC 00 00 00 00 FF FF 
    730     10852.263 DT 05F8021C Rx 8  FF FC 00 00 00 00 FF FF 
    731     10862.374 DT 05F8021C Rx 8  FF FC 00 00 00 00 FF FF 
    732     10872.485 DT 05F8021C Rx 8  FF FC 00 00 00 00 FF FF 
    733     10882.596 DT 05F8021C Rx 8  FF FC 00 00 00 00 FF FF 
    734     10892.708 DT 05F8021C Rx 8  FF FC 00 00 00 00 FF FF 
    735     10902.819 DT 05F8021C Rx 8  FF FC 00 00 00 00 FF FF 
    736     10912.930 DT 05F8021C Rx 8  FF FC 00 00 00 00 FF FF 
    737     10917.555 DT 09F112F8 Rx 8  FF 7B 6E 00 00 FF 7F FD 
    738     10923.042 DT 05F8021C Rx 8  FF FC 00 00 00 00 FF FF 
    739     10933.149 DT 05F8021C Rx 8  FF FC 00 00 00 00 FF FF 
    740     10943.264 DT 05F8021C Rx 8  FF FC 00 00 00 00 FF FF 
    741     10953.371 DT 05F8021C Rx 8  FF FC 00 00 00 00 FF FF 
    742     10963.483 DT 05F8021C Rx 8  FF FC 00 00 00 00 FF FF 
    743     10970.196 DT 1DEFFFF8 Rx 8  00 0C E5 98 6C 07 02 02 
    744     10970.876 DT 1DEFFFF8 Rx 8  01 41 00 89 00 00 00 FF 
    745     10971.556 DT 1DEFFFF8 Rx 8  20 0C E5 98 6C 07 02 02 
    746     10972.576 DT 1DEFFFF8 Rx 8  21 43 00 01 00 00 00 FF 
    747     10973.553 DT 1DEFFFF8 Rx 8  40 09 E5 98 6C 07 02 02 
    748     10974.132 DT 05F8021C Rx 8  FF FC 00 00 00 00 FF FF 
    749     10974.717 DT 1DEFFFF8 Rx 8  41 28 00 00 FF FF FF FF 
    750     10975.401 DT 1DEFFFF8 Rx 8  60 09 E5 98 6C 07 02 02 
    751     10976.573 DT 1DEFFFF8 Rx 8  61 34 00 00 FF FF FF FF 
    752     10977.409 DT 1DEFFFF8 Rx 8  80 09 E5 98 6C 07 02 02 
    753     10980.345 DT 1DEFFFF8 Rx 8  81 1B 00 FF FF FF FF FF 
    754     10981.014 DT 1DEFFFF8 Rx 8  A0 09 E5 98 6C 07 02 02 
    755     10982.574 DT 1DEFFFF8 Rx 8  A1 1D 00 FF FF FF FF FF 
    756     10983.706 DT 05F8021C Rx 8  FF FC 00 00 00 00 FF FF 
    757     10993.817 DT 05F8021C Rx 8  FF FC 00 00 00 00 FF FF 
    758     11003.927 DT 05F8021C Rx 8  FF FC 00 00 00 00 FF FF 
    759     11014.038 DT 05F8021C Rx 8  FF FC 00 00 00 00 FF FF 
    760     11024.149 DT 05F8021C Rx 8  FF FC 00 00 00 00 FF FF 
    761     11034.261 DT 05F8021C Rx 8  FF FC 00 00 00 00 FF FF 
    762     11044.372 DT 05F8021C Rx 8  FF FC 00 00 00 00 FF FF 
    763     11054.483 DT 05F8021C Rx 8  FF FC 00 00 00 00 FF FF 
    764     11055.052 DT 09F112F8 Rx 8  FF 7D 6E 00 00 FF 7F FD 
    765     11064.595 DT 05F8021C Rx 8  FF FC 00 00 00 00 FF FF 
    766     11074.706 DT 05F8021C Rx 8  FF FC 00 00 00 00 FF FF 
    767     11084.817 DT 05F8021C Rx 8  FF FC 00 00 00 00 FF FF 
    768     11094.927 DT 05F8021C Rx 8  FF FC 00 00 00 00 FF FF 
    769     11105.039 DT 05F8021C Rx 8  FF FC 00 00 00 00 FF FF 
    770     11115.151 DT 05F8021C Rx 8  FF FC 00 00 00 00 FF FF 
    771     11125.262 DT 05F8021C Rx 8  FF FC 00 00 00 00 FF FF 
    772     11135.373 DT 05F8021C Rx 8  FF FC 00 00 00 00 FF FF 
    773     11145.484 DT 05F8021C Rx 8  FF FC 00 00 00 00 FF FF 
    774     11155.595 DT 05F8021C Rx 8  FF FC 00 00 00 00 FF FF 
    775     11165.706 DT 05F8021C Rx 8  FF FC 00 00 00 00 FF FF 
    776     11175.818 DT 05F8021C Rx 8  FF FC 00 00 00 00 FF FF 
    777     11185.927 DT 05F8021C Rx 8  FF FC 00 00 00 00 FF FF 
    778     11192.839 DT 09F112F8 Rx 8  FF 80 6E 00 00 FF 7F FD 
    779     11196.035 DT 05F8021C Rx 8  FF FC 00 00 00 00 FF FF 
    780     11206.146 DT 05F8021C Rx 8  FF FC 00 00 00 00 FF FF 
    781     11216.257 DT 05F8021C Rx 8  FF FC 00 00 00 00 FF FF 
    782     11226.368 DT 05F8021C Rx 8  FF FC 00 00 00 00 FF FF 
    783     11229.416 DT 09F8011C Rx 8  00 00 00 00 00 00 00 00 
    784     11230.436 DT 19FA031C Rx 8  FF C2 00 00 00 00 00 00 
    785     11231.440 DT 0DF0101C Rx 8  FF 00 00 00 00 00 00 00 
    786     11232.452 DT 18FEE81C Rx 8  FF FF FF FF FF FF FF FF 
    787     11233.471 DT 19FA041C Rx 8  E0 1B FF FF 02 0C 00 00 
    788     11234.511 DT 19FA041C Rx 8  E1 00 00 00 00 FF FF FF 
    789     11235.519 DT 19FA041C Rx 8  E2 FF FF 2C 00 00 00 00 
    790     11236.488 DT 05F8021C Rx 8  FF FC 00 00 00 00 FF FF 
    791     11237.547 DT 19FA041C Rx 8  E3 00 00 FF FF FF FF FF 
    792     11246.611 DT 05F8021C Rx 8  FF FC 00 00 00 00 FF FF 
    793     11256.719 DT 05F8021C Rx 8  FF FC 00 00 00 00 FF FF 
    794     11266.829 DT 05F8021C Rx 8  FF FC 00 00 00 00 FF FF 
    795     11276.940 DT 05F8021C Rx 8  FF FC 00 00 00 00 FF FF 
    796     11287.051 DT 05F8021C Rx 8  FF FC 00 00 00 00 FF FF 
    797     11297.146 DT 05F8021C Rx 8  FF FC 00 00 00 00 FF FF 
    798     11307.257 DT 05F8021C Rx 8  FF FC 00 00 00 00 FF FF 
    799     11317.368 DT 05F8021C Rx 8  FF FC 00 00 00 00 FF FF 
    800     11327.480 DT 05F8021C Rx 8  FF FC 00 00 00 00 FF FF 
    801     11330.989 DT 09F112F8 Rx 8  FF 83 6E 00 00 FF 7F FD 
    802     11332.837 DT 1DEFFFF8 Rx 8  C0 0A E5 98 EE 04 04 04 
    803     11333.437 DT 1DEFFFF8 Rx 8  C1 03 00 00 00 FF FF FF 
    804     11337.589 DT 05F8021C Rx 8  FF FC 00 00 00 00 FF FF 
    805     11347.716 DT 05F8021C Rx 8  FF FC 00 00 00 00 FF FF 
    806     11357.811 DT 05F8021C Rx 8  FF FC 00 00 00 00 FF FF 
    807     11367.937 DT 05F8021C Rx 8  FF FC 00 00 00 00 FF FF 
    808     11378.032 DT 05F8021C Rx 8  FF FC 00 00 00 00 FF FF 
    809     11388.160 DT 05F8021C Rx 8  FF FC 00 00 00 00 FF FF 
    810     11398.256 DT 05F8021C Rx 8  FF FC 00 00 00 00 FF FF 
    811     11408.383 DT 05F8021C Rx 8  FF FC 00 00 00 00 FF FF 
    812     11418.478 DT 05F8021C Rx 8  FF FC 00 00 00 00 FF FF 
    813     11428.605 DT 05F8021C Rx 8  FF FC 00 00 00 00 FF FF 
    814     11438.700 DT 05F8021C Rx 8  FF FC 00 00 00 00 FF FF 
    815     11448.827 DT 05F8021C Rx 8  FF FC 00 00 00 00 FF FF 
    816     11458.922 DT 05F8021C Rx 8  FF FC 00 00 00 00 FF FF 
    817     11469.050 DT 05F8021C Rx 8  FF FC 00 00 00 00 FF FF 
    818     11475.566 DT 09F112F8 Rx 8  FF 84 6E 00 00 FF 7F FD 
    819     11479.146 DT 05F8021C Rx 8  FF FC 00 00 00 00 FF FF 
    820     11480.190 DT 1DEFFFF8 Rx 8  E0 0C E5 98 6C 07 02 02 
    821     11480.890 DT 1DEFFFF8 Rx 8  E1 41 00 89 00 00 00 FF 
    822     11482.570 DT 1DEFFFF8 Rx 8  00 0C E5 98 6C 07 02 02 
    823     11483.858 DT 1DEFFFF8 Rx 8  01 43 00 01 00 00 00 FF 
    824     11484.571 DT 1DEFFFF8 Rx 8  20 09 E5 98 6C 07 02 02 
    825     11485.583 DT 1DEFFFF8 Rx 8  21 28 00 00 FF FF FF FF 
    826     11486.563 DT 1DEFFFF8 Rx 8  40 09 E5 98 6C 07 02 02 
    827     11487.587 DT 1DEFFFF8 Rx 8  41 34 00 00 FF FF FF FF 
    828     11489.255 DT 05F8021C Rx 8  FF FC 00 00 00 00 FF FF 
    829     11490.055 DT 1DEFFFF8 Rx 8  60 09 E5 98 6C 07 02 02 
    830     11490.759 DT 1DEFFFF8 Rx 8  61 1B 00 FF FF FF FF FF 
    831     11491.420 DT 1DEFFFF8 Rx 8  80 09 E5 98 6C 07 02 02 
    832     11492.584 DT 1DEFFFF8 Rx 8  81 1D 00 FF FF FF FF FF 
    833     11499.367 DT 05F8021C Rx 8  FF FC 00 00 00 00 FF FF 
    834     11509.478 DT 05F8021C Rx 8  FF FC 00 00 00 00 FF FF 
    835     11519.589 DT 05F8021C Rx 8  FF FC 00 00 00 00 FF FF 
    836     11529.700 DT 05F8021C Rx 8  FF FC 00 00 00 00 FF FF 
    837     11539.812 DT 05F8021C Rx 8  FF FC 00 00 00 00 FF FF 
    838     11549.923 DT 05F8021C Rx 8  FF FC 00 00 00 00 FF FF 
    839     11560.034 DT 05F8021C Rx 8  FF FC 00 00 00 00 FF FF 
    840     11570.145 DT 05F8021C Rx 8  FF FC 00 00 00 00 FF FF 
    841     11580.256 DT 05F8021C Rx 8  FF FC 00 00 00 00 FF FF 
    842     11590.367 DT 05F8021C Rx 8  FF FC 00 00 00 00 FF FF 
    843     11600.478 DT 05F8021C Rx 8  FF FC 00 00 00 00 FF FF 
    844     11610.590 DT 05F8021C Rx 8  FF FC 00 00 00 00 FF FF 
    845     11615.570 DT 09F112F8 Rx 8  FF 86 6E 00 00 FF 7F FD 
    846     11620.714 DT 05F8021C Rx 8  FF FC 00 00 00 00 FF FF 
    847     11630.808 DT 05F8021C Rx 8  FF FC 00 00 00 00 FF FF 
    848     11640.919 DT 05F8021C Rx 8  FF FC 00 00 00 00 FF FF 
    849     11651.030 DT 05F8021C Rx 8  FF FC 00 00 00 00 FF FF 
    850     11661.141 DT 05F8021C Rx 8  FF FC 00 00 00 00 FF FF 
    851     11671.252 DT 05F8021C Rx 8  FF FC 00 00 00 00 FF FF 
    852     11681.364 DT 05F8021C Rx 8  FF FC 00 00 00 00 FF FF 
    853     11691.475 DT 05F8021C Rx 8  FF FC 00 00 00 00 FF FF 
    854     11701.586 DT 05F8021C Rx 8  FF FC 00 00 00 00 FF FF 
    855     11711.697 DT 05F8021C Rx 8  FF FC 00 00 00 00 FF FF 
    856     11721.809 DT 05F8021C Rx 8  FF FC 00 00 00 00 FF FF 
    857     11729.908 DT 09F8011C Rx 8  00 00 00 00 00 00 00 00 
    858     11730.932 DT 19FA031C Rx 8  FF C2 00 00 00 00 00 00 
    859     11731.927 DT 05F8021C Rx 8  FF FC 00 00 00 00 FF FF 
    860     11732.948 DT 0DF0101C Rx 8  FF 00 00 00 00 00 00 00 
    861     11733.960 DT 18FEE81C Rx 8  FF FF FF FF FF FF FF FF 
    862     11735.015 DT 19FA041C Rx 8  00 6F FF FF 09 05 00 00 
    863     11736.028 DT 19FA041C Rx 8  01 00 00 00 00 FF FF FF 
    864     11737.035 DT 19FA041C Rx 8  02 FF FF 0C 00 00 00 00 
    865     11738.044 DT 19FA041C Rx 8  03 00 00 FF FF FF FF FF 
    866     11739.056 DT 19FA041C Rx 8  04 0D 00 00 00 00 00 00 
    867     11740.060 DT 19FA041C Rx 8  05 FF FF FF FF FF 10 00 
    868     11741.080 DT 19FA041C Rx 8  06 00 00 00 00 00 FF FF 
    869     11742.040 DT 05F8021C Rx 8  FF FC 00 00 00 00 FF FF 
    870     11743.108 DT 19FA041C Rx 8  07 FF FF FF 14 00 00 00 
    871     11744.112 DT 19FA041C Rx 8  08 00 00 00 FF FF FF FF 
    872     11745.121 DT 19FA041C Rx 8  09 FF 19 00 00 00 00 00 
    873     11746.121 DT 19FA041C Rx 8  0A 00 FF FF FF FF FF 1D 
    874     11747.149 DT 19FA041C Rx 8  0B 00 00 00 00 00 00 FF 
    875     11748.144 DT 19FA041C Rx 8  0C FF FF FF FF 2C 00 00 
    876     11749.176 DT 19FA041C Rx 8  0D 00 00 00 00 FF FF FF 
    877     11750.176 DT 19FA041C Rx 8  0E FF FF 30 00 00 00 00 
    878     11751.184 DT 19FA041C Rx 8  0F 00 00 FF FF FF FF FF 
    879     11751.749 DT 09F112F8 Rx 8  FF 87 6E 00 00 FF 7F FD 
    880     11752.329 DT 05F8021C Rx 8  FF FC 00 00 00 00 FF FF 
    881     11762.251 DT 05F8021C Rx 8  FF FC 00 00 00 00 FF FF 
    882     11772.367 DT 05F8021C Rx 8  FF FC 00 00 00 00 FF FF 
    883     11782.477 DT 05F8021C Rx 8  FF FC 00 00 00 00 FF FF 
    884     11792.584 DT 05F8021C Rx 8  FF FC 00 00 00 00 FF FF 
    885     11802.699 DT 05F8021C Rx 8  FF FC 00 00 00 00 FF FF 
    886     11812.806 DT 05F8021C Rx 8  FF FC 00 00 00 00 FF FF 
    887     11822.919 DT 05F8021C Rx 8  FF FC 00 00 00 00 FF FF 
    888     11833.030 DT 05F8021C Rx 8  FF FC 00 00 00 00 FF FF 
    889     11843.157 DT 05F8021C Rx 8  FF FC 00 00 00 00 FF FF 
    890     11853.268 DT 05F8021C Rx 8  FF FC 00 00 00 00 FF FF 
    891     11863.379 DT 05F8021C Rx 8  FF FC 00 00 00 00 FF FF 
    892     11873.490 DT 05F8021C Rx 8  FF FC 00 00 00 00 FF FF 
    893     11883.601 DT 05F8021C Rx 8  FF FC 00 00 00 00 FF FF 
    894     11890.334 DT 09F112F8 Rx 8  FF 8B 6E 00 00 FF 7F FD 
