(0.000000) can1 04EF001C#4A456863BC329660
(0.003868) can1 0CEF0100#A020025D00279022
(0.008856) can1 18FEF200#3500FFFFFFFF12FF
(0.010120) can1 04EF001C#2E48674ED87F990D
(0.018864) can1 0CF00400#FF7D80E81200FFFF
(0.019420) can1 0CEF1100#3989A82C80C048EA
(0.020280) can1 04EF001C#DF4A81C4291D7FE7
(0.023828) can1 18FFDC00#E014015E028A8C53
(0.024392) can1 0CEF0100#A020025C00279022
(0.028816) can1 18FFDC00#E1AA02B500A0FFDB
(0.029400) can1 0CF00300#DF000FFF00FFFFFF
(0.030356) can1 04EF001C#894DED737F5A1310
(0.033808) can1 18FFDC00#E2FFFFBCD72200FF
(0.034788) can1 18FF1C17#0000000000000000
(0.038828) can1 0CF00400#FF7D80081300FFFF
(0.040432) can1 04EF001C#A550280E53A7D68D
(0.043360) can1 18FF1080#000000FFFFFFFC00
(0.043924) can1 0CEF0100#A020025E00279022
(0.044501) can1 18FF1180#FD05F505FFFF00FF
(0.045341) can1 18FF1380#000000003FC0C006
(0.048837) can1 18FEF100#FF4904F0FFC71FFF
(0.049421) can1 18FF1CF3#0000000000000000
(0.050541) can1 04EF001C#5A53C8F5AD0437D6
(0.058821) can1 0CF00400#FF7D80181300FFFF
(0.060633) can1 04EF001C#6C55CF439AC231A0
(0.063832) can1 0CEF0100#A020026100279022
(0.068832) can1 0CEF1100#6D80B78EC53FE7C7
(0.070741) can1 04EF001C#2C58E54EDB4F1A2D
(0.073809) can1 18FFDC00#00140163028A8C53
(0.078837) can1 18FFDC00#01A902B700A0FFDB
(0.079421) can1 0CF00300#DF000FFF00FFFFFF
(0.079993) can1 0CF00400#FF7D80181300FFFF
(0.080901) can1 04EF001C#145BC48DE38C3B2E
(0.083841) can1 18FFDC00#02FFFFBCD72200FF
(0.084429) can1 09F20000#008C09FFFFFFFFFF
(0.084997) can1 0CEF0100#A020026300279022
(0.090085) can1 19F10D13#3982014B02670062
(0.090969) can1 04EF001C#775D949380CA6B70
(0.092181) can1 19F21139#000000FFD47F1000
(0.098849) can1 0CF00400#FF7D80181300FFFF
(0.099433) can1 18FECA00#00FF00000000FFFF
(0.101077) can1 04EF001C#CD40C35EC510C37A
(0.103861) can1 0CEF0100#A020026300279022
(0.105176) can1 09F8021C#8FFC7C527D00FFFF
(0.106136) can1 09F8011C#A8A52618981C53C1
(0.107172) can1 19FA031C#8FD2640097006500
(0.108172) can1 0DF0101C#8FF03C4FF0FEA92F
(0.108856) can1 18FEF200#3600FFFFFFFF11FF
(0.109404) can1 18FEE81C#803C8804C5644C81
(0.110304) can1 19FA041C#C0AB8FFF0E01FD0C
(0.111211) can1 04EF001C#2D44045A2574041E
(0.112287) can1 19FA041C#C104D8280AFFFFFF
(0.113283) can1 19FA041C#C2FFFF02141E58CA
(0.114303) can1 19FA041C#C3AC0DFFFFFFFFFF
(0.115302) can1 19FA041C#C4087805A2AD0000
(0.116318) can1 19FA041C#C5FFFFFFFFFF0A55
(0.117322) can1 19FA041C#C6286C393C0FFFFF
(0.118346) can1 19FA041C#C7FFFFFF0C1A04DA
(0.118902) can1 0CEF1100#94BEFE08FD269048
(0.119474) can1 0CF00400#FF7D80C01200FFFF
(0.120054) can1 19FA041C#C82F0000FFFFFFFF
(0.121305) can1 04EF001C#19462108EE21DEEB
(0.122385) can1 19FA041C#C9FF174E0CD449A0
(0.123405) can1 19FA041C#CA0FFFFFFFFFFF18
(0.123969) can1 0CEF0100#A020025E00279022
(0.124529) can1 18FFDC00#20140155028A8C53
(0.125089) can1 19FA041C#CB0D02FA19100EFF
(0.126428) can1 19FA041C#CCFFFFFFFF19D606
(0.127444) can1 19FA041C#CD5C440000FFFFFF
(0.128444) can1 19FA041C#CEFFFF1B0D02C297
(0.129028) can1 0CF00300#DF000FFF00FFFFFF
(0.129612) can1 18FF1CF3#0000000000000000
(0.130176) can1 18FFDC00#21A902B200A0FFDB
(0.130760) can1 19FA041C#CF0000FFFFFFFFFF
(0.131445) can1 04EF001C#C74889F6CFC889F2
(0.132493) can1 19FA041C#D01C7F21D8726810
(0.133512) can1 19FA041C#D1FFFFFFFFFF1F0A
(0.134077) can1 18FFDC00#22FFFFBCD72200FF
(0.134649) can1 19FA041C#D20F84800410FFFF
(0.135552) can1 19FA041C#D3FFFFFF20963234
(0.136552) can1 19FA041C#D408F811FFFFFFFF
(0.137540) can1 19FA041C#D5FF2CB61CFC8568
(0.138568) can1 19FA041C#D610FFFFFFFFFF30
(0.139144) can1 0CF00400#FF7D80801200FFFF
(0.139696) can1 19FA041C#D7A91A308ECC10FF
(0.140607) can1 19FA041C#D8FFFFFFFFFFFFFF
(0.141527) can1 04EF001C#F24BA55D050C5A9E
(0.143352) can1 18FF1080#000000FFFFFFFC00
(0.143920) can1 0CEF0100#A020025400279022
(0.144496) can1 18FF1180#FD05F505FFFF00FF
(0.148828) can1 18FEF100#FF4804F0FFC71FFF
(0.151648) can1 04EF001C#F74D9073000A6FB0
(0.158819) can1 0CF00400#FF7D80801200FFFF
(0.161743) can1 04EF001C#B85035164F17CAD5
(0.163823) can1 0CEF0100#A020024F00289022
(0.168815) can1 0CEF1100#D6B1549BB0F1FAA5
(0.171858) can1 04EF001C#7753E46D80341B8E
(0.173806) can1 18FFDC00#40140152028A8B53
(0.178802) can1 18FFDC00#41A902B200A0FFDB
(0.179386) can1 0CF00300#DF000FFF00FFFFFF
(0.179954) can1 0CF00400#FF7D80901200FFFF
(0.181970) can1 04EF001C#6C56D7B064F6D794
(0.183810) can1 18FFDC00#42FFFFBCD72200FF
(0.184406) can1 09F20000#004409FFFFFFFFFF
(0.184970) can1 0CEF0100#A020025100289022
(0.190082) can1 19F10D13#3A81014B02670062
(0.192106) can1 04EF001C#855941F78DB94193
(0.192674) can1 19F21139#000000FF38801000
(0.198811) can1 0CF00400#FF7D80601200FFFF
(0.202206) can1 04EF001C#225CCBDA2AACCBBE
(0.203822) can1 0CEF0100#A020025000289022
(0.208858) can1 18FEF200#3400FFFFFFFF12FF
(0.212318) can1 04EF001C#055FF5E10D6FF545
(0.218858) can1 0CF00400#FF7D80701200FFFF
(0.219413) can1 0CEF1100#06A23E1F6DBA504B
(0.222441) can1 04EF001C#C741C1EFCF51C16B
(0.223845) can1 18FFDC00#60140150028A8C53
(0.224409) can1 0CEF0100#A020024C00289022
(0.228837) can1 18FFDC00#61A802B300A0FFDB
(0.229421) can1 0CF00300#DF000FFF00FFFFFF
(0.230005) can1 18FF1CF3#0000000000000000
(0.232533) can1 04EF001C#60444BD268B44BB6
(0.233821) can1 18FFDC00#62FFFFBCD72200FF
(0.238845) can1 0CF00400#FF7D81B01200FFFF
(0.242012) can1 15FD069B#5C3A74FFFFFFFFFF
(0.242644) can1 04EF001C#454777F94DB7779D
(0.243876) can1 0CEF0100#A020025000289022
(0.244477) can1 18FF1080#000000FFFFFFFC00
(0.245069) can1 18FF1C17#0000000000000000
(0.245646) can1 18FF1180#FD05F505FFFF00FF
(0.246326) can1 18FF1380#000000003FC0C006
(0.248850) can1 18FEF100#FF4704F0FFC71FFF
(0.249430) can1 0CEF0017#810400000000FFFF
(0.252741) can1 04EF001C#774934677ED93563
(0.258838) can1 0CF00400#FF7D80D01200FFFF
(0.259410) can1 18E8FF00#02FFFFFFFF00EF00
(0.262862) can1 04EF001C#374C5E623E9C5F26
(0.263858) can1 0CEF0100#A020025700289022
(0.268846) can1 0CEF1100#B3D296E8FDA1A197
(0.272965) can1 04EF001C#F74E8850FE6E89D4
(0.273837) can1 18FFDC00#80140159028A8C53
(0.278825) can1 18FFDC00#81A802B700A0FFDB
(0.279409) can1 0CF00300#DF000FFF00FFFFFF
(0.279978) can1 0CF00400#FF7D80C81200FFFF
(0.283077) can1 04EF001C#B751324FBEB1330B
(0.283833) can1 18FFDC00#82FFFFBCD72200FF
(0.284425) can1 09F20000#006009FFFFFFFFFF
(0.284993) can1 0CEF0100#A020025900289022
(0.290089) can1 19F10D13#3B82014B02670062
(0.292189) can1 19F21139#000000FF9C801000
(0.293181) can1 04EF001C#7854D3327114D2D6
(0.298833) can1 0CF00400#FF7D80A01200FFFF
(0.303297) can1 04EF001C#375786493DD7846D
(0.303873) can1 0CEF0100#A020025600289022
(0.308845) can1 18FEF200#3500FFFFFFFF0FFF
(0.313408) can1 04EF001C#F7593047FD5932E3
(0.318857) can1 0CF00400#FF7D80A81200FFFF
(0.319397) can1 0CEF1100#42DC5D23A1BDFF34
(0.323513) can1 04EF001C#B85C552AB28C574E
(0.324081) can1 0CEF0100#A020025400279022
(0.324633) can1 18FFDC00#A0140156028A8B53
(0.328829) can1 18FFDC00#A1A902B400A0FFDB
(0.329413) can1 0CF00300#DF000FFF00FFFFFF
(0.333640) can1 04EF001C#775F84517DEF8655
(0.334204) can1 18FFDC00#A2FFFFBCD72200FF
(0.338836) can1 0CF00400#FF7D80B01200FFFF
(0.343747) can1 04EF001C#38422134311220D0
(0.344315) can1 0CEF0100#A020025500279022
(0.344916) can1 18FF1080#000000FFFFFFFC00
(0.346324) can1 18FF1180#FD05F505FFFF00FF
(0.348844) can1 18FEF100#FF4804F0FFC71FFF
(0.353855) can1 04EF001C#F744D84AFDD4DA6E
(0.358827) can1 0CF00400#FF7D80A01200FFFF
(0.363843) can1 0CEF0100#A020025500289022
(0.364387) can1 04EF001C#B9478C39B3F78E3D
(0.368847) can1 0CEF1100#17CCCACFD04631FF
(0.369431) can1 18FF1CF3#0000000000000000
(0.373819) can1 18FFDC00#C0140155028A8D53
(0.374359) can1 04EF001C#784A234C72AA2168
(0.378823) can1 18FFDC00#C1A902B300A0FFDB
(0.379408) can1 0CF00300#DF000FFF00FFFFFF
(0.379980) can1 0CF00400#FF7D80A81200FFFF
(0.383827) can1 18FFDC00#C2FFFFBCD72200FF
(0.384375) can1 04EF001C#C64DA0BBCCADA29F
(0.384964) can1 09F20000#005409FFFFFFFFFF
(0.385531) can1 0CEF0100#A020025400289022
(0.388927) can1 09F20100#6016001409FFFFC8
(0.390191) can1 19F10D13#3C81014B02670062
(0.392287) can1 19F21139#000000FF00811000
(0.393923) can1 09F20100#61837E051A00BCD7
(0.394471) can1 04EF001C#6950E2DE63D0E09A
(0.398931) can1 0CF00400#FF7D80B81200FFFF
(0.399503) can1 09F20100#622200FFFFFFFF00
(0.400075) can1 18FEEE00#68FFFFFFFFFF50FF
(0.403947) can1 09F20100#630000FFFFFFFFFF
(0.404512) can1 0CEF0100#A020025500289022
(0.405064) can1 04EF001C#2153B09D2BF3B2F9
(0.405644) can1 18FEEF00#FFFFFF3AFFFFFFFF
(0.408943) can1 18FEF200#3500FFFFFFFF11FF
(0.409523) can1 0CEA1C00#00EE000000000000
(0.410647) can1 18EEFF1C#0204450E00000042
(0.413923) can1 18FEF700#FFFF1A0119011A01
(0.414679) can1 04EF001C#0556BDB80F16BF3C
(0.418947) can1 0CF00400#FF7D80C01200FFFF
(0.419491) can1 0CEF1100#D9C1D73C8F30F087
(0.423931) can1 18FFDC00#E0140158028A8C53
(0.424495) can1 0CEF0100#A020025700279022
(0.425047) can1 04EF001C#A95864C6A3C86682
(0.428923) can1 18FFDC00#E1AA02B500A0FFDB
(0.429507) can1 0CF00300#DF000FFF00FFFFFF
(0.430091) can1 18FF1CF3#0000000000000000
(0.433919) can1 18FFDC00#E2FFFFBCD72200FF
(0.434499) can1 0CEF1700#018400000000FFFF
(0.435043) can1 04EF001C#605BB38D6AABB1A9
(0.438932) can1 0CF00400#FF7D80D01200FFFF
(0.439528) can1 18FEFC00#FFDBFFFFFFFFFFFF
(0.443959) can1 0CEF0100#A020025800289022
(0.444535) can1 18FEF600#FFFF5411FFFFFFFF
(0.445087) can1 04EF001C#455EBFA04FCEBDE4
(0.445688) can1 18FF1080#000000FFFFFFFC00
(0.446412) can1 18FF1180#FD05F505FFFF00FF
(0.447424) can1 18FF1380#000000003FC0C006
(0.448936) can1 18FEF100#FF4A04F0FFC71FFF
(0.455087) can1 04EF001C#77407C2E7DB07E0A
(0.458931) can1 0CF00400#FF7D80F01200FFFF
(0.463947) can1 0CEF0100#A020025B00289022
(0.465195) can1 04EF001C#5D434F7D57B34D59
(0.468923) can1 0CEF1100#A6F3DB09B89D06F6
(0.473923) can1 18FFDC00#00140160028A8C53
(0.475315) can1 04EF001C#1C462440160626E4
(0.478926) can1 18FFDC00#01AA02B700A0FFDB
(0.479511) can1 0CF00300#DF000FFF00FFFFFF
(0.480087) can1 0CF00400#FF7D80081300FFFF
(0.483930) can1 18FFDC00#02FFFFBDD72200FF
(0.484523) can1 09F20000#008009FFFFFFFFFF
(0.485090) can1 0CEF0100#A020025F00289022
(0.485634) can1 04EF001C#DD489346D7689182
(0.490194) can1 19F10D13#3D82014B02670062
(0.492282) can1 19F21139#000000FF64811000
(0.495510) can1 04EF001C#774B24157CEB2751
(0.498902) can1 0CF00400#FF7D80E81200FFFF
(0.503919) can1 0CEF0100#A020025F00289022
(0.505618) can1 04EF001C#954EE9009E2EEA84
(0.508910) can1 18FEF200#3600FFFFFFFF11FF
(0.515754) can1 04EF001C#F750781EFBA07C1A
(0.518914) can1 0CF00400#FF7D80C81200FFFF
(0.519458) can1 0CEF1100#6AF8766B54EF6297
(0.523901) can1 18FFDC00#20140158028A8B53
(0.524465) can1 0CEF0100#A020025B00289022
(0.525057) can1 18FF1C17#0000000000000000
(0.525873) can1 04EF001C#1454BC021884B826
(0.528897) can1 18FFDC00#21AC02B500A0FFDB
(0.529481) can1 0CF00300#DF000FFF00FFFFFF
(0.530065) can1 18FF1CF3#0000000000000000
(0.533885) can1 18FFDC00#22FFFFBDD72200FF
(0.535953) can1 04EF001C#AB5616F8A7E612BC
(0.538897) can1 0CF00400#FF7D80C81200FFFF
(0.543925) can1 0CEF0100#A020025800289022
(0.545441) can1 18FF1080#000000FFFFFFFC00
(0.546073) can1 04EF001C#6C59AE3F61F9AA9B
(0.546650) can1 18FF1180#FD05F505FFFF00FF
(0.548914) can1 18FEF100#FF4E04F0FFC71FFF
(0.556193) can1 04EF001C#F85B2E9DF41B2BD9
(0.558901) can1 0CF00400#FF7D80D81200FFFF
(0.563910) can1 0CEF0100#A020025A00289022
(0.566278) can1 04EF001C#ED5E1330E1DE16B4
(0.568906) can1 0CEF1100#27E8E74723221A6D
(0.573890) can1 18FFDC00#40140159028A8B53
(0.576397) can1 04EF001C#AC41A837A351AE33
(0.578889) can1 18FFDC00#41AD02B500A0FFDB
(0.579473) can1 0CF00300#DF000FFF00FFFFFF
(0.580041) can1 0CF00400#FF7D80C81200FFFF
(0.583893) can1 18FFDC00#42FFFFBDD72200FF
(0.584481) can1 09F20000#006409FFFFFFFFFF
(0.585045) can1 0CEF0100#A020025A00289022
(0.586541) can1 04EF001C#EE44C022E134C646
(0.590189) can1 19F10D13#3E81014B02670062
(0.592285) can1 19F21139#000000FFC8811000
(0.596641) can1 04EF001C#604752516FB754B5
(0.598897) can1 0CF00400#FF7D80D01200FFFF
(0.603912) can1 0CEF0100#A020025900289022
(0.606740) can1 04EF001C#464A1D5C484A1A78
(0.608908) can1 18FEF200#3600FFFFFFFF11FF
(0.610820) can1 09F8021C#90FC4050A100FFFF
(0.611800) can1 09F8011C#92A52618CA1C53C1
(0.612831) can1 19FA031C#90D2640097006500
(0.613835) can1 0DF0101C#90F03C4F0026AA2F
(0.614851) can1 18FEE81C#DC3AD005C6644C81
(0.616870) can1 04EF001C#204D406B2ECD47CF
(0.617986) can1 19FA041C#E0AB90FF0E01FD0C
(0.618922) can1 0CF00400#FF7D80F81200FFFF
(0.619462) can1 0CEF1100#E3EF2866625B2167
(0.620038) can1 19FA041C#E104D8280AFFFFFF
(0.620994) can1 19FA041C#E2FFFF02141E58CA
(0.622003) can1 19FA041C#E3AC0DFFFFFFFFFF
(0.623011) can1 19FA041C#E4087805A2AD0000
(0.623903) can1 18FFDC00#60140160028A8C53
(0.624467) can1 0CEF0100#A020025C00289022
(0.625039) can1 19FA041C#E5FFFFFFFFFF0A55
(0.626047) can1 19FA041C#E6286C393C0FFFFF
(0.626974) can1 04EF001C#B55039CEB46031CA
(0.628074) can1 19FA041C#E7FFFFFF0C1A04DA
(0.628898) can1 18FFDC00#61AF02B800A0FFDB
(0.629482) can1 0CF00300#DF000FFF00FFFFFF
(0.630062) can1 19FA041C#E82F0000FFFFFFFF
(0.631098) can1 19FA041C#E9FF174E0CD449A0
(0.632110) can1 19FA041C#EA0FFFFFFFFFFF18
(0.633105) can1 19FA041C#EB0D02FA19AC0DFF
(0.633882) can1 18FFDC00#62FFFFBDD72200FF
(0.634454) can1 19FA041C#ECFFFFFFFF19D606
(0.635177) can1 19FA041C#ED5C440000FFFFFF
(0.636137) can1 19FA041C#EEFFFF1B0D02C297
(0.637093) can1 04EF001C#3E53AE953F43A6B1
(0.638188) can1 19FA041C#EF0000FFFFFFFFFF
(0.638929) can1 0CF00400#FF7D80181300FFFF
(0.639485) can1 19FA041C#F01C7F21D872CC10
(0.640241) can1 19FA041C#F1FFFFFFFFFF1F0A
(0.641216) can1 19FA041C#F20F84800410FFFF
(0.641788) can1 0DF50B9B#2F7D0800000000FF
(0.642352) can1 19FA041C#F3FFFFFF20963234
(0.643224) can1 19FA041C#F408F811FFFFFFFF
(0.643960) can1 0CEF0100#A020026000289022
(0.644508) can1 19FA041C#F5FF2CB61CFC8568
(0.645268) can1 19FA041C#F610FFFFFFFFFF30
(0.646252) can1 19FA041C#F7A91A308ECC10FF
(0.646852) can1 18FF1080#000000FFFFFFFC00
(0.647408) can1 04EF001C#0256BB0003B6B3A4
(0.648288) can1 19FA041C#F8FFFFFFFFFFFFFF
(0.648865) can1 18FF1180#FD05F505FFFF00FF
(0.649437) can1 18FEF100#FF5404F0FFC71FFF
(0.650409) can1 18FF1380#000000003FC0C006
(0.657296) can1 04EF001C#7757C5A976D7CD6D
(0.658920) can1 0CF00400#FF7D80381300FFFF
(0.663932) can1 0CEF0100#A020026400289022
(0.667400) can1 04EF001C#375AEFB4374AE6F0
(0.668892) can1 0CEF1100#D8915762CF7C92D1
(0.673891) can1 18FFDC00#80140167028A8D53
(0.677519) can1 04EF001C#F75C1982F79C1026
(0.678887) can1 18FFDC00#81B102BB00A0FFDB
(0.679471) can1 0CF00300#DF000FFF00FFFFFF
(0.680043) can1 0CF00400#FF7D80301300FFFF
(0.683904) can1 18FFDC00#82FFFFBDD72200FF
(0.684492) can1 09F20000#009009FFFFFFFFFF
(0.685056) can1 0CEF0100#A020026600289022
(0.687620) can1 04EF001C#EC5F1A59ECFF139D
(0.689064) can1 18FF1CF3#0000000000000000
(0.690192) can1 19F10D13#3F82014B02670062
(0.692280) can1 19F21139#000000FF2C821000
(0.697728) can1 04EF001C#77426D8C77F26448
(0.698900) can1 0CF00400#FF7D80F01200FFFF
(0.703908) can1 0CEF0100#A020026300289022
(0.707847) can1 04EF001C#3745178B34351D8F
(0.708907) can1 18FEF200#3600FFFFFFFF11FF
(0.717970) can1 04EF001C#F747C179F7E7C85D
(0.718914) can1 0CF00400#FF7D80D81200FFFF
(0.719462) can1 0CEF1100#199F912995177841
(0.723894) can1 18FFDC00#A014015A028A8C53
(0.724458) can1 0CEF0100#A020025C00289022
(0.728066) can1 04EF001C#B74AEB74B64AE3F0
(0.728890) can1 18FFDC00#A1B402B600A0FFDB
(0.729470) can1 0CEF0017#810400000000FFFF
(0.730054) can1 0CF00300#DF000FFF00FFFFFF
(0.733886) can1 18FFDC00#A2FFFFBDD72200FF
(0.735029) can1 18FF1C17#0000000000000000
(0.738177) can1 04EF001C#774D156376FD1D47
(0.738893) can1 0CF00400#FF7D80C81200FFFF
(0.739465) can1 18E8FF00#02FFFFFFFF00EF00
(0.740053) can1 15FD069B#5D3A74FFFFFFFFFF
(0.743914) can1 0CEF0100#A020025A00289022
(0.746426) can1 18FF1080#000000FFFFFFFC00
(0.747407) can1 18FF1180#FD05F505FFFF00FF
(0.748299) can1 04EF001C#3750BF7E36C0B77A
(0.748903) can1 18FEF100#FF5D04F0FFC71FFF
(0.749487) can1 18FF1CF3#0000000000000000
(0.758402) can1 04EF001C#F8526634F61261D0
(0.758970) can1 0CF00400#FF7D80D01200FFFF
(0.763906) can1 0CEF0100#A020025900289022
(0.768510) can1 04EF001C#B9551D2BB7451A8F
(0.769062) can1 0CEF1100#41822DEEFEF62519
(0.773885) can1 18FFDC00#C014015C028A8B53
(0.778613) can1 04EF001C#7758BD567988BA32
(0.779197) can1 0CF00300#DF000FFF00FFFFFF
(0.779765) can1 0CF00400#FF7D80E81200FFFF
(0.780333) can1 18FFDC00#C1B702B700A0FFDB
(0.783897) can1 18FFDC00#C2FFFFBDD72200FF
(0.784490) can1 09F20000#007409FFFFFFFFFF
(0.785054) can1 0CEF0100#A020025A00289022
(0.788741) can1 04EF001C#C75B10D5C9AB1791
(0.790189) can1 19F10D13#4082014B02670062
(0.792281) can1 19F21139#000000FF90821000
(0.798857) can1 04EF001C#855E78B08A7E7E54
(0.799425) can1 0CF00400#FF7D80F01200FFFF
(0.803924) can1 0CEF0100#A020025D00289022
(0.808933) can1 18FEF200#3600FFFFFFFF11FF
(0.809485) can1 04EF001C#2141218F2E21272B
(0.818933) can1 0CF00400#FF7D80101300FFFF
(0.819489) can1 04EF001C#05442CBA0A542A7E
(0.820025) can1 0CEF1100#B8B8446971EF572F
(0.823925) can1 18FFDC00#E0140163028A8B53
(0.824493) can1 0CEF0100#A020025F00289022
(0.828909) can1 18FFDC00#E1BB02B900A0FFDB
(0.829461) can1 04EF001C#C646F9A0C996FFA4
(0.830045) can1 0CF00300#DF000FFF00FFFFFF
(0.830629) can1 18FF1CF3#0000000000000000
(0.833880) can1 18FFDC00#E2FFFFBDD72200FF
(0.838904) can1 0CF00400#FF7D80301300FFFF
(0.839452) can1 04EF001C#624920BF6E49255B
(0.843904) can1 0CEF0100#A020026300289022
(0.847428) can1 18FF1080#000000FFFFFFFC00
(0.848405) can1 18FF1180#FD05F505FFFF00FF
(0.848969) can1 18FEF100#FF6904F0FFC71FFF
(0.849521) can1 04EF001C#464C2D9A4A0C283E
(0.850105) can1 18FF1380#000000003FC0C006
(0.858885) can1 0CF00400#FF7D80481300FFFF
(0.859557) can1 04EF001C#774E0D107B0E08B4
(0.863941) can1 0CEF0100#A020026700289022
(0.868894) can1 0CEF1100#9FA21C970AEED531
(0.869650) can1 04EF001C#3751B71F3BC1B27B
(0.873901) can1 18FFDC00#0014016B028A8B53
(0.878909) can1 18FFDC00#01BF02BC00A0FFDB
(0.879493) can1 0CF00300#DF000FFF00FFFFFF
(0.880053) can1 04EF001C#F8536E65F4836B41
(0.880621) can1 0CF00400#FF7D80501300FFFF
(0.883893) can1 18FFDC00#02FFFFBDD72200FF
(0.884485) can1 09F20000#00A009FFFFFFFFFF
(0.885049) can1 0CEF0100#A020026900289022
(0.889848) can1 04EF001C#B9560698B796025C
(0.890396) can1 19F10D13#4182014B02670062
(0.892288) can1 19F21139#000000FFF4821000
(0.898912) can1 0CF00400#FF7D80101300FFFF
(0.899976) can1 04EF001C#7759B6E779F9B243
(0.903900) can1 18FEEF00#FFFFFF3AFFFFFFFF
(0.904464) can1 0CEF0100#A020026600289022
(0.908896) can1 18FEF200#3600FFFFFFFF11FF
(0.910084) can1 04EF001C#A25C4D4AACFC49EE
(0.918887) can1 0CF00400#FF7D80001300FFFF
(0.919427) can1 0CEF1100#D0AA4D2D75A0B509
(0.920231) can1 04EF001C#1D5FEFA1136FEB85
(0.923887) can1 18FFDC00#20140160028A8D53
(0.924459) can1 0CEF0100#A020026000289022
(0.928888) can1 18FFDC00#21C302B800A0FFDB
(0.929472) can1 0CF00300#DF000FFF00FFFFFF
(0.930344) can1 04EF001C#DE41DAA7D7F1D903
(0.933872) can1 18FFDC00#22FFFFBDD72200FF
(0.934452) can1 0CEF1700#018400000000FFFF
(0.938900) can1 0CF00400#FF7D80101300FFFF
(0.940412) can1 04EF001C#9C44B2B29534B1D6
(0.943900) can1 0CEF0100#A020026000289022
(0.944476) can1 18FEF600#FFFF5411FFFFFFFF
(0.947416) can1 18FF1080#000000FFFFFFFC00
(0.948396) can1 18FF1180#FD05F505FFFF00FF
(0.948965) can1 18FEF100#FF7704F0FFC71FFF
(0.950524) can1 04EF001C#5D476DB954376EDD
(0.958912) can1 0CF00400#FF7D80301300FFFF
(0.960616) can1 04EF001C#4B4A1334426A1030
(0.963940) can1 0CEF0100#A020026300289022
(0.968892) can1 0CEF1100#EBD3CA281746C8C0
(0.970739) can1 04EF001C#ED4C8002E5CC82A6
(0.973903) can1 18FFDC00#40140167028A8C53
(0.978895) can1 18FFDC00#41C802BB00A0FFDB
(0.979479) can1 0CF00300#DF000FFF00FFFFFF
(0.980047) can1 0CF00400#FF7D80381300FFFF
(0.980895) can1 04EF001C#D44FA0C9DCEFA24D
(0.983875) can1 18FFDC00#42FFFFBDD72200FF
(0.984467) can1 09F20000#00A009FFFFFFFFFF
(0.985031) can1 0CEF0100#A020026600289022
(0.989076) can1 18FF1CF3#0000000000000000
(0.990192) can1 19F10D13#4282014B02670062
(0.990960) can1 04EF001C#A1523E7CA9123C18
(0.992280) can1 19F21139#000000FF58831000
(0.998884) can1 0CF00400#FF7D80501300FFFF
(1.001080) can1 04EF001C#BD551A9BB51518FF
(1.003896) can1 0CEF0100#A020026800289022
(1.008891) can1 18FEF200#3700FFFFFFFF11FF
(1.011187) can1 04EF001C#7E58B79E7588B67A
(1.018911) can1 0CF00400#FF7D80701300FFFF
(1.019455) can1 0CEF1100#A3D6B269FA9F55AF
(1.021290) can1 04EF001C#515B81E55AEB8061
(1.023906) can1 18FFDC00#6014016F028A8B53
(1.024475) can1 0CEF0100#A020026B00289022
(1.026422) can1 18FF1C17#0000000000000000
(1.026998) can1 18FF2117#06FFFFFF00FFFFFF
(1.028878) can1 18FFDC00#61CD02BD00A0FFDB
(1.029462) can1 0CF00300#DF000FFF00FFFFFF
(1.030046) can1 18FF1CF3#0000000000000000
(1.031422) can1 04EF001C#355ECEC03E6ECFC4
(1.033874) can1 18FFDC00#62FFFFBDD72200FF
(1.038874) can1 0CF00400#FF7D80981300FFFF
(1.041522) can1 04EF001C#864088468C9088A2
(1.043890) can1 0CEF0100#A020026F00279022
(1.048427) can1 18FF1080#000000FFFFFFFC00
(1.048987) can1 18FEF100#FF8604F0FFC71FFF
(1.049564) can1 18FF1180#FD05F505FFFF00FF
(1.050404) can1 18FF1380#000000003FC0C006
(1.051624) can1 04EF001C#2143327D2B933299
(1.058920) can1 0CF00400#FF7D80C01300FFFF
(1.061724) can1 04EF001C#784559B372F55937
(1.063887) can1 0CEF0100#A020027400279022
(1.068859) can1 0CEF1100#65D7CDD908E2CBBC
(1.071847) can1 04EF001C#384873BE32D8731A
(1.073867) can1 18FFDC00#8014017B028A8B53
(1.078863) can1 18FFDC00#81D102C000A0FFDB
(1.079447) can1 0CF00300#DF000FFF00FFFFFF
(1.080014) can1 0CF00400#FF7D80D01300FFFF
(1.081950) can1 04EF001C#634B326569DB32C1
(1.083922) can1 18FFDC00#82FFFFBDD72200FF
(1.084514) can1 09F20000#00E809FFFFFFFFFF
(1.085078) can1 0CEF0100#A020027900279022
(1.090190) can1 19F10D13#4381014B02670062
(1.092058) can1 04EF001C#B74DD0C3BD1DD0A7
(1.092626) can1 19F21139#000000FFBC831000
(1.098882) can1 0CF00400#FF7D80B01300FFFF
(1.099466) can1 18FECA00#00FF00000000FFFF
(1.102181) can1 04EF001C#7750FEDE7DE0FE5A
(1.103881) can1 0CEF0100#A020027800279022
(1.108906) can1 18FEF200#3800FFFFFFFF10FF
(1.112286) can1 04EF001C#3753A4AD3D33A489
(1.117365) can1 09F8021C#91FC37518400FFFF
(1.118357) can1 09F8011C#6AA52618161D53C1
(1.118917) can1 0CEF1100#2DC2359C7F3E7A07
(1.119489) can1 0CF00400#FF7D80A01300FFFF
(1.120045) can1 19FA031C#91D2640097006500
(1.121405) can1 0DF0101C#91F03C4F0026AA2F
(1.122413) can1 04EF001C#385683D0CDB17C73
(1.123428) can1 18FEE81C#913BC804E0644C81
(1.123992) can1 0CEF0100#A020027500279022
(1.124549) can1 18FFDC00#A0140174028A8B53
(1.125112) can1 19FA041C#00AB91FF0E01FD0C
(1.126528) can1 19FA041C#0104D8280AFFFFFF
(1.127528) can1 19FA041C#02FFFF02141E58CA
(1.128548) can1 19FA041C#03AC0DFFFFFFFFFF
(1.129132) can1 0CF00300#DF000FFF00FFFFFF
(1.129716) can1 18FF1CF3#0000000000000000
(1.130288) can1 18FFDC00#A1D502BD00A0FFDB
(1.130852) can1 19FA041C#04087805A2AD0000
(1.131596) can1 19FA041C#05FFFFFFFFFF0A55
(1.132515) can1 04EF001C#965950AF633EAF8C
(1.133603) can1 19FA041C#06286C393C0FFFFF
(1.134167) can1 18FFDC00#A2FFFFBDD72200FF
(1.134739) can1 19FA041C#07FFFFFF0C1A04DA
(1.135655) can1 19FA041C#082F0000FFFFFFFF
(1.136622) can1 19FA041C#09FF174E0CD44904
(1.137642) can1 19FA041C#0A10FFFFFFFFFF18
(1.138642) can1 19FA041C#0B0D02FA19AC0DFF
(1.139210) can1 0CF00400#FF7D80A81300FFFF
(1.139786) can1 19FA041C#0CFFFFFFFF19D606
(1.140694) can1 19FA041C#0D5C440000FFFFFF
(1.141678) can1 19FA041C#0EFFFF1B0D02C297
(1.142626) can1 04EF001C#2D5CC672D83B3951
(1.143725) can1 19FA041C#0F0000FFFFFFFFFF
(1.144289) can1 0CEF0100#A020027400279022
(1.144849) can1 19FA041C#101C7F21D872CC10
(1.145765) can1 19FA041C#11FFFFFFFFFF1F0A
(1.146741) can1 19FA041C#120F84806810FFFF
(1.147749) can1 19FA041C#13FFFFFF20963234
(1.148421) can1 18FF1080#000000FFFFFFFC00
(1.148985) can1 18FEF100#FF9404F0FFC71FFF
(1.149562) can1 18FF1180#FD05F505FFFF00FF
(1.150138) can1 19FA041C#14085C12FFFFFFFF
(1.150777) can1 19FA041C#15FF2CB61CFC8568
(1.151797) can1 19FA041C#1610FFFFFFFFFF30
(1.152741) can1 04EF001C#DC5E20F82899DE7B
(1.153809) can1 19FA041C#17A91A308ECC10FF
(1.154828) can1 19FA041C#18FFFFFFFFFFFFFF
(1.158896) can1 0CF00400#FF7D80981300FFFF
(1.162860) can1 04EF001C#F740FABE0327049D
(1.163884) can1 0CEF0100#A020027400279022
(1.168856) can1 0CEF1100#E9C5FABD80464CFD
(1.172952) can1 04EF001C#B743A0BD43A45E1E
(1.173864) can1 18FFDC00#C0140175028A8C53
(1.178876) can1 18FFDC00#C1DA02BC00A0FFDB
(1.179460) can1 0CF00300#DF000FFF00FFFFFF
(1.180032) can1 0CF00400#FF7D80B01300FFFF
(1.183076) can1 04EF001C#77464EB88321B09B
(1.183900) can1 18FFDC00#C2FFFFBDD72200FF
(1.184488) can1 09F20000#00DC09FFFFFFFFFF
(1.185052) can1 0CEF0100#A020027400279022
(1.190184) can1 19F10D13#4482014B02670062
(1.192292) can1 19F21139#000000FF20841000
(1.193188) can1 04EF001C#C5498157315E7F74
(1.198872) can1 0CF00400#FF7D80C01300FFFF
(1.203299) can1 04EF001C#614C087296BBF5B1
(1.203899) can1 0CEF0100#A020027600279022
(1.208887) can1 18FEF200#3800FFFFFFFF10FF
(1.213406) can1 04EF001C#464F3649B198CBAA
(1.218894) can1 0CF00400#FF7D80D01300FFFF
(1.219442) can1 0CEF1100#94FD261A1FEC074E
(1.223526) can1 04EF001C#05529F4CF2E562CF
(1.224090) can1 0CEF0100#A020027800279022
(1.224646) can1 18FFDC00#E014017C028A8B53
(1.228870) can1 18FFDC00#E1DE02BE00A0FFDB
(1.229454) can1 0CF00300#DF000FFF00FFFFFF
(1.233638) can1 04EF001C#A2540D725543F051
(1.234206) can1 18FFDC00#E2FFFFBDD72200FF
(1.238118) can1 15FD069B#5E3A74FFFFFFFFFF
(1.238898) can1 0CF00400#FF7D80F01300FFFF
(1.243749) can1 04EF001C#855733497220CE0A
(1.244318) can1 0CEF0100#A020027B00279022
(1.248913) can1 18FEF100#FFA104F0FFC71FFF
(1.249514) can1 18FF1080#000000FFFFFFFC00
(1.250398) can1 18FF1180#FD05F505FFFF00FF
(1.251390) can1 18FF1380#000000003FC0C006
(1.253842) can1 04EF001C#B9597EA74E4E8384
(1.258862) can1 0CF00400#FF7D80D81300FFFF
(1.263886) can1 0CEF0100#A020027C00279022
(1.264429) can1 04EF001C#775C9ED280CB6371
(1.265021) can1 18FF1C17#0000000000000000
(1.268861) can1 0CEF1100#51F7C170F995793F
(1.273909) can1 18FFDC00#00140175028A8C53
(1.274469) can1 04EF001C#385FCBA9CFC8360A
(1.278893) can1 18FFDC00#01E202BB00A0FFDB
(1.279477) can1 0CF00300#DF000FFF00FFFFFF
(1.280045) can1 0CF00400#FF7D80901300FFFF
(1.283897) can1 18FFDC00#02FFFFBDD72200FF
(1.284461) can1 04EF001C#F741F2CF00360F8C
(1.285057) can1 09F20000#00C009FFFFFFFFFF
(1.285621) can1 0CEF0100#A020027800279022
(1.289077) can1 0CEF0017#810400000000FFFF
(1.290189) can1 19F10D13#4582014B02670062
(1.292282) can1 19F21139#000000FF84841000
(1.294282) can1 04EF001C#B74498CA405365E9
(1.298886) can1 0CF00400#FF7D80701300FFFF
(1.299458) can1 18E8FF00#02FFFFFFFF00EF00
(1.303877) can1 0CEF0100#A020027000279022
(1.304421) can1 04EF001C#774746C98030BB8A
(1.308881) can1 18FEF200#3600FFFFFFFF12FF
(1.309465) can1 18FF1CF3#0000000000000000
(1.314513) can1 04EF001C#374A6CC4C07D91C7
(1.318893) can1 0CF00400#FF7D80681300FFFF
(1.319445) can1 0CEF1100#02E1E72D307883B5
(1.323920) can1 18FFDC00#2014016D028A8C54
(1.324484) can1 0CEF0100#A020026D00279022
(1.325036) can1 04EF001C#F84C95BA0E1B69D9
(1.328896) can1 18FFDC00#21E502B800A0FFDB
(1.329480) can1 0CF00300#DF000FFF00FFFFFF
(1.330064) can1 18FF1CF3#0000000000000000
(1.333852) can1 18FFDC00#22FFFFBDD72200FF
(1.334760) can1 04EF001C#B84FCFB94EB8337A
(1.338872) can1 0CF00400#FF7D80701300FFFF
(1.343888) can1 0CEF0100#A020026D00279022
(1.344868) can1 04EF001C#7752EEDC810512BF
(1.348876) can1 18FEF100#FFAC04F0FFC71FFF
(1.349476) can1 18FF1080#000000FFFFFFFC00
(1.350392) can1 18FF1180#FD05F505FFFF00FF
(1.354957) can1 04EF001C#38559BB3CE1267D0
(1.358897) can1 0CF00400#FF7D80801300FFFF
(1.363885) can1 0CEF0100#A020026E00279022
(1.365081) can1 04EF001C#6158A876973F5435
(1.368896) can1 0CEF1100#B898446033FCCD37
(1.373880) can1 18FFDC00#40140171028A8C53
(1.375208) can1 04EF001C#DC5A009C2A5DFCBF
(1.378852) can1 18FFDC00#41E902BA00A0FFDB
(1.379436) can1 0CF00300#DF000FFF00FFFFFF
(1.380008) can1 0CF00400#FF7D80881300FFFF
(1.383860) can1 18FFDC00#42FFFFBDD72200FF
(1.384456) can1 09F20000#00C009FFFFFFFFFF
(1.385020) can1 0CEF0100#A020027000279022
(1.385572) can1 04EF001C#2E5ED508D8F9298B
(1.388979) can1 09F20100#8016003209FFFFD2
(1.390292) can1 19F10D13#4682014B02670062
(1.392387) can1 19F21139#000000FFE8841000
(1.393964) can1 09F20100#81837B051B00BDD7
(1.394536) can1 18FEE500#8D310000FFFFFFFF
(1.395536) can1 04EF001C#C640CA5630273615
(1.398963) can1 0CF00400#FF7D80681300FFFF
(1.399547) can1 09F20100#822200FFFFFFFF00
(1.400120) can1 18FEEE00#68FFFFFFFFFF50FF
(1.404016) can1 09F20100#830000FFFFFFFFFF
(1.404584) can1 0CEF0100#A020026F00279022
(1.405164) can1 18FEEF00#FFFFFF3AFFFFFFFF
(1.405704) can1 04EF001C#6243737593848896
(1.408996) can1 18FEF200#3600FFFFFFFF11FF
(1.409576) can1 0CEA1C00#00EE000000000000
(1.410732) can1 18EEFF1C#0204450E00000042
(1.413984) can1 18FEF700#FFFF1A0118011701
(1.415748) can1 04EF001C#7D4644888C01BFEB
(1.419004) can1 0CF00400#FF7D80681300FFFF
(1.419556) can1 0CEF1100#CA97E373785C13E9
(1.423960) can1 18FFDC00#6014016E028A8C53
(1.424524) can1 0CEF0100#A020026D00279022
(1.425864) can1 04EF001C#6449257F959EDEBC
(1.428960) can1 18FFDC00#61EB02B900A0FFDB
(1.429544) can1 0CF00300#DF000FFF00FFFFFF
(1.430128) can1 18FF1CF3#0000000000000000
(1.433948) can1 18FFDC00#62FFFFBDD72200FF
(1.434528) can1 0CEF1700#018400000000FFFF
(1.435976) can1 04EF001C#014C6B52F0BB90B1
(1.438968) can1 0CF00400#FF7D80801300FFFF
(1.439564) can1 18FEFC00#FFDBFFFFFFFFFFFF
(1.444015) can1 0CEF0100#A020026E00279022
(1.444592) can1 18FEF600#FFFF5410FFFFFFFF
(1.446083) can1 04EF001C#E44E99781259657B
(1.448991) can1 18FEF100#FFB604F0FFC71FFF
(1.450512) can1 18FF1080#000000FFFFFFFC00
(1.451492) can1 18FF1180#FD05F505FFFF0000
(1.452480) can1 18FF1380#000000003FC0C006
(1.456180) can1 04EF001C#B75038FE4107C4BD
(1.458996) can1 0CF00400#FF7D80801300FFFF
(1.464012) can1 0CEF0100#A020027000279022
(1.466276) can1 04EF001C#AB533C1D5D64C03E
(1.468952) can1 0CEF1100#20BAF6A9D2794433
(1.473952) can1 18FFDC00#8014016A028A8C53
(1.475176) can1 18FF1C17#0000000000000000
(1.476384) can1 04EF001C#6C56D5209AC129A3
(1.478944) can1 18FFDC00#81EE02B700A0FFDB
(1.479528) can1 0CF00300#DF000FFF00FFFFFF
(1.480096) can1 0CF00400#FF7D80481300FFFF
(1.483960) can1 18FFDC00#82FFFFBED72200FF
(1.484548) can1 09F20000#009C09FFFFFFFFFF
(1.485112) can1 0CEF0100#A020026D00279022
(1.486516) can1 04EF001C#535993C7A5FE6F64
(1.490292) can1 19F10D13#4782014B02670062
(1.492388) can1 19F21139#000000FF4C851000
(1.496607) can1 04EF001C#B75B60E5415C9CE6
(1.498959) can1 0CF00400#FF7D80181300FFFF
(1.503967) can1 0CEF0100#A020026600279022
(1.506719) can1 04EF001C#775E8EE086D97563
(1.508971) can1 18FEF200#3500FFFFFFFF11FF
(1.516842) can1 04EF001C#374134FFC626CF9C
(1.518986) can1 0CF00400#FF7D80281300FFFF
(1.519526) can1 0CEF1100#6FB877113BB5B0BD
(1.523982) can1 18FFDC00#A0140166028A8B53
(1.524550) can1 0CEF0100#A020026300279022
(1.526946) can1 04EF001C#2C440722DD83FCE1
(1.528986) can1 18FFDC00#A1F002B600A0FFDB
(1.529570) can1 0CF00300#DF000FFF00FFFFFF
(1.533978) can1 18FFDC00#A2FFFFBED72200FF
(1.537050) can1 04EF001C#B74688F846E1735B
(1.539002) can1 0CF00400#FF7D80201300FFFF
(1.543998) can1 0CEF0100#A020026400279022
(1.547170) can1 04EF001C#77493507853ECE84
(1.548966) can1 18FEF100#FFBD04F0FFC71FFF
(1.550502) can1 18FF1080#000000FFFFFFFC00
(1.551482) can1 18FF1180#FD05F505FFFF00FF
(1.557282) can1 04EF001C#384C507ACA7BABB9
(1.558962) can1 0CF00400#FF7D80081300FFFF
(1.563982) can1 0CEF0100#A020026200279022
(1.567385) can1 04EF001C#F74E890005D97263
(1.568933) can1 0CEF1100#A7B3DB53DCD54584
(1.573945) can1 18FFDC00#C0140161028A8D53
(1.577493) can1 04EF001C#B8513C674A26C7E4
(1.578949) can1 18FFDC00#C1F202B400A0FFDB
(1.579533) can1 0CF00300#DF000FFF00FFFFFF
(1.580105) can1 0CF00400#FF7D80101300FFFF
(1.583960) can1 18FFDC00#C2FFFFBED72200FF
(1.584548) can1 09F20000#008809FFFFFFFFFF
(1.585116) can1 0CEF0100#A020026100279022
(1.587624) can1 04EF001C#1855B963EA2242E0
(1.590292) can1 19F10D13#4882014B02670062
(1.592384) can1 19F21139#000000FFB0851000
(1.597728) can1 04EF001C#C657719134C08AF2
(1.598960) can1 0CF00400#FF7D80281300FFFF
(1.603988) can1 0CEF0100#A020026200279022
(1.607836) can1 04EF001C#855A5894773DA317
(1.609000) can1 18FEF200#3600FFFFFFFF11FF
(1.609584) can1 18FF1CF3#0000000000000000
(1.617959) can1 04EF001C#235DC3A3D13A3820
(1.618983) can1 0CF00400#FF7D80381300FFFF
(1.619531) can1 0CEF1100#FFAE6794032ECD7C
(1.623987) can1 18FFDC00#E0140168028A8B53
(1.624551) can1 0CEF0100#A020026500279022
(1.625111) can1 09F8021C#92FCB0518500FFFF
(1.626066) can1 09F8011C#56A52618481D53C1
(1.627078) can1 19FA031C#92D2640097006500
(1.628078) can1 04EF001C#5940526EAB87A94D
(1.628962) can1 18FFDC00#E1F402B700A0FFDB
(1.629547) can1 0CF00300#DF000FFF00FFFFFF
(1.630094) can1 0DF0101C#92F03C4F104DAA2F
(1.630678) can1 18FF1CF3#0000000000000000
(1.631222) can1 18FEE81C#EA3BD004EE644D81
(1.632230) can1 19FA041C#20AB92FF0E01FD0C
(1.633198) can1 19FA041C#2104D8F00AFFFFFF
(1.633946) can1 18FFDC00#E2FFFFBED72200FF
(1.634514) can1 19FA041C#22FFFF02141E58CA
(1.635250) can1 19FA041C#23AC0DFFFFFFFFFF
(1.636225) can1 19FA041C#24087805A2AD0000
(1.637257) can1 19FA041C#25FFFFFFFFFF0A55
(1.637897) can1 0DF50B9B#30890800000000FF
(1.638441) can1 04EF001C#6E437CD59CE48796
(1.639017) can1 0CF00400#FF7D80481300FFFF
(1.639581) can1 19FA041C#26286C393C0FFFFF
(1.640297) can1 19FA041C#27FFFFFF0C1A04DA
(1.641297) can1 19FA041C#282F0000FFFFFFFF
(1.642292) can1 19FA041C#29FF174E0CD44904
(1.643324) can1 19FA041C#2A10FFFFFFFFFF18
(1.643968) can1 0CEF0100#A020026700279022
(1.644528) can1 19FA041C#2B0D02FA19480DFF
(1.645376) can1 19FA041C#2CFFFFFFFF19D606
(1.646347) can1 19FA041C#2D5C440000FFFFFF
(1.647343) can1 19FA041C#2EFFFF1B0D02C297
(1.648303) can1 04EF001C#3E460650CC21FDD3
(1.648979) can1 18FEF100#FFC204F0FFC71FFF
(1.649567) can1 19FA041C#2F0000FFFFFFFFFF
(1.650423) can1 19FA041C#301C7F21D872A00F
(1.651406) can1 19FA041C#31FFFFFFFFFF1F0A
(1.652007) can1 18FF1080#000000FFFFFFFC00
(1.652587) can1 19FA041C#320F84800410FFFF
(1.653399) can1 19FA041C#33FFFFFF20963234
(1.653976) can1 18FF1180#FD05F505FFFF00FF
(1.654560) can1 19FA041C#3408F811FFFFFFFF
(1.655412) can1 19FA041C#35FF2CB61CFC8568
(1.655997) can1 18FF1380#000000003FC0C006
(1.656581) can1 19FA041C#3610FFFFFFFFFF30
(1.657437) can1 19FA041C#37A91A308E0410FF
(1.658412) can1 04EF001C#71483B1683DFC055
(1.658993) can1 0CF00400#FF7D80201300FFFF
(1.659581) can1 19FA041C#38FFFFFFFFFFFFFF
(1.663981) can1 0CEF0100#A020026700279022
(1.668496) can1 04EF001C#774A2D24859DD627
(1.669040) can1 0CEF1100#2BA5CC36E371C77C
(1.673944) can1 18FFDC00#0014015B028A8C53
(1.678608) can1 04EF001C#374D5723C5DAAC60
(1.679192) can1 0CF00300#DF000FFF00FFFFFF
(1.679764) can1 0CF00400#FF7D80D81200FFFF
(1.680340) can1 18FFDC00#01F502B200A0FFDB
(1.683952) can1 18FFDC00#02FFFFBED72200FF
(1.684540) can1 09F20000#006C09FFFFFFFFFF
(1.685108) can1 0CEF0100#A020025F00279022
(1.688723) can1 04EF001C#F74F812104787BC2
(1.689303) can1 0CEF0017#810400000000FFFF
(1.690292) can1 19F10D13#4982014B02670062
(1.692388) can1 19F21139#000000FF14861000
(1.698823) can1 04EF001C#B7522B3C4425D19F
(1.699391) can1 0CF00400#FF7D80E81200FFFF
(1.699963) can1 18E8FF00#02FFFFFFFF00EF00
(1.703975) can1 0CEF0100#A020025B00279022
(1.708938) can1 04EF001C#7755D52B84322F88
(1.709515) can1 18FEF200#3500FFFFFFFF13FF
(1.718983) can1 0CF00400#FF7D80F81200FFFF
(1.719539) can1 04EF001C#3758FF26C59F0425
(1.720083) can1 0CEF1100#98D3D570757D0F11
(1.723987) can1 18FFDC00#2014015F028A8D53
(1.724559) can1 0CEF0100#A020025D00279022
(1.728987) can1 18FFDC00#21F602B500A0FFDB
(1.729539) can1 04EF001C#F75A2924043DD387
(1.730123) can1 0CF00300#DF000FFF00FFFFFF
(1.730707) can1 18FF1CF3#0000000000000000
(1.733975) can1 18FFDC00#22FFFFBED72200FF
(1.738998) can1 0CF00400#FF7D80001300FFFF
(1.739543) can1 04EF001C#B75D5323447AA9C0
(1.742734) can1 15FD069B#5F3A74FFFFFFFFFF
(1.743998) can1 0CEF0100#A020025F00279022
(1.748986) can1 18FEF100#FFC604F0FFC71FFF
(1.749542) can1 04EF001C#77407D3E844787FD
(1.751490) can1 18FF1080#000000FFFFFFFC00
(1.752471) can1 18FF1180#FD05F505FFFF00FF
(1.758994) can1 0CF00400#FF7D80001300FFFF
(1.759546) can1 04EF001C#38432835CB34D2F6
(1.763998) can1 0CEF0100#A020026000279022
(1.768942) can1 0CEF1100#47CF044FBC334E9C
(1.769642) can1 04EF001C#F745D14B04322B88
(1.773938) can1 18FFDC00#4014015E028A8C53
(1.778943) can1 18FFDC00#41F702B600A0FFDB
(1.779527) can1 0CF00300#DF000FFF00FFFFFF
(1.780083) can1 04EF001C#B848F43E4B1F0EDD
(1.780655) can1 0CF00400#FF7D80F81200FFFF
(1.783967) can1 18FFDC00#42FFFFBED72200FF
(1.784558) can1 09F20000#008009FFFFFFFFFF
(1.785122) can1 0CEF0100#A020025E00279022
(1.785714) can1 18FF1C17#0000000000000000
(1.789838) can1 04EF001C#054C6CD2F63B9611
(1.790382) can1 19F10D13#4A83014B02670061
(1.792390) can1 19F21139#000000FF78861000
(1.798950) can1 0CF00400#FF7D80001300FFFF
(1.799977) can1 04EF001C#C74EB8C034F942C3
(1.803961) can1 0CEF0100#A020025F00279022
(1.808977) can1 18FEF200#3500FFFFFFFF10FF
(1.810089) can1 04EF001C#6151E3FF91561A5C
(1.818952) can1 0CF00400#FF7D80081300FFFF
(1.819501) can1 0CEF1100#11D40B7967CD6DC5
(1.820236) can1 04EF001C#6E54C4829E333D41
(1.823948) can1 18FFDC00#60140163028A8C53
(1.824521) can1 0CEF0100#A020026000279022
(1.828980) can1 18FFDC00#61F702B700A0FFDB
(1.829564) can1 0CF00300#DF000FFF00FFFFFF
(1.830148) can1 18FF1CF3#0000000000000000
(1.830696) can1 04EF001C#2D579D99DED067BA
(1.833984) can1 18FFDC00#62FFFFBED72200FF
(1.838973) can1 0CF00400#FF7D80381300FFFF
(1.840417) can1 04EF001C#C9590EB73ABEF4F4
(1.843985) can1 0CEF0100#A020026300279022
(1.848984) can1 18FEF100#FFC704F0FFC71FFF
(1.850528) can1 04EF001C#AD5C41A25ECBBBA1
(1.852489) can1 18FF1080#000000FFFFFFFC00
(1.853465) can1 18FF1180#FD04F504FFFF00FF
(1.854481) can1 18FF1380#000000003FC0C006
(1.858961) can1 0CF00400#FF7D80301300FFFF
(1.860613) can1 04EF001C#155FE461E6481EE2
(1.863953) can1 0CEF0100#A020026600279022
(1.868929) can1 0CEF1100#C6C4B805B792A683
(1.870717) can1 04EF001C#AC41A8B75F565234
(1.873937) can1 18FFDC00#80140163028A8B53
(1.878936) can1 18FFDC00#81F702B700A0FFDB
(1.879520) can1 0CF00300#DF000FFF00FFFFFF
(1.880096) can1 0CF00400#FF7D80081300FFFF
(1.880868) can1 04EF001C#9544B87A665342F9
(1.883960) can1 18FFDC00#82FFFFBED72200FF
(1.884556) can1 09F20000#007C09FFFFFFFFFF
(1.885124) can1 0CEF0100#A020026400279022
(1.890288) can1 19F10D13#4B82014B02670062
(1.890948) can1 04EF001C#F846C6100BF13C33
(1.892385) can1 19F21139#000000FFDC861000
(1.898941) can1 0CF00400#FF7D80C81200FFFF
(1.901041) can1 04EF001C#ED49ABA71D0E5264
(1.903965) can1 18FEEF00#FFFFFF3AFFFFFFFF
(1.904537) can1 0CEF0100#A020025D00279022
(1.908977) can1 18FEF200#3400FFFFFFFF11FF
(1.911153) can1 04EF001C#AB4CC79258CB3D91
(1.918936) can1 0CF00400#FF7D80901200FFFF
(1.919477) can1 0CEF1100#FBC4B6AD4CBDD61A
(1.921276) can1 04EF001C#A54FD1E156A82B82
(1.923944) can1 18FFDC00#A0140151028A8D53
(1.924512) can1 0CEF0100#A020025600279022
(1.928976) can1 18FFDC00#A1F702B000A0FFDB
(1.929560) can1 0CF00300#DF000FFF00FFFFFF
(1.930144) can1 18FF1CF3#0000000000000000
(1.931388) can1 04EF001C#6452FEF4979504B7
(1.933972) can1 18FFDC00#A2FFFFBED72200FF
(1.934552) can1 0CEF1700#018400000000FFFF
(1.938968) can1 0CF00400#FF7D80701200FFFF
(1.941496) can1 04EF001C#EC5442421F03B861
(1.943976) can1 0CEF0100#A020025000279022
(1.944552) can1 18FEF600#FFFF5410FFFFFFFF
(1.948979) can1 18FEF100#FFC704F0FFC71FFF
(1.951611) can1 04EF001C#7757C59984603FDA
(1.952492) can1 18FF1080#000000FFFFFFFC00
(1.953468) can1 18FF1180#FD04F504FFFF00FF
(1.958981) can1 0CF00400#FF7D80701200FFFF
(1.961716) can1 04EF001C#395AE1E4CA6D1BA7
(1.963980) can1 0CEF0100#A020024D00279022
(1.968956) can1 0CEF1100#9FE35485D2A5CBE3
(1.971836) can1 04EF001C#F75C199204ABE311
(1.973960) can1 18FFDC00#C0140151028A8C53
(1.978936) can1 18FFDC00#C1F702B200A0FFDB
(1.979519) can1 0CF00300#DF000FFF00FFFFFF
(1.980087) can1 0CF00400#FF7D80981200FFFF
(1.981951) can1 04EF001C#24402C16D757D675
(1.983963) can1 18FFDC00#C2FFFFBED72200FF
(1.984555) can1 09F20000#005009FFFFFFFFFF
(1.985123) can1 0CEF0100#A020024F00279022
(1.990291) can1 19F10D13#4C82014B02670062
(1.992063) can1 04EF001C#FA42E4F409651EB7
(1.992631) can1 19F21139#000000FF40871000
(1.994931) can1 18FF1C17#0000000000000000
(1.998967) can1 0CF00400#FF7D80C81200FFFF
(2.002170) can1 04EF001C#A145852B51E27CE8
(2.003982) can1 0CEF0100#A020025500289022
(2.008990) can1 18FEF200#3500FFFFFFFF11FF
(2.012278) can1 04EF001C#8648CB1E750F313D
(2.018971) can1 0CF00400#FF7D80F81200FFFF
(2.019511) can1 0CEF1100#59E0BB35AE430984
(2.022402) can1 04EF001C#3B4B6BF5C86C91B6
(2.023970) can1 18FFDC00#E014015F028A8B52
(2.024534) can1 0CEF0100#A020025B00289022
(2.028970) can1 18FFDC00#E1F702B700A0FFDB
(2.029554) can1 0CF00300#DF000FFF00FFFFFF
(2.030139) can1 18FF1CF3#0000000000000000
(2.032514) can1 04EF001C#E24D840B117A7E68
(2.033970) can1 18FFDC00#E2FFFFBED72200FF
(2.038974) can1 0CF00400#FF7D80081300FFFF
(2.042622) can1 04EF001C#C5504A2E3647B06D
(2.043982) can1 0CEF0100#A020025F00279022
(2.048978) can1 18FEF100#FFC504F0FFC71FFF
(2.052478) can1 18FF1080#000000FFFFFFFC00
(2.053026) can1 04EF001C#7A53E8D589A41276
(2.053599) can1 18FF1180#FD04F504FFFF00FF
(2.054479) can1 18FF1380#000000003FC0C006
(2.058975) can1 0CF00400#FF7D80D01200FFFF
(2.062827) can1 04EF001C#B8551CC34A22E7E0
(2.063979) can1 0CEF0100#A020025E00279022
(2.068943) can1 0CEF1100#609684A391E28E24
(2.072930) can1 04EF001C#7758BDB6856F46D5
(2.073958) can1 18FFDC00#00140155028A8C52
(2.078967) can1 18FFDC00#01F602B300A0FFDB
(2.079551) can1 0CF00300#DF000FFF00FFFFFF
(2.080123) can1 0CF00400#FF7D80A81200FFFF
(2.083063) can1 04EF001C#385BE8DDCA7C13BE
(2.083987) can1 18FFDC00#02FFFFBED72200FF
(2.084575) can1 09F20000#005409FFFFFFFFFF
(2.085139) can1 0CEF0100#A020025700279022
(2.090291) can1 19F10D13#4D82014B02670062
(2.092386) can1 19F21139#000000FFA4871000
(2.093162) can1 04EF001C#F75D11A305DAEA60
(2.098962) can1 0CF00400#FF7D80B01200FFFF
(2.099546) can1 18FECA00#00FF00000000FFFF
(2.103282) can1 04EF001C#B740BBBE45C7407D
(2.103982) can1 0CEF0100#A020025500289022
(2.108986) can1 18FEF200#3500FFFFFFFF11FF
(2.113373) can1 04EF001C#774365BD85E49E5E
(2.118957) can1 0CF00400#FF7D80B01200FFFF
(2.119497) can1 0CEF1100#A794235B5B1CC9B3
(2.123509) can1 04EF001C#37460FB8C5C1F47B
(2.124077) can1 0CEF0100#A020025600289022
(2.124637) can1 18FFDC00#20140157028A8C53
(2.128973) can1 18FFDC00#21F502B400A0FFDB
(2.129557) can1 0CF00300#DF000FFF00FFFFFF
(2.130113) can1 09F8021C#93FCC3508600FFFF
(2.130697) can1 18FF1CF3#0000000000000000
(2.131585) can1 09F8011C#34A526189A1D53C1
(2.132616) can1 19FA031C#93D2640097006500
(2.133620) can1 04EF001C#47490437B20EF834
(2.134192) can1 18FFDC00#22FFFFBED72200FF
(2.134752) can1 0DF0101C#93F03C4F104DAA2F
(2.135673) can1 18FEE81C#3C3BD804EE644D81
(2.136741) can1 19FA041C#40AB93FF0E01FD0C
(2.137737) can1 19FA041C#4104D8F00AFFFFFF
(2.138732) can1 19FA041C#42FFFF02141E58CA
(2.139300) can1 0CF00400#FF7D80D01200FFFF
(2.139876) can1 19FA041C#43AC0DFFFFFFFFFF
(2.140780) can1 19FA041C#44087805A2AD0000
(2.141776) can1 19FA041C#45FFFFFFFFFF0A55
(2.142772) can1 19FA041C#46286C393C0FFFFF
(2.143727) can1 04EF001C#6D4C0712981BFB71
(2.144295) can1 0CEF0100#A020025700289022
(2.144863) can1 19FA041C#47FFFFFF0C1A04DA
(2.145847) can1 19FA041C#482F0000FFFFFFFF
(2.146811) can1 19FA041C#49FF174E0CD44904
(2.147835) can1 19FA041C#4A10FFFFFFFFFF18
(2.148838) can1 19FA041C#4B0D02FA19480DFF
(2.149411) can1 18FEF100#FFC204F0FFC71FFF
(2.149979) can1 19FA041C#4CFFFFFFFF19D606
(2.150894) can1 19FA041C#4D5C440000FFFFFF
(2.151870) can1 19FA041C#4EFFFF1B0D02C297
(2.152902) can1 19FA041C#4F0000FFFFFFFFFF
(2.153502) can1 18FF1080#000000FFFFFFFC00
(2.154062) can1 04EF001C#1D4F6C91E8F89012
(2.154635) can1 18FF1180#FD04F504FFFF00FF
(2.155187) can1 19FA041C#501C7F21D872A00F
(2.155931) can1 19FA041C#51FFFFFFFFFF1F0A
(2.156938) can1 19FA041C#520F84806810FFFF
(2.157946) can1 19FA041C#53FFFFFF20963234
(2.158970) can1 19FA041C#5408F811FFFFFFFF
(2.159538) can1 0CF00400#FF7D80B81200FFFF
(2.160094) can1 19FA041C#55FF2CB61CFC8568
(2.161002) can1 19FA041C#5610FFFFFFFFFF30
(2.161973) can1 19FA041C#57A91A308E6810FF
(2.163001) can1 19FA041C#58FFFFFFFFFFFFFF
(2.163945) can1 04EF001C#BA513EB74FC6C214
(2.164513) can1 0CEF0100#A020025800279022
(2.168941) can1 0CEF1100#F0809426A3622BB5
(2.173957) can1 18FFDC00#40140158028A8B53
(2.174509) can1 04EF001C#F8536EA50C6493A6
(2.178957) can1 18FFDC00#41F402B500A0FFDB
(2.179541) can1 0CF00300#DF000FFF00FFFFFF
(2.180108) can1 0CF00400#FF7D80C81200FFFF
(2.183972) can1 18FFDC00#42FFFFBED72200FF
(2.184528) can1 04EF001C#4657F551B2200812
(2.185116) can1 09F20000#006C09FFFFFFFFFF
(2.185684) can1 0CEF0100#A020025700289022
(2.190288) can1 19F10D13#4E81014B02670062
(2.192392) can1 19F21139#000000FF08881000
(2.194284) can1 04EF001C#055ADC44F10D2127
(2.198933) can1 0CF00400#FF7D80101300FFFF
(2.203945) can1 0CEF0100#A020025C00289022
(2.204489) can1 04EF001C#A25C4E7A56CBB3D9
(2.208956) can1 18FEF200#3600FFFFFFFF11FF
(2.214520) can1 04EF001C#855F704171A88D82
(2.218932) can1 0CF00400#FF7D80401300FFFF
(2.219488) can1 0CEF1100#2489AF8473A77031
(2.223927) can1 18FFDC00#60140168028A8B53
(2.224495) can1 0CEF0100#A020026300289022
(2.225043) can1 04EF001C#47425C4CB3B5A18F
(2.228951) can1 18FFDC00#61F202BB00A0FFDB
(2.229535) can1 0CF00300#DF000FFF00FFFFFF
(2.233963) can1 18FFDC00#62FFFFBED72200FF
(2.234751) can1 04EF001C#E144CF7A16333139
(2.238951) can1 0CF00400#FF7D80581300FFFF
(2.240803) can1 15FD069B#603A74FFFFFFFFFF
(2.243967) can1 0CEF0100#A020026900279022
(2.244867) can1 04EF001C#C747F05930E00EDA
(2.248962) can1 18FEF100#FFBE04F0FFC71FFF
(2.249542) can1 0CEF0017#810400000000FFFF
(2.253475) can1 18FF1080#000000FFFFFFFC00
(2.254451) can1 18FF1180#FD04F504FFFF00FF
(2.254995) can1 04EF001C#F749B1D7008E4F34
(2.255580) can1 18FF1380#000000003FC0C006
(2.258941) can1 0CF00400#FF7D80581300FFFF
(2.259513) can1 18E8FF00#02FFFFFFFF00EF00
(2.263937) can1 0CEF0100#A020026B00279022
(2.265073) can1 04EF001C#B94CD5A24F4B2A81
(2.268916) can1 0CEF1100#53B931F1C2989074
(2.269501) can1 18FF1CF3#0000000000000000
(2.273924) can1 18FFDC00#80140169028A8A53
(2.275184) can1 04EF001C#9C4FE9896AA8164A
(2.278916) can1 18FFDC00#81F102B900A0FFDB
(2.279500) can1 0CF00300#DF000FFF00FFFFFF
(2.280068) can1 0CF00400#FF7D80481300FFFF
(2.283944) can1 18FFDC00#82FFFFBED72200FF
(2.284536) can1 09F20000#00A009FFFFFFFFFF
(2.285100) can1 0CEF0100#A020026A00279022
(2.285648) can1 04EF001C#5D52C68CABA5394F
(2.286456) can1 18FF1C17#0000000000000000
(2.290300) can1 19F10D13#4F82014B02670062
(2.292392) can1 19F21139#000000FF6C881000
(2.295380) can1 04EF001C#F75459DA01C3A679
(2.298960) can1 0CF00400#FF7D80281300FFFF
(2.303963) can1 0CEF0100#A020026700279022
(2.305511) can1 04EF001C#DD576A992B1095FA
(2.308979) can1 18FEF200#3500FFFFFFFF10FF
(2.315599) can1 04EF001C#775AADD481ED5257
(2.318952) can1 0CF00400#FF7D80101300FFFF
(2.319496) can1 0CEF1100#90B7F72AA6765390
(2.323951) can1 18FFDC00#A0140163028A8B53
(2.324519) can1 0CEF0100#A020026300279022
(2.325731) can1 04EF001C#945D71CB62EA8E48
(2.328939) can1 18FFDC00#A1F002B600A0FFDB
(2.329523) can1 0CF00300#DF000FFF00FFFFFF
(2.330107) can1 18FF1CF3#0000000000000000
(2.333911) can1 18FFDC00#A2FFFFBED72200FF
(2.335839) can1 04EF001C#2D40251EDBF7DA9D
(2.338923) can1 0CF00400#FF7D80381300FFFF
(2.343935) can1 0CEF0100#A020026300279022
(2.345943) can1 04EF001C#EC42F2141AB50DD7
(2.348927) can1 18FEF100#FFBA04F0FFC71FFF
(2.354479) can1 18FF1080#000000FFFFFFFC00
(2.355455) can1 18FF1180#FD04F504FFFF00FF
(2.356043) can1 04EF001C#774555CB81D2AA68
(2.358947) can1 0CF00400#FF7D80581300FFFF
(2.363963) can1 0CEF0100#A020026800279022
(2.366159) can1 04EF001C#6D4827169BBFD8D5
(2.368939) can1 0CEF1100#C2A6293E5402A087
(2.373947) can1 18FFDC00#C014016E028A8C53
(2.376271) can1 04EF001C#2B4B7B25DDBC84E6
(2.378931) can1 18FFDC00#C1EF02B900A0FFDB
(2.379515) can1 0CF00300#DF000FFF00FFFFFF
(2.380087) can1 0CF00400#FF7D80781300FFFF
(2.383927) can1 18FFDC00#C2FFFFBED72200FF
(2.384523) can1 09F20000#00C009FFFFFFFFFF
(2.385087) can1 0CEF0100#A020026C00279022
(2.386415) can1 04EF001C#A54ED95053392613
(2.389023) can1 09F20100#A016002309FFFFDC
(2.390383) can1 19F10D13#5082014B02670062
(2.392483) can1 19F21139#000000FFD0881000
(2.393991) can1 09F20100#A18379051B00BED7
(2.396611) can1 04EF001C#06518757F0267814
(2.399035) can1 0CF00400#FF7D80901300FFFF
(2.399607) can1 09F20100#A22200FFFFFFFF00
(2.400179) can1 18FEEE00#68FFFFFFFFFF50FF
(2.404074) can1 09F20100#A30000FFFFFFFFFF
(2.404639) can1 0CEF0100#A020027000279022
(2.405219) can1 18FEEF00#FFFFFF3AFFFFFFFF
(2.406747) can1 04EF001C#0154A86AF7435749
(2.409047) can1 18FEF200#3700FFFFFFFF10FF
(2.409627) can1 0CEA1C00#00EE000000000000
(2.410807) can1 18EEFF1C#0204450E00000042
(2.413999) can1 18FEF700#FFFF1A0118011A01
(2.416822) can1 04EF001C#6156DB689721242B
(2.419014) can1 0CF00400#FF7D80A01300FFFF
(2.419562) can1 0CEF1100#03A23F7792F006F1
(2.424006) can1 18FFDC00#E0140174028A8C53
(2.424574) can1 0CEF0100#A020027300279022
(2.426934) can1 04EF001C#7E59BC9F88EE431C
(2.429022) can1 18FFDC00#E1ED02BB00A0FFDB
(2.429606) can1 0CF00300#DF000FFF00FFFFFF
(2.430190) can1 18FF1CF3#0000000000000000
(2.434022) can1 18FFDC00#E2FFFFBED72200FF
(2.434602) can1 0CEF1700#018400000000FFFF
(2.437038) can1 04EF001C#185CF1AAEEAB0E69
(2.439030) can1 0CF00400#FF7D80981300FFFF
(2.439626) can1 18FEFC00#FFDBFFFFFFFFFFFF
(2.444049) can1 0CEF0100#A020027300279022
(2.444625) can1 18FEF600#FFFF5410FFFFFFFF
(2.447149) can1 04EF001C#D95E26A02F89D943
(2.449054) can1 18FEF100#FFB704F0FFC71FFF
(2.454570) can1 18FF1080#000000FFFFFFFC00
(2.455527) can1 18FF1180#FD04F504FFFF00FF
(2.456543) can1 18FF1380#000000003FC0C006
(2.457251) can1 04EF001C#F840F6B6F130F6F2
(2.459011) can1 0CF00400#FF7D80801300FFFF
(2.464019) can1 0CEF0100#A020027200279022
(2.467362) can1 04EF001C#B743A3CDBE13A3A9
(2.468998) can1 0CEF1100#83DC6B6BD04F5CFB
(2.474018) can1 18FFDC00#00140169028A8C53
(2.477474) can1 04EF001C#77464DC88191B22B
(2.479010) can1 18FFDC00#01ED02B700A0FFDB
(2.479594) can1 0CF00300#DF000FFF00FFFFFF
(2.480166) can1 0CF00400#FF7D80301300FFFF
(2.484013) can1 18FFDC00#02FFFFBFD72200FF
(2.484601) can1 09F20000#008C09FFFFFFFFFF
(2.485166) can1 0CEF0100#A020026C00279022
(2.485757) can1 18FF1C17#0000000000000000
(2.487581) can1 04EF001C#6C492E1F65592E3B
(2.490385) can1 19F10D13#5182014B02670062
(2.492481) can1 19F21139#000000FF34891000
(2.497693) can1 04EF001C#F74BA1C5FE7BA1C1
(2.499025) can1 0CF00400#FF7D80E01200FFFF
(2.504016) can1 0CEF0100#A020026100279022
(2.507805) can1 04EF001C#B94EC5B0B03EC5F4
(2.509021) can1 18FEF200#3400FFFFFFFF15FF
(2.517920) can1 04EF001C#7751F5DF7E21F59B
(2.519008) can1 0CF00400#FF7D80B81200FFFF
(2.519556) can1 0CEF1100#4ED2AE40893F6D73
(2.524020) can1 18FFDC00#20140155028A8B53
(2.524588) can1 0CEF0100#A020025A00279022
(2.528020) can1 04EF001C#385490A2316490A6
(2.529072) can1 18FFDC00#21EC02B100A0FFDB
(2.529656) can1 0CF00300#DF000FFF00FFFFFF
(2.534003) can1 18FFDC00#22FFFFBFD72200FF
(2.538143) can1 04EF001C#F85646A0F1464684
(2.539007) can1 0CF00400#FF7D80881200FFFF
(2.544019) can1 0CEF0100#A020025400289022
(2.548243) can1 04EF001C#B75973D7BE297393
(2.549027) can1 18FEF100#FFB404F0FFC71FFF
(2.549611) can1 18FF1CF3#0000000000000000
(2.555564) can1 18FF1080#000000FFFFFFFC00
(2.556520) can1 18FF1180#FD04F504FFFF00FF
(2.558360) can1 04EF001C#775C9DD27E4C9DF6
(2.559016) can1 0CF00400#FF7D80801200FFFF
(2.564012) can1 0CEF0100#A020025000289022
(2.568476) can1 04EF001C#385FC8A9CE88374A
(2.569036) can1 0CEF1100#1AC371E4FAC6F3E8
(2.574008) can1 18FFDC00#40140153028A8B53
(2.578596) can1 04EF001C#F741F1BF01A60E1C
(2.579180) can1 0CF00300#DF000FFF00FFFFFF
(2.579752) can1 0CF00400#FF7D80A81200FFFF
(2.580324) can1 18FFDC00#41EB02B400A0FFDB
(2.584004) can1 18FFDC00#42FFFFBFD72200FF
(2.584596) can1 09F20000#005C09FFFFFFFFFF
(2.585160) can1 0CEF0100#A020025100289022
(2.588719) can1 04EF001C#2145010BD762FE68
(2.590379) can1 19F10D13#5282014B02670062
(2.592479) can1 19F21139#000000FF98891000
(2.598823) can1 04EF001C#05484C26F36FB345
(2.599391) can1 0CF00400#FF7D80E81200FFFF
(2.604018) can1 0CEF0100#A020025800289022
(2.608918) can1 04EF001C#C54A9A2433CD65E7
(2.609490) can1 18FEF200#3600FFFFFFFF10FF
(2.619006) can1 0CF00400#FF7D80001300FFFF
(2.619566) can1 04EF001C#614D0303974AFC40
(2.620114) can1 0CEF1100#D1C7657D0AB836AA
(2.624030) can1 18FFDC00#60140160028A8D53
(2.624594) can1 0CEF0100#A020025E00289022
(2.626482) can1 18FF2117#06FFFFFF00FFFFFF
(2.629003) can1 18FFDC00#61EA02B800A0FFDB
(2.629543) can1 04EF001C#4750CC2EB1B7338D
(2.630127) can1 0CF00300#DF000FFF00FFFFFF
(2.630711) can1 18FF1CF3#0000000000000000
(2.633215) can1 09F8021C#94FC2E518D00FFFF
(2.633995) can1 18FFDC00#62FFFFBFD72200FF
(2.634543) can1 09F8011C#18A52618D61D53C1
(2.635258) can1 19FA031C#94D2640097006500
(2.636242) can1 0DF0101C#94F03C4F2074AA2F
(2.637254) can1 18FEE81C#8B3B1805EE644E81
(2.638366) can1 19FA041C#60AB94FF0E01FD0C
(2.639006) can1 0CF00400#FF7D80001300FFFF
(2.639562) can1 04EF001C#2B54834ADDB37CE9
(2.640401) can1 19FA041C#6104D88C0AFFFFFF
(2.640969) can1 0DF50B9B#31970800000000FF
(2.641537) can1 19FA041C#62FFFF02141E58CA
(2.642373) can1 19FA041C#63AC0DFFFFFFFFFF
(2.643377) can1 19FA041C#64087805A2AD0000
(2.644025) can1 0CEF0100#A020026000289022
(2.644601) can1 19FA041C#65FFFFFFFFFF0A55
(2.645449) can1 19FA041C#66286C39A00FFFFF
(2.646413) can1 19FA041C#67FFFFFF0C1A04DA
(2.647436) can1 19FA041C#682F0000FFFFFFFF
(2.648420) can1 19FA041C#69FF174E0CD44968
(2.649060) can1 18FEF100#FFB204F0FFC71FFF
(2.649616) can1 04EF001C#82563F0074D1C0C3
(2.650196) can1 0CEF0017#810400000000FFFF
(2.650772) can1 19FA041C#6A10FFFFFFFFFF18
(2.651472) can1 19FA041C#6B0D02FA19AC0DFF
(2.652479) can1 19FA041C#6CFFFFFFFF19D606
(2.653475) can1 19FA041C#6D5C440000FFFFFF
(2.654479) can1 19FA041C#6EFFFF1B0D02C297
(2.655511) can1 19FA041C#6F0000FFFFFFFFFF
(2.656111) can1 18FF1080#000000FFFFFFFC00
(2.656667) can1 19FA041C#701C7F21D8723011
(2.657527) can1 19FA041C#71FFFFFFFFFF1F0A
(2.658100) can1 18FF1180#FD04F504FFFF00FF
(2.658668) can1 19FA041C#720F8480CC10FFFF
(2.659240) can1 0CF00400#FF7D80101300FFFF
(2.659796) can1 04EF001C#AC58606E5AAF9FCD
(2.660368) can1 18E8FF00#02FFFFFFFF00EF00
(2.660952) can1 18FF1380#000000003FC0C006
(2.661520) can1 19FA041C#73FFFFFF20963234
(2.662580) can1 19FA041C#7408F811FFFFFFFF
(2.663572) can1 19FA041C#75FF2CB61CFC8568
(2.664144) can1 0CEF0100#A020026000279022
(2.664720) can1 19FA041C#7610FFFFFFFFFF30
(2.665616) can1 19FA041C#77A91A308ECC10FF
(2.666616) can1 19FA041C#78FFFFFFFFFFFFFF
(2.669011) can1 0CEF1100#BCEF3D5E0B3375EC
(2.669604) can1 04EF001C#B75A6BB4BE0A6BB0
(2.674031) can1 18FFDC00#80140161028A8C53
(2.679015) can1 18FFDC00#81EA02B600A0FFDB
(2.679600) can1 0CF00300#DF000FFF00FFFFFF
(2.680151) can1 04EF001C#775D95B381AA6A10
(2.680723) can1 0CF00400#FF7D80001300FFFF
(2.684027) can1 18FFDC00#82FFFFBFD72200FF
(2.684619) can1 09F20000#008009FFFFFFFFFF
(2.685187) can1 0CEF0100#A020026100279022
(2.689808) can1 04EF001C#394031DECF57CE9D
(2.690380) can1 19F10D13#5382014B02670062
(2.692480) can1 19F21139#000000FFFC891000
(2.699040) can1 0CF00400#FF7D80E81200FFFF
(2.699936) can1 04EF001C#F742E9AC011516AF
(2.704032) can1 0CEF0100#A020025F00279022
(2.709011) can1 18FEF200#3500FFFFFFFF10FF
(2.710043) can1 04EF001C#B74593AB41926C28
(2.718999) can1 0CF00400#FF7D80D81200FFFF
(2.719547) can1 0CEF1100#65F55DD07070D870
(2.720203) can1 04EF001C#77483DA681DFC265
(2.724015) can1 18FFDC00#A014015C028A8B53
(2.724579) can1 0CEF0100#A020025C00279022
(2.728995) can1 18FFDC00#A1EA02B400A0FFDB
(2.729579) can1 0CF00300#DF000FFF00FFFFFF
(2.730163) can1 18FF1CF3#0000000000000000
(2.730719) can1 04EF001C#5C4B0FFDAAFCF01E
(2.733983) can1 18FFDC00#A2FFFFBFD72200FF
(2.735039) can1 18FF1C17#0000000000000000
(2.738838) can1 15FD069B#613A74FFFFFFFFFF
(2.739410) can1 0CF00400#FF7D80E01200FFFF
(2.740378) can1 04EF001C#F74D9193FE6D91D7
(2.744010) can1 0CEF0100#A020025B00279022
(2.749015) can1 18FEF100#FFB104F0FFC71FFF
(2.750495) can1 04EF001C#DD5052DED470529A
(2.756556) can1 18FF1080#000000FFFFFFFC00
(2.757516) can1 18FF1180#FD04F504FFFF00FF
(2.758992) can1 0CF00400#FF7D80D01200FFFF
(2.760576) can1 04EF001C#D553429DDC7342D9
(2.764008) can1 0CEF0100#A020025B00279022
(2.768991) can1 0CEF1100#28E5CCFC07BDA08A
(2.770691) can1 04EF001C#955628989C36289C
(2.774003) can1 18FFDC00#C014015B028A8D53
(2.778995) can1 18FFDC00#C1EA02B400A0FFDB
(2.779579) can1 0CF00300#DF000FFF00FFFFFF
(2.780151) can1 0CF00400#FF7D80D81200FFFF
(2.780871) can1 04EF001C#5459979FA2DE687C
(2.783995) can1 18FFDC00#C2FFFFBFD72200FF
(2.784583) can1 09F20000#006C09FFFFFFFFFF
(2.785151) can1 0CEF0100#A020025A00279022
(2.790387) can1 19F10D13#5482014B02670062
(2.790939) can1 04EF001C#2E5CC64AD81B3969
(2.792479) can1 19F21139#000000FF608A1000
(2.799015) can1 0CF00400#FF7D80F81200FFFF
(2.801047) can1 04EF001C#185FE9E9EE0816CA
(2.804003) can1 0CEF0100#A020025C00279022
(2.809007) can1 18FEF200#3600FFFFFFFF11FF
(2.811167) can1 04EF001C#FD41FBDF0B5604BC
(2.819023) can1 0CF00400#FF7D80101300FFFF
(2.819563) can1 0CEF1100#919B9768BF24C311
(2.821263) can1 04EF001C#0545241BF372DB58
(2.824039) can1 18FFDC00#E0140162028A8C53
(2.824611) can1 0CEF0100#A020026000279022
(2.829019) can1 18FFDC00#E1EA02B600A0FFDB
(2.829603) can1 0CF00300#DF000FFF00FFFFFF
(2.831375) can1 04EF001C#B547819943107EBA
(2.834011) can1 18FFDC00#E2FFFFBFD72200FF
(2.839022) can1 0CF00400#FF7D80001300FFFF
(2.841490) can1 04EF001C#3D4A65D4CAFD9B17
(2.844006) can1 0CEF0100#A020026100279022
(2.849038) can1 18FEF100#FFB104F0FFC71FFF
(2.851590) can1 04EF001C#E44C8A1A13DB74F9
(2.856554) can1 18FF1080#000000FFFFFFFC00
(2.857510) can1 18FF1180#FD04F504FFFF00FF
(2.858526) can1 18FF1380#000000003FC0C006
(2.859094) can1 0CF00400#FF7D80D01200FFFF
(2.861698) can1 04EF001C#F74E898000D97763
(2.864026) can1 0CEF0100#A020025E00279022
(2.869003) can1 0CEF1100#C4834086DCDD1D48
(2.869587) can1 18FF1CF3#0000000000000000
(2.871799) can1 04EF001C#B8513CE74F46C284
(2.874023) can1 18FFDC00#00140153028A8B53
(2.879019) can1 18FFDC00#01EA02B000A0FFDB
(2.879603) can1 0CF00300#DF000FFF00FFFFFF
(2.880171) can1 0CF00400#FF7D80881200FFFF
(2.881910) can1 04EF001C#E4544AF213F3B4D1
(2.883998) can1 18FFDC00#02FFFFBFD72200FF
(2.884590) can1 09F20000#003C09FFFFFFFFFF
(2.885158) can1 0CEF0100#A020025600279022
(2.890378) can1 19F10D13#5582014B02670062
(2.892026) can1 04EF001C#38578811CC7075B2
(2.892590) can1 19F21139#000000FFC48A1000
(2.899002) can1 0CF00400#FF7D80681200FFFF
(2.902138) can1 04EF001C#F759316703BECC04
(2.904010) can1 18FEEF00#FFFFFF3AFFFFFFFF
(2.904578) can1 0CEF0100#A020024F00279022
(2.909001) can1 18FEF200#3300FFFFFFFF14FF
(2.912241) can1 04EF001C#B75C5B6243BBA601
(2.919001) can1 0CF00400#FF7D80481200FFFF
(2.919545) can1 0CEF1100#0A8E5D753DAAD1C0
(2.922357) can1 04EF001C#785F8A198CD8771A
(2.924041) can1 18FFDC00#20140148028A8B53
(2.924605) can1 0CEF0100#A020024C00279022
(2.929017) can1 18FFDC00#21EA02AD00A0FFDB
(2.929602) can1 0CF00300#DF000FFF00FFFFFF
(2.930185) can1 18FF1CF3#0000000000000000
(2.932473) can1 04EF001C#38422004CCE5DD27
(2.934013) can1 18FFDC00#22FFFFBFD72200FF
(2.934594) can1 0CEF1700#018400000000FFFF
(2.939022) can1 0CF00400#FF7D80181200FFFF
(2.942585) can1 04EF001C#F744D97A03832439
(2.944001) can1 0CEF0100#A020024700289022
(2.944577) can1 18FEF600#FFFF5411FFFFFFFF
(2.949017) can1 18FEF100#FFB204F0FFC71FFF
(2.952692) can1 04EF001C#B9478D094DC0700A
(2.957549) can1 18FF1080#000000FFFFFFFC00
(2.958509) can1 18FF1180#FD04F504FFFF00FF
(2.959085) can1 0CF00400#FF7D80181200FFFF
(2.962801) can1 04EF001C#784A220C8D6DDEAF
(2.964005) can1 0CEF0100#A020024300289022
(2.968981) can1 0CEF1100#7DBC53000815B5A1
(2.972912) can1 04EF001C#384D580BCD6AA4A8
(2.974012) can1 18FFDC00#40140147028A8C53
(2.979004) can1 18FFDC00#41EA02AF00A0FFDB
(2.979588) can1 0CF00300#DF000FFF00FFFFFF
(2.980156) can1 0CF00400#FF7D81401200FFFF
(2.983028) can1 04EF001C#F84F8E190DB8727A
(2.984016) can1 18FFDC00#42FFFFBFD72200FF
(2.984609) can1 09F20000#002409FFFFFFFFFF
(2.985177) can1 0CEF0100#A020024400289022
(2.990381) can1 19F10D13#5682014B02670062
(2.992481) can1 19F21139#000000FF288B1000
(2.993149) can1 04EF001C#3B53AB1DCE84575E
(2.999017) can1 0CF00400#FF7D80501200FFFF
(3.003260) can1 04EF001C#E25544D317C2B8D0
(3.004048) can1 0CEF0100#A020024900289021
(3.009008) can1 18FEF200#3400FFFFFFFF11FF
(3.013372) can1 04EF001C#C5580AE6370FF125
(3.014895) can1 18FF1C17#0000000000000000
(3.018991) can1 0CF00400#FF7D81681200FFFF
(3.019527) can1 0CEF1100#4CB2AECB65B95A8F
(3.023487) can1 04EF001C#7C5BAE2D89EC520E
(3.024039) can1 18FFDC00#6014014E028A8B52
(3.024603) can1 0CEF0100#A020024B00289021
(3.028995) can1 18FFDC00#61EB02B200A0FFDB
(3.029579) can1 0CF00300#DF000FFF00FFFFFF
(3.030163) can1 18FF1CF3#0000000000000000
(3.033602) can1 04EF001C#215ED9C0D3092203
(3.034171) can1 18FFDC00#62FFFFBFD72200FF
(3.038994) can1 0CF00400#FF7D81701200FFFF
(3.043727) can1 04EF001C#064107E7F476FC44
(3.044291) can1 0CEF0100#A020024D00289021
(3.048987) can1 18FEF100#FFB404F0FFC71FFF
(3.053798) can1 04EF001C#BC43A8354E745396
(3.057539) can1 18FF1080#000000FFFFFFFC00
(3.058515) can1 18FF1180#FD04F504FFFF00FF
(3.059083) can1 0CF00400#FF7D80301200FFFF
(3.059668) can1 18FF1380#000000003FC0C006
(3.063915) can1 04EF001C#F745D16B05522AE8
(3.064479) can1 0CEF0100#A020024B00289021
(3.068987) can1 0CEF1100#9AA1C5FF336445BD
(3.073975) can1 18FFDC00#80140142028A8C52
(3.074531) can1 04EF001C#B748FB66453F0085
(3.078987) can1 18FFDC00#81EC02AD00A0FFDB
(3.079571) can1 0CF00300#DF000FFF00FFFFFF
(3.080143) can1 0CF00400#FF7D80101200FFFF
(3.083986) can1 18FFDC00#82FFFFBFD72200FF
(3.084530) can1 04EF001C#784B2A1D8ABCD17E
(3.085122) can1 09F20000#000809FFFFFFFFFF
(3.085686) can1 0CEF0100#A020024400289021
(3.090382) can1 19F10D13#5783014B02670061
(3.092478) can1 19F21139#000000FF8C8B1000
(3.094246) can1 04EF001C#374E4F60C479B5C3
(3.099014) can1 0CF00400#FF7D80101200FFFF
(3.099598) can1 18FECA00#00FF00000000FFFF
(3.104039) can1 0CEF0100#A020024200289021
(3.104603) can1 04EF001C#F750797E0487833D
(3.109031) can1 18FEF200#3300FFFFFFFF11FF
(3.114458) can1 04EF001C#B9532D0D4A64D7AE
(3.118978) can1 0CF00400#FF7D81181200FFFF
(3.119522) can1 0CEF1100#DFA766965B24D7BE
(3.123986) can1 18FFDC00#A0140144028A8B52
(3.124554) can1 0CEF0100#A020024100289021
(3.125094) can1 04EF001C#7756CD788421379B
(3.128994) can1 18FFDC00#A1EC02AF00A0FFDB
(3.129577) can1 0CF00300#DF000FFF00FFFFFF
(3.133973) can1 18FFDC00#A2FFFFBFD72200FF
(3.134729) can1 04EF001C#3859F80FCB8E024C
(3.136737) can1 09F8021C#95FCAD508800FFFF
(3.137725) can1 09F8011C#F4A426182A1E53C1
(3.138752) can1 19FA031C#95D2640097006500
(3.139325) can1 0CF00400#FF7D81281200FFFF
(3.139876) can1 0DF0101C#95F03C4F2074AA2F
(3.140796) can1 18FEE81C#2C3BE804EF645081
(3.141856) can1 19FA041C#80AB95FF0E01FD0C
(3.142852) can1 19FA041C#8104D8F00AFFFFFF
(3.143863) can1 19FA041C#82FFFF02141E58CA
(3.144428) can1 0CEF0100#A020024300289021
(3.144976) can1 04EF001C#AD5C41A25EEBBB81
(3.145923) can1 19FA041C#83AC0DFFFFFFFFFF
(3.146891) can1 19FA041C#84087805A2AD0000
(3.147907) can1 19FA041C#85FFFFFFFFFF0A55
(3.148911) can1 19FA041C#86286C39A00FFFFF
(3.149471) can1 18FEF100#FFB604F0FFC71FFF
(3.150043) can1 19FA041C#87FFFFFF0C1A04DA
(3.150974) can1 19FA041C#882F0000FFFFFFFF
(3.151934) can1 19FA041C#89FF174E0CD44968
(3.152962) can1 19FA041C#8A10FFFFFFFFFF18
(3.153965) can1 19FA041C#8B0D02FA19AC0DFF
(3.154921) can1 04EF001C#725F805981C87A5A
(3.156001) can1 19FA041C#8CFFFFFFFF19D606
(3.157009) can1 19FA041C#8D5C440000FFFFFF
(3.158012) can1 19FA041C#8EFFFF1B0D02C297
(3.158613) can1 18FF1080#000000FFFFFFFC00
(3.159185) can1 0CF00400#FF7D81201200FFFF
(3.159758) can1 18FF1180#FD04F504FFFF00FF
(3.160342) can1 19FA041C#8F0000FFFFFFFFFF
(3.161045) can1 19FA041C#901C7F21D8723C0F
(3.162069) can1 19FA041C#91FFFFFFFFFF1F0A
(3.163082) can1 19FA041C#920F8480CC10FFFF
(3.164022) can1 0CEF0100#A020024400289021
(3.164594) can1 19FA041C#93FFFFFF20963234
(3.166042) can1 04EF001C#27423FECD795C6AF
(3.167129) can1 19FA041C#93FFFFFF20963234
(3.168137) can1 19FA041C#94089411FFFFFFFF
(3.168993) can1 0CEF1100#E0D578B1EC0935DB
(3.169553) can1 19FA041C#95FF2CB61CFC8504
(3.171165) can1 19FA041C#9610FFFFFFFFFF30
(3.172161) can1 19FA041C#97A91A308E0410FF
(3.173181) can1 19FA041C#98FFFFFFFFFFFFFF
(3.173977) can1 18FFDC00#C0140147028B8B52
(3.175157) can1 04EF001C#A1448DDA51B374B9
(3.178973) can1 18FFDC00#C1ED02B100A0FFDB
(3.179557) can1 0CF00300#DF000FFF00FFFFFF
(3.180125) can1 0CF00400#FF7D81401200FFFF
(3.184001) can1 18FFDC00#C2FFFFBFD72200FF
(3.184593) can1 09F20000#002409FFFFFFFFFF
(3.185157) can1 0CEF0100#A020024500289021
(3.185705) can1 04EF001C#AE479AA15F106262
(3.189305) can1 0CEF0017#810400000000FFFF
(3.190385) can1 19F10D13#5882014B02670062
(3.192489) can1 19F21139#000000FFF08B1000
(3.195373) can1 04EF001C#464A1DECB7BDE58F
(3.198984) can1 0CF00400#FF7D81781200FFFF
(3.199556) can1 18E8FF00#02FFFFFFFF00EF00
(3.203988) can1 0CEF0100#A020024A00289021
(3.205508) can1 04EF001C#084D699BF9BA91F8
(3.209004) can1 18FEF200#3500FFFFFFFF11FF
(3.209588) can1 18FF1CF3#0000000000000000
(3.215587) can1 04EF001C#C64FB1E93758496A
(3.218983) can1 0CF00400#FF7D81A81200FFFF
(3.219535) can1 0CEF1100#AFDD290B275D8043
(3.223992) can1 18FFDC00#E0140155028B8B52
(3.224560) can1 0CEF0100#A020025100289021
(3.225152) can1 18FF1C17#0000000000000000
(3.225728) can1 04EF001C#0D539CADFCA464CE
(3.228972) can1 18FFDC00#E1ED02B700A0FFDB
(3.229552) can1 0CF00300#DF0010FF00FFFFFF
(3.230136) can1 18FF1CF3#0000000000000000
(3.233984) can1 18FFDC00#E2FFFFBFD72200FF
(3.235824) can1 04EF001C#5855FB13A97203B0
(3.238980) can1 0CF00400#FF7D81A81200FFFF
(3.243399) can1 15FD069B#623A74FFFFFFFFFF
(3.243987) can1 0CEF0100#A020025500289021
(3.245943) can1 04EF001C#3D58F536CC1F0DF5
(3.248979) can1 18FEF100#FFB704F0FFC71FFF
(3.256022) can1 04EF001C#375AEF64C7FD1647
(3.258535) can1 18FF1080#000000FFFFFFFC00
(3.259107) can1 0CF00400#FF7D80781200FFFF
(3.259680) can1 18FF1180#FD04F504FFFF00FF
(3.260516) can1 18FF1380#000000003FC0C006
(3.264012) can1 0CEF0100#A020025300289022
(3.266128) can1 04EF001C#2C5DCCBBDCDA35B8
(3.268984) can1 0CEF1100#6AC5DE6561A05B32
(3.273991) can1 18FFDC00#0014014B028B8B52
(3.276239) can1 04EF001C#ED5F1BB11DB8E2D2
(3.278995) can1 18FFDC00#01EE02B200A0FFDB
(3.279579) can1 0CF00300#DF000FFF00FFFFFF
(3.280151) can1 0CF00400#FF7D80581200FFFF
(3.284028) can1 18FFDC00#02FFFFBFD72200FF
(3.284616) can1 09F20000#003009FFFFFFFFFF
(3.285180) can1 0CEF0100#A020024D00289022
(3.286376) can1 04EF001C#D442CB6424853227
(3.290388) can1 19F10D13#5982014B02670062
(3.292492) can1 19F21139#000000FF548C1000
(3.296479) can1 04EF001C#38451803C922E0E0
(3.298971) can1 0CF00400#FF7D81581200FFFF
(3.303991) can1 0CEF0100#A020024B00289022
(3.306579) can1 04EF001C#2B486396DA4F9B15
(3.309003) can1 18FEF200#3400FFFFFFFF10FF
(3.316691) can1 04EF001C#B84AE40C494D1C8F
(3.318971) can1 0CF00400#FF7D81481200FFFF
(3.319535) can1 0CEF1100#2FC37D0C03FB1161
(3.323978) can1 18FFDC00#2014014A028B8C53
(3.324547) can1 0CEF0100#A020024A00289022
(3.326798) can1 04EF001C#AD4DC9A35C4A3120
(3.328974) can1 18FFDC00#21EE02B200A0FFDB
(3.329558) can1 0CF00300#DF000FFF00FFFFFF
(3.330142) can1 18FF1CF3#0000000000000000
(3.333990) can1 18FFDC00#22FFFFBFD72200FF
(3.336914) can1 04EF001C#3750BF6EC697472D
(3.338982) can1 0CF00400#FF7D81701200FFFF
(3.344015) can1 0CEF0100#A020024A00289022
(3.347022) can1 04EF001C#F752696C067591CF
(3.349006) can1 18FEF100#FFB804F0FFC71FFF
(3.357137) can1 04EF001C#B8551C134912E4D0
(3.359013) can1 0CF00400#FF7D81A01200FFFF
(3.359614) can1 18FF1080#000000FFFFFFFC00
(3.360510) can1 18FF1180#FD04F504FFFF00FF
(3.364014) can1 0CEF0100#A020025000289022
(3.367242) can1 04EF001C#7758BD66867F45C5
(3.368986) can1 0CEF1100#C0E991BF2754D38E
(3.373989) can1 18FFDC00#40140158028B8C52
(3.377373) can1 04EF001C#375BE765C61C1FA6
(3.378993) can1 18FFDC00#41EE02B700A0FFDB
(3.379573) can1 0CF00300#DF0010FF00FFFFFF
(3.380141) can1 0CF00400#FF7D81C81200FFFF
(3.384013) can1 18FFDC00#42FFFFBFD72200FF
(3.384601) can1 09F20000#006409FFFFFFFFFF
(3.385169) can1 0CEF0100#A020025600289022
(3.387481) can1 04EF001C#BC5E40384D19B8FB
(3.389089) can1 09F20100#C016000C09FFFFE7
(3.390489) can1 19F10D13#5A82014B02670062
(3.392589) can1 19F21139#000000FFB88C1000
(3.394065) can1 09F20100#C1837F051B00BFD7
(3.394637) can1 18FEE500#8D310000FFFFFFFF
(3.397704) can1 04EF001C#224122D7D306DA14
(3.399069) can1 0CF00400#FF7D81D81200FFFF
(3.399641) can1 09F20100#C22200FFFFFFFF00
(3.400213) can1 18FEEE00#68FFFFFFFFFF50FF
(3.404093) can1 09F20100#C30000FFFFFFFFFF
(3.404661) can1 0CEF0100#A020025900289022
(3.405237) can1 18FEEF00#FFFFFF39FFFFFFFF
(3.407813) can1 04EF001C#3D44152ACC43EDA9
(3.409097) can1 18FEF200#3600FFFFFFFF10FF
(3.414065) can1 18FEF700#FFFF1A0118011701
(3.417917) can1 04EF001C#C546FAE834A1028B
(3.419081) can1 0CF00400#FF7D81F81200FFFF
(3.419641) can1 0CEF1100#91F7F7707C3F1D12
(3.424073) can1 18FFDC00#60140160028B8C52
(3.424637) can1 0CEF0100#A020025C00289022
(3.428024) can1 04EF001C#6249202F93DED8CC
(3.429064) can1 18FFDC00#61EF02BA00A0FFDB
(3.429649) can1 0CF00300#DF000FFF00FFFFFF
(3.434076) can1 18FFDC00#62FFFFBFD72200FF
(3.434656) can1 0CEF1700#018400000000FFFF
(3.438136) can1 04EF001C#214C4932D11BB011
(3.439072) can1 0CF00400#FF7D81201300FFFF
(3.439668) can1 18FEFC00#FFDBFFFFFFFFFFFF
(3.444084) can1 0CEF0100#A020026000289022
(3.444660) can1 18FEF600#FFFF5411FFFFFFFF
(3.448247) can1 04EF001C#064F7709F6588E6A
(3.449079) can1 18FEF100#FFB904F0FFC71FFF
(3.458346) can1 04EF001C#3851B8E7C8464184
(3.459087) can1 0CF00400#FF7D80D01200FFFF
(3.459687) can1 18FF1080#000000FFFFFFFC00
(3.460600) can1 18FF1180#FD04F504FFFF00FF
(3.461616) can1 18FF1380#000000003FC0C006
(3.464084) can1 0CEF0100#A020026000289022
(3.468456) can1 04EF001C#F753619D074498FE
(3.469060) can1 0CEF1100#43E0BD6522EA4361
(3.474056) can1 18FFDC00#8014014F028B8C53
(3.478579) can1 04EF001C#B85604E048C1FD03
(3.479163) can1 0CF00300#DF000FFF00FFFFFF
(3.479731) can1 0CF00400#FF7D80681200FFFF
(3.480299) can1 18FFDC00#81EF02B200A0FFDB
(3.484087) can1 18FFDC00#82FFFFC0D72200FF
(3.484675) can1 09F20000#003009FFFFFFFFFF
(3.485243) can1 0CEF0100#A020025400289022
(3.488679) can1 04EF001C#7759B597842E4F94
(3.490479) can1 19F10D13#5B82014B02670062
(3.492591) can1 19F21139#000000FF1C8D1000
(3.498786) can1 04EF001C#385CD0EAC8EB2929
(3.499362) can1 0CF00400#FF7D81701200FFFF
(3.504106) can1 0CEF0100#A020024C00289022
(3.508913) can1 04EF001C#F75E09900749F0F3
(3.509494) can1 0CEA1C00#00EE000000000000
(3.510074) can1 18FEF200#3500FFFFFFFF17FF
(3.510998) can1 18EEFF1C#0204450E00000042
(3.516485) can1 18FF1C17#0000000000000000
(3.519026) can1 04EF001C#B941BDFF49B6447C
(3.519578) can1 0CEF1100#7393E8FA1E41D698
(3.520146) can1 0CF00400#FF7D81981200FFFF
(3.524094) can1 18FFDC00#A0140152028B8C53
(3.524658) can1 0CEF0100#A020025000289022
(3.529098) can1 18FFDC00#A1EF02B700A0FFDB
(3.529638) can1 04EF001C#77445D8A8793A429
(3.530218) can1 0CF00300#DF0010FF00FFFFFF
(3.530802) can1 18FF1CF3#0000000000000000
(3.534094) can1 18FFDC00#A2FFFFC0D72200FF
(3.539101) can1 0CF00400#FF7D81601200FFFF
(3.539645) can1 04EF001C#384708F1C850F192
(3.544101) can1 0CEF0100#A020025000289022
(3.549073) can1 18FEF100#FFB904F0FFC71FFF
(3.549625) can1 04EF001C#F749B187079E4824
(3.550209) can1 18FF1CF3#0000000000000000
(3.559076) can1 0CF00400#FF7D81881200FFFF
(3.559620) can1 04EF001C#B84CD4EA48EB2D29
(3.560625) can1 18FF1080#000000FFFFFFFC00
(3.561597) can1 18FF1180#FD04F504FFFF00FF
(3.564077) can1 0CEF0100#A020024D00289022
(3.569045) can1 0CEF1100#978A5EDC52F615FB
(3.569585) can1 04EF001C#784F0AE988E8F32A
(3.574053) can1 18FFDC00#C0140155028B8B53
(3.579058) can1 18FFDC00#C1EF02B900A0FFDB
(3.579638) can1 0CF00300#DF0010FF00FFFFFF
(3.580190) can1 04EF001C#3752AF8CC795562F
(3.580762) can1 0CF00400#FF7D81A81200FFFF
(3.584082) can1 18FFDC00#C2FFFFC0D72200FF
(3.584670) can1 09F20000#005409FFFFFFFFFF
(3.585234) can1 0CEF0100#A020025200289022
(3.589809) can1 04EF001C#8555201B7592D9B8
(3.590489) can1 19F10D13#5C82014B02670062
(3.592585) can1 19F21139#000000FF808D1000
(3.599061) can1 0CF00400#FF7D81B01200FFFF
(3.599945) can1 04EF001C#3C58F4DECCFF0D1D
(3.604077) can1 0CEF0100#A020025400289022
(3.609089) can1 18FEF200#3600FFFFFFFF0FFF
(3.609669) can1 0CEF0017#810400000000FFFF
(3.610221) can1 04EF001C#E25A3C2C12DDC5CF
(3.619060) can1 0CF00400#FF7D81D01200FFFF
(3.619609) can1 0CEF1100#D48E6C0535A0B600
(3.620180) can1 18E8FF00#02FFFFFFFF00EF00
(3.620729) can1 04EF001C#C55D2213363AD810
(3.624061) can1 18FFDC00#E014015C028B8D53
(3.624629) can1 0CEF0100#A020025600289022
(3.629061) can1 18FFDC00#E1EE02BB00A0FFDB
(3.629641) can1 0CF00300#DF0010FF00FFFFFF
(3.630225) can1 18FF1CF3#0000000000000000
(3.630777) can1 04EF001C#A540A90E5627530D
(3.634089) can1 18FFDC00#E2FFFFC0D72200FF
(3.639085) can1 0CF00400#FF7D81101300FFFF
(3.640377) can1 04EF001C#4B43587DB844A21E
(3.642401) can1 09F8021C#96FC49508600FFFF
(3.643209) can1 0DF50B9B#32B00800000000FF
(3.643749) can1 09F8011C#DEA42618621E53C1
(3.644313) can1 0CEF0100#A020025C00289022
(3.644865) can1 19FA031C#96D2640097006500
(3.645441) can1 0DF0101C#96F03C4F309BAA2F
(3.646453) can1 18FEE81C#E33AF804EF645181
(3.647548) can1 19FA041C#A0AB96FF0E01FD0C
(3.648536) can1 19FA041C#A104D8F00AFFFFFF
(3.649108) can1 18FEF100#FFB804F0FFC71FFF
(3.649676) can1 19FA041C#A2FFFF02141E58CA
(3.650500) can1 04EF001C#E646D81015A12293
(3.651572) can1 19FA041C#A3AC0DFFFFFFFFFF
(3.652563) can1 19FA041C#A4087805A2AD0000
(3.653571) can1 19FA041C#A5FFFFFFFFFF0A55
(3.654571) can1 19FA041C#A6286C393C0FFFFF
(3.655583) can1 19FA041C#A7FFFFFF0C1A04DA
(3.656610) can1 19FA041C#A82F0000FFFFFFFF
(3.657594) can1 19FA041C#A9FF174E0CD44904
(3.658618) can1 19FA041C#AA10FFFFFFFFFF18
(3.659186) can1 0CF00400#FF7D81201300FFFF
(3.659742) can1 19FA041C#AB0D02FA19100EFF
(3.660619) can1 18FF1080#000000FFFFFFFC00
(3.661170) can1 04EF001C#194958E7EB6EA3A4
(3.661743) can1 18FF1180#FD04F504FFFF00FF
(3.662599) can1 18FF1380#000000003FC0C006
(3.663167) can1 19FA041C#ACFFFFFFFF19D606
(3.664091) can1 0CEF0100#A020026300289122
(3.664703) can1 19FA041C#AD5C440000FFFFFF
(3.665707) can1 19FA041C#AEFFFF1B0D02C297
(3.666723) can1 19FA041C#AF0000FFFFFFFFFF
(3.667706) can1 19FA041C#B01C7F21D8723C0F
(3.668734) can1 19FA041C#B1FFFFFFFFFF1F0A
(3.669294) can1 0CEF1100#25B2B7C33F31021B
(3.669862) can1 19FA041C#B20F84806810FFFF
(3.670702) can1 04EF001C#D44B838D266C78CE
(3.671766) can1 19FA041C#B3FFFFFF20963234
(3.672778) can1 19FA041C#B408F811FFFFFFFF
(3.673769) can1 19FA041C#B5FF2CB61CFC85CC
(3.674325) can1 18FFDC00#00140164028B8B53
(3.674901) can1 19FA041C#B610FFFFFFFFFF30
(3.675825) can1 19FA041C#B7A91A308E0410FF
(3.676817) can1 19FA041C#B8FFFFFFFFFFFFFF
(3.679057) can1 18FFDC00#01EE02BC00A0FFDB
(3.679637) can1 0CF00300#DF0010FF00FFFFFF
(3.680205) can1 0CF00400#FF7D81181300FFFF
(3.680865) can1 04EF001C#144E6DB8E7F9975B
(3.684073) can1 18FFDC00#02FFFFC0D72200FF
(3.684661) can1 09F20000#008809FFFFFFFFFF
(3.685224) can1 0CEF0100#A020026300289122
(3.690488) can1 19F10D13#5D83014B02670061
(3.691040) can1 04EF001C#7750FDBE84A7071D
(3.692592) can1 19F21139#000000FFE48D1000
(3.699053) can1 0CF00400#FF7D81101300FFFF
(3.701013) can1 04EF001C#6C53FE659F8404E6
(3.704065) can1 0CEF0100#A020026200289122
(3.709089) can1 18FEF200#3600FFFFFFFF0FFF
(3.711120) can1 04EF001C#2B569358D8C1699B
(3.714872) can1 18FF1C17#0000000000000000
(3.719088) can1 0CF00400#FF7D80201300FFFF
(3.719628) can1 0CEF1100#6ABEC6784365B23A
(3.721228) can1 04EF001C#4D598E67BF2E7544
(3.724084) can1 18FFDC00#20140165028B8C53
(3.724648) can1 0CEF0100#A020026200289122
(3.729080) can1 18FFDC00#21ED02BB00A0FFDB
(3.729664) can1 0CF00300#DF000FFF00FFFFFF
(3.731344) can1 04EF001C#0C5CE56AFE2B1E49
(3.734092) can1 18FFDC00#22FFFFC0D72200FF
(3.739080) can1 0CF00400#FF7D80401300FFFF
(3.741447) can1 04EF001C#6C5E96689E496D2B
(3.742015) can1 15FD069B#633A74FFFFFFFFFF
(3.744059) can1 0CEF0100#A020026500289122
(3.749059) can1 18FEF100#FFB704F0FFC71FFF
(3.751579) can1 04EF001C#2B412B4FD956D00C
(3.759067) can1 0CF00400#FF7D80501300FFFF
(3.761616) can1 18FF1080#000000FFFFFFFC00
(3.762156) can1 04EF001C#B743A3AD457458CE
(3.762729) can1 18FF1180#FD04F504FFFF00FF
(3.764064) can1 0CEF0100#A020026800289122
(3.769052) can1 0CEF1100#BFAE759413BE5DF8
(3.771780) can1 04EF001C#784642D08AD1B913
(3.774084) can1 18FFDC00#4014016B028B8A53
(3.779080) can1 18FFDC00#41ED02BC00A0FFDB
(3.779664) can1 0CF00300#DF000FFF00FFFFFF
(3.780232) can1 0CF00400#FF7D80581300FFFF
(3.781903) can1 04EF001C#CD498A773FFE7194
(3.784099) can1 18FFDC00#42FFFFC0D72200FF
(3.784687) can1 09F20000#00AC09FFFFFFFFFF
(3.785247) can1 0CEF0100#A020026A00279122
(3.790483) can1 19F10D13#5E83014B02670061
(3.792027) can1 04EF001C#614C0B1293DBF0D1
(3.792591) can1 19F21139#000000FF488E1000
(3.799055) can1 0CF00400#FF7D80581300FFFF
(3.802127) can1 04EF001C#454F3631B7B8CD92
(3.804075) can1 0CEF0100#A020026A00289122
(3.809066) can1 18FEF200#3700FFFFFFFF11FF
(3.809651) can1 18FF1CF3#0000000000000000
(3.812230) can1 04EF001C#E151670F13A69CAC
(3.819051) can1 0CF00400#FF7D80681300FFFF
(3.819591) can1 0CEF1100#E1AF28E4CCCE8C83
(3.822359) can1 04EF001C#A1540D0A53C3F6C9
(3.824083) can1 18FFDC00#6014016E028B8A53
(3.824643) can1 0CEF0100#A020026B00289122
(3.829091) can1 18FFDC00#61ED02BC00A0FFDB
(3.829675) can1 0CF00300#DF000FFF00FFFFFF
(3.830259) can1 18FF1CF3#0000000000000000
(3.832475) can1 04EF001C#855730297040CC6A
(3.834071) can1 18FFDC00#62FFFFC0D72200FF
(3.839078) can1 0CF00400#FF7D80881300FFFF
(3.842582) can1 04EF001C#225AFA1CD7AD06BF
(3.844054) can1 0CEF0100#A020026E00289122
(3.849062) can1 18FEF100#FFB504F0FFC71FFF
(3.852686) can1 04EF001C#E15C0F0214CBF3C1
(3.859046) can1 0CF00400#FF7D80501300FFFF
(3.861610) can1 18FF1080#000000FFFFFFFC00
(3.862586) can1 18FF1180#FD04F504FFFF00FF
(3.863138) can1 04EF001C#375FC7B1C2E83B52
(3.863723) can1 18FF1380#000000003FC0C006
(3.864287) can1 0CEF0100#A020026E00279122
(3.869039) can1 0CEF1100#D1DD357BB83E8338
(3.872916) can1 04EF001C#F741F1AF03560CEC
(3.874048) can1 18FFDC00#80140165028B8C53
(3.879051) can1 18FFDC00#81EC02B900A0FFDB
(3.879636) can1 0CF00300#DF000FFF00FFFFFF
(3.880208) can1 0CF00400#FF7D80281300FFFF
(3.883003) can1 04EF001C#B94495DA4D7368B9
(3.884087) can1 18FFDC00#82FFFFC0D72200FF
(3.884675) can1 09F20000#009409FFFFFFFFFF
(3.885235) can1 0CEF0100#A020026700279122
(3.890491) can1 19F10D13#5F81014B02670062
(3.892591) can1 19F21139#000000FFAC8E1000
(3.893135) can1 04EF001C#774745A98330B88A
(3.899079) can1 0CF00400#FF7D80301300FFFF
(3.903234) can1 04EF001C#374A6FA4C31D92A7
(3.904115) can1 18FEEF00#FFFFFF3AFFFFFFFF
(3.904678) can1 0CEF0100#A020026500279122
(3.909090) can1 18FEF200#3600FFFFFFFF13FF
(3.913342) can1 04EF001C#F74C99A203BB6401
(3.919054) can1 0CF00400#FF7D80301300FFFF
(3.919606) can1 0CEF1100#9AD3D5E04BF82665
(3.923457) can1 04EF001C#B74FC3A143D83E62
(3.924053) can1 18FFDC00#A0140166028B8C53
(3.924613) can1 0CEF0100#A020026500289122
(3.925205) can1 18FF1C17#0000000000000000
(3.929065) can1 18FFDC00#A1EC02B900A0FFDB
(3.929649) can1 0CF00300#DF000FFF00FFFFFF
(3.930233) can1 18FF1CF3#0000000000000000
(3.933562) can1 04EF001C#7852E2C48CA51F67
(3.934142) can1 0CEF1700#018400000000FFFF
(3.934706) can1 18FFDC00#A2FFFFC0D72200FF
(3.939054) can1 0CF00400#FF7D80281300FFFF
(3.943677) can1 04EF001C#375597BBC3A26A18
(3.944237) can1 0CEF0100#A020026500289122
(3.944813) can1 18FEF600#FFFF5411FFFFFFFF
(3.949049) can1 18FEF100#FFB404F0FFC71FFF
(3.953797) can1 04EF001C#F75741B903A0BC1A
(3.959072) can1 0CF00400#FF7D80401300FFFF
(3.962613) can1 18FF1080#000000FFFFFFFC00
(3.963593) can1 18FF1180#FD04F404FFFF00FF
(3.964133) can1 04EF001C#B85A64CC4F2D9AEF
(3.964701) can1 0CEF0100#A020026600289122
(3.969069) can1 0CEF1100#41C745FD91BD3E72
(3.974013) can1 04EF001C#775D95B3804A6BF0
(3.974565) can1 18FFDC00#C0140165028B8C53
(3.979077) can1 18FFDC00#C1EC02BA00A0FFDB
(3.979661) can1 0CF00300#DF000FFF00FFFFFF
(3.980232) can1 0CF00400#FF7D80201300FFFF
(3.984072) can1 18FFDC00#C2FFFFC0D72200FF
(3.984636) can1 04EF001C#37403FAEC037C18D
(3.985224) can1 09F20000#008C09FFFFFFFFFF
(3.985792) can1 0CEF0100#A020026600289122
(3.990485) can1 19F10D13#6082014B02670062
(3.992589) can1 19F21139#000000FF108F1000
(3.994245) can1 04EF001C#6243700595148E06
(3.999061) can1 0CF00400#FF7D80181300FFFF
(4.004053) can1 0CEF0100#A020026300289122
(4.004608) can1 04EF001C#46467D20B1318303
(4.009060) can1 18FEF200#3700FFFFFFFF11FF
(4.014464) can1 04EF001C#E048AE2E17AF50AD
(4.019044) can1 0CF00400#FF7D80381300FFFF
(4.019596) can1 0CEF1100#0ECD84476068023E
(4.024060) can1 18FFDC00#E0140169028B8B53
(4.024611) can1 04EF001C#A24BF63D55AC08BE
(4.025172) can1 0CEF0100#A020026400289122
(4.029071) can1 18FFDC00#E1EB02BA00A0FFDB
(4.029655) can1 0CF00300#DF000FFF00FFFFFF
(4.034059) can1 18FFDC00#E2FFFFC0D72200FF
(4.034739) can1 04EF001C#854EF80073290703
(4.039067) can1 0CF00400#FF7D80501300FFFF
(4.044063) can1 0CEF0100#A020026800289122
(4.044835) can1 04EF001C#2251A227D4365D24
(4.049092) can1 18FEF100#FFB304F0FFC71FFF
(4.054903) can1 04EF001C#7753E58D81741ACE
(4.059039) can1 0CF00400#FF7D80381300FFFF
(4.062599) can1 18FF1080#000000FFFFFFFC00
(4.063579) can1 18FF1180#FD04F404FFFF00FF
(4.064144) can1 0CEF0100#A020026800289122
(4.064728) can1 18FF1380#000000003FC0C006
(4.065280) can1 04EF001C#385680F0CE517F93
(4.069040) can1 0CEF1100#FDFD3F12F17E8A7A
(4.074056) can1 18FFDC00#00140166028B8B53
(4.075160) can1 04EF001C#F85836FE0E1FC9DD
(4.079039) can1 18FFDC00#01EB02B900A0FFDB
(4.079623) can1 0CF00300#DF000FFF00FFFFFF
(4.080195) can1 0CF00400#FF7D80301300FFFF
(4.084043) can1 18FFDC00#02FFFFC0D72200FF
(4.084631) can1 09F20000#009409FFFFFFFFFF
(4.085191) can1 0CEF0100#A020026600279122
(4.085739) can1 04EF001C#225CCA2AD43B3529
(4.090487) can1 19F10D13#6182014B02670062
(4.092591) can1 19F21139#000000FF748F1000
(4.095351) can1 04EF001C#775E8D80811972A3
(4.099059) can1 0CF00400#FF7D80F01200FFFF
(4.099643) can1 18FECA00#00FF00000000FFFF
(4.104047) can1 0CEF0100#A020026200279122
(4.105479) can1 04EF001C#5C415FC7AAA6A044
(4.109060) can1 18FEF200#3500FFFFFFFF10FF
(4.109644) can1 18FF1CF3#0000000000000000
(4.115579) can1 04EF001C#F743E19D01841E3E
(4.119039) can1 0CF00400#FF7D80C81200FFFF
(4.119595) can1 0CEF1100#CFF28A01AA4EC420
(4.124059) can1 18FFDC00#20140159028B8B53
(4.124623) can1 0CEF0100#A020025B00279122
(4.125703) can1 04EF001C#14472581E280DA22
(4.129043) can1 18FFDC00#21EB02B400A0FFDB
(4.129623) can1 0CEF0017#810400000000FFFF
(4.130207) can1 0CF00300#DF000FFF00FFFFFF
(4.134035) can1 18FFDC00#22FFFFC0D72200FF
(4.135779) can1 04EF001C#AB49EF775DEE10B4
(4.139043) can1 0CF00400#FF7D80D81200FFFF
(4.139615) can1 18E8FF00#02FFFFFFFF00EF00
(4.144046) can1 0CEF0100#A020025900289122
(4.145898) can1 04EF001C#6D4C07429B8BF8E1
(4.146934) can1 09F8021C#97FCE04E8700FFFF
(4.147930) can1 09F8011C#BCA42618BE1E53C1
(4.148961) can1 19FA031C#97D2640097006500
(4.149521) can1 18FEF100#FFB304F0FFC71FFF
(4.150073) can1 0DF0101C#97F03C4F309BAA2F
(4.150657) can1 18FF1CF3#0000000000000000
(4.151205) can1 18FEE81C#DA39E004EF645281
(4.152061) can1 19FA041C#C0AB97FF0E01FD0C
(4.153053) can1 19FA041C#C104D8F00AFFFFFF
(4.154057) can1 19FA041C#C2FFFF02141E58CA
(4.155076) can1 19FA041C#C3480DFFFFFFFFFF
(4.156020) can1 04EF001C#9E4FEBD968C8143A
(4.157096) can1 19FA041C#C4087805A2AD0000
(4.158104) can1 19FA041C#C5FFFFFFFFFF0A55
(4.159072) can1 0CF00400#FF7D80E81200FFFF
(4.159640) can1 19FA041C#C628CA3A0410FFFF
(4.161143) can1 19FA041C#C7FFFFFF0C1A04DA
(4.162159) can1 19FA041C#C82F0000FFFFFFFF
(4.163147) can1 19FA041C#C9FF174E0CD44904
(4.163747) can1 18FF1080#000000FFFFFFFC00
(4.164311) can1 0CEF0100#A020025B00289122
(4.164888) can1 18FF1180#FD04F404FFFF00FF
(4.165460) can1 19FA041C#CA10FFFFFFFFFF18
(4.166136) can1 04EF001C#E0516637E9316633
(4.167209) can1 19FA041C#CB0D02FA19740EFF
(4.168216) can1 19FA041C#CCFFFFFFFF19D606
(4.169060) can1 0CEF1100#E2985030AFC51756
(4.169632) can1 19FA041C#CD5C440000FFFFFF
(4.171244) can1 19FA041C#CEFFFF1B0D02C297
(4.172272) can1 19FA041C#CF0000FFFFFFFFFF
(4.173268) can1 19FA041C#D01C7F21D8720410
(4.174076) can1 18FFDC00#4014015D028B8D53
(4.174656) can1 19FA041C#D1FFFFFFFFFF1F0A
(4.175320) can1 19FA041C#D20F84803011FFFF
(4.176239) can1 04EF001C#6355C12B95D23EC8
(4.177323) can1 19FA041C#D3FFFFFF20963234
(4.178339) can1 19FA041C#D408F811FFFFFFFF
(4.179059) can1 18FFDC00#41EB02B500A0FFDB
(4.179643) can1 0CF00300#DF000FFF00FFFFFF
(4.180211) can1 0CF00400#FF7D80F01200FFFF
(4.180763) can1 19FA041C#D5FF2CB61CFC8568
(4.182378) can1 19FA041C#D610FFFFFFFFFF30
(4.183386) can1 19FA041C#D7A91A308ECC10FF
(4.184074) can1 18FFDC00#42FFFFC0D72200FF
(4.184666) can1 09F20000#007409FFFFFFFFFF
(4.185226) can1 0CEF0100#A020025D00289122
(4.185814) can1 19FA041C#D8FFFFFFFFFFFFFF
(4.187378) can1 04EF001C#1A58D3EEEC7F2CAD
(4.190490) can1 19F10D13#6281014B02670062
(4.192594) can1 19F21139#000000FFD88F1000
(4.196470) can1 04EF001C#605ABA3C963D453F
(4.197046) can1 18FF2117#06FFFFFF00FFFFFF
(4.199078) can1 0CF00400#FF7D80E81200FFFF
(4.204070) can1 0CEF0100#A020025D00279122
(4.206574) can1 04EF001C#7E5D9CCB889A6368
(4.209082) can1 18FEF200#3600FFFFFFFF11FF
(4.216709) can1 04EF001C#05400C0E0C200C0A
(4.219041) can1 0CF00400#FF7D80001300FFFF
(4.219585) can1 0CEF1100#299ED4A96F218390
(4.224056) can1 18FFDC00#60140161028B8B53
(4.224620) can1 0CEF0100#A020025E00279122
(4.226801) can1 04EF001C#D942C6ECD042C688
(4.229037) can1 18FFDC00#61EB02B700A0FFDB
(4.229621) can1 0CF00300#DF000FFF00FFFFFF
(4.230205) can1 18FF1CF3#0000000000000000
(4.234033) can1 18FFDC00#62FFFFC0D72200FF
(4.236917) can1 04EF001C#8545A01B8C75A05F
(4.239045) can1 0CF00400#FF7D80101300FFFF
(4.239609) can1 15FD069B#643A74FFFFFFFFFF
(4.244053) can1 0CEF0100#A020026000279122
(4.245909) can1 18FF1C17#0000000000000000
(4.247033) can1 04EF001C#46480D0E4F980DAA
(4.249057) can1 18FEF100#FFB304F0FFC71FFF
(4.257120) can1 04EF001C#784A22FC719A2258
(4.259040) can1 0CF00400#FF7D80101300FFFF
(4.263592) can1 18FF1080#000000FFFFFFFC00
(4.264156) can1 0CEF0100#A020026200289122
(4.264732) can1 18FF1180#FD04F404FFFF00FF
(4.265589) can1 18FF1380#000000003FC0C006
(4.267241) can1 04EF001C#384D58FB31DD581F
(4.269017) can1 0CEF1100#62968433AF67A750
(4.274044) can1 18FFDC00#8014015D028B8C53
(4.277364) can1 04EF001C#F74F8181FEDF8165
(4.279020) can1 18FFDC00#81EB02B500A0FFDB
(4.279604) can1 0CF00300#DF000FFF00FFFFFF
(4.280176) can1 0CF00400#FF7D80D81200FFFF
(4.284044) can1 18FFDC00#82FFFFC0D72200FF
(4.284637) can1 09F20000#006809FFFFFFFFFF
(4.285205) can1 0CEF0100#A020025F00289122
(4.287449) can1 04EF001C#EC527244E5427220
(4.290493) can1 19F10D13#6382014B02670062
(4.292601) can1 19F21139#000000FF3C901000
(4.297564) can1 04EF001C#7755D59B7E85D53F
(4.299048) can1 0CF00400#FF7D80C81200FFFF
(4.304044) can1 0CEF0100#A020025A00279122
(4.307676) can1 04EF001C#3858F0EE3008F1CA
(4.309048) can1 18FEF200#3500FFFFFFFF11FF
(4.317795) can1 04EF001C#F85A26ECF02A27E8
(4.319035) can1 0CF00400#FF7D80D01200FFFF
(4.319583) can1 0CEF1100#A4956B836D8068C7
(4.324051) can1 18FFDC00#A014015A028B8C53
(4.324611) can1 0CEF0100#A020025900279122
(4.327898) can1 04EF001C#B75D5363BFDD5267
(4.329030) can1 18FFDC00#A1EB02B500A0FFDB
(4.329614) can1 0CF00300#DF000FFF00FFFFFF
(4.330198) can1 18FF1CF3#0000000000000000
(4.334022) can1 18FFDC00#A2FFFFC0D72200FF
(4.338038) can1 04EF001C#77407D7E7F407CFA
(4.339042) can1 0CF00400#FF7D80D01200FFFF
(4.344039) can1 0CEF0100#A020025900289122
(4.348130) can1 04EF001C#3743277D3F0326B9
(4.349082) can1 18FEF100#FFB304F0FFC71FFF
(4.358245) can1 04EF001C#F745D17BFF05D0BF
(4.359069) can1 0CF00400#FF7D80D81200FFFF
(4.364073) can1 0CEF0100#A020025A00289122
(4.364673) can1 18FF1080#000000FFFFFFFC00
(4.365578) can1 18FF1180#FD04F404FFFF00FF
(4.368345) can1 04EF001C#B848F40EB068F5AA
(4.369049) can1 0CEF1100#DCB28E4BF4A78A07
(4.374061) can1 18FFDC00#C014015C028B8C53
(4.378449) can1 04EF001C#774B25757F4B24F1
(4.379057) can1 18FFDC00#C1EC02B500A0FFDB
(4.379641) can1 0CF00300#DF000FFF00FFFFFF
(4.380213) can1 0CF00400#FF7D80E01200FFFF
(4.384056) can1 18FFDC00#C2FFFFC0D72200FF
(4.384644) can1 09F20000#007009FFFFFFFFFF
(4.385208) can1 0CEF0100#A020025B00289122
(4.388505) can1 04EF001C#C54EBAE0CD6EBB44
(4.389077) can1 09F20100#E016001509FFFFF0
(4.390421) can1 19F10D13#6482014B02670062
(4.392521) can1 19F21139#000000FFA0901000
(4.393977) can1 09F20100#E1837E051B00C0D7
(4.398609) can1 04EF001C#6151E3CF6961E26B
(4.399181) can1 09F20100#E22200FFFFFFFF00
(4.399753) can1 0CF00400#FF7D80F81200FFFF
(4.400325) can1 18FEEE00#68FFFFFFFFFF50FF
(4.404001) can1 09F20100#E30000FFFFFFFFFF
(4.404560) can1 0CEF0100#A020025D00279122
(4.405140) can1 18FEEF00#FFFFFF3AFFFFFFFF
(4.408732) can1 04EF001C#23548BDA2B048A1E
(4.409304) can1 18FEF200#3600FFFFFFFF11FF
(4.413972) can1 18FEF700#FFFF1A0118011501
(4.418844) can1 04EF001C#0657B7F10DC7B5F5
(4.419392) can1 0CEF1100#1BB029B38A431830
(4.419968) can1 0CF00400#FF7D80081300FFFF
(4.423960) can1 18FFDC00#E0140161028B8C53
(4.424528) can1 0CEF0100#A020026000279122
(4.428952) can1 18FFDC00#E1EC02B700A0FFDB
(4.429492) can1 04EF001C#A15965C7A9296423
(4.430072) can1 0CEA1C00#00EE000000000000
(4.430656) can1 0CF00300#DF000FFF00FFFFFF
(4.431224) can1 18EEFF1C#0204450E00000042
(4.433948) can1 18FFDC00#E2FFFFC0D72200FF
(4.434528) can1 0CEF1700#018400000000FFFF
(4.438960) can1 0CF00400#FF7D80001300FFFF
(4.439504) can1 04EF001C#605C8ACA6B8C888E
(4.440100) can1 18FEFC00#FFDBFFFFFFFFFFFF
(4.443984) can1 0CEF0100#A020026000279122
(4.444560) can1 18FEF600#FFFF5410FFFFFFFF
(4.448969) can1 18FEF100#FFB504F0FFC71FFF
(4.449517) can1 04EF001C#455FB6E14E6FB445
(4.450101) can1 18FF1CF3#0000000000000000
(4.454588) can1 18FF1C17#0000000000000000
(4.458956) can1 0CF00400#FF7D80F81200FFFF
(4.459516) can1 04EF001C#7741755F7C21779B
(4.463972) can1 0CEF0100#A020025F00289122
(4.464572) can1 18FF1080#000000FFFFFFFC00
(4.465493) can1 18FF1180#FD04F404FFFF00FF
(4.466505) can1 18FF1380#000000003FC0C006
(4.468965) can1 0CEF1100#40A8FDAD6A2539F5
(4.469521) can1 04EF001C#38441022332412E6
(4.473953) can1 18FFDC00#00140161028B8C53
(4.478949) can1 18FFDC00#01EC02B700A0FFDB
(4.479533) can1 0CF00300#DF000FFF00FFFFFF
(4.480081) can1 04EF001C#F746C958FC06CBBC
(4.480657) can1 0CF00400#FF7D80081300FFFF
(4.483961) can1 18FFDC00#02FFFFC1D72200FF
(4.484553) can1 09F20000#008009FFFFFFFFFF
(4.485117) can1 0CEF0100#A020026000289122
(4.489612) can1 04EF001C#B749F357BC49F1F3
(4.490416) can1 19F10D13#6581014B02670062
(4.492520) can1 19F21139#000000FF04911000
(4.498956) can1 0CF00400#FF7D80D81200FFFF
(4.499756) can1 04EF001C#774C1D427C3C1F86
(4.503988) can1 0CEF0100#A020025E00279122
(4.508992) can1 18FEF200#3500FFFFFFFF11FF
(4.509852) can1 04EF001C#394F4931323F4BF5
(4.518996) can1 0CF00400#FF7D80E81200FFFF
(4.519544) can1 0CEF1100#81A4ABE6BED58F11
(4.520096) can1 04EF001C#F751715FFDE1725B
(4.523987) can1 18FFDC00#2014015F028B8B53
(4.524551) can1 0CEF0100#A020025B00279122
(4.528979) can1 18FFDC00#21ED02B600A0FFDB
(4.529563) can1 0CF00300#DF000FFF00FFFFFF
(4.530115) can1 04EF001C#B8541422B2C41706
(4.530699) can1 18FF1CF3#0000000000000000
(4.533971) can1 18FFDC00#22FFFFC1D72200FF
(4.538963) can1 0CF00400#FF7D80181300FFFF
(4.540183) can1 04EF001C#E1575799EBF754FD
(4.543979) can1 0CEF0100#A020025F00279122
(4.548958) can1 18FEF100#FFB804F0FFC71FFF
(4.550286) can1 04EF001C#5E5A856C54DA8628
(4.558954) can1 0CF00400#FF7D80401300FFFF
(4.560414) can1 04EF001C#1C5DFD7B16FDFE1F
(4.563962) can1 0CEF0100#A020026500279122
(4.564562) can1 18FF1080#000000FFFFFFFC00
(4.565487) can1 18FF1180#FD04F404FFFF00FF
(4.568959) can1 0CEF1100#3CDED153BA5E786B
(4.569539) can1 0CEF0017#810400000000FFFF
(4.570515) can1 04EF001C#DD5F2A71D7BF2955
(4.573943) can1 18FFDC00#4014016A028B8B53
(4.578979) can1 18FFDC00#41EF02B900A0FFDB
(4.579563) can1 0CF00300#DF000FFF00FFFFFF
(4.580131) can1 0CF00400#FF7D80581300FFFF
(4.580683) can1 04EF001C#D342CC0CD832CEA8
(4.581255) can1 18E8FF00#02FFFFFFFF00EF00
(4.583975) can1 18FFDC00#42FFFFC1D72200FF
(4.584567) can1 09F20000#00B809FFFFFFFFFF
(4.585131) can1 0CEF0100#A020026800279122
(4.590419) can1 19F10D13#6682014B02670062
(4.590963) can1 04EF001C#A345878BA8F585EF
(4.592515) can1 19F21139#000000FF68911000
(4.598950) can1 0CF00400#FF7D80A81300FFFF
(4.600846) can1 04EF001C#BC48F07EB718F2FA
(4.603966) can1 0CEF0100#A020026F00279122
(4.608974) can1 18FEF200#3800FFFFFFFF10FF
(4.610946) can1 04EF001C#7E4B2C6D751B2EE9
(4.618990) can1 0CF00400#FF7D80A01300FFFF
(4.619534) can1 0CEF1100#C8D7E3F162D36BAD
(4.621098) can1 04EF001C#414E3AA04A4E3844
(4.623978) can1 18FFDC00#60140173028B8B53
(4.624538) can1 0CEF0100#A020027400279122
(4.628950) can1 18FFDC00#61F002BC00A0FFDB
(4.629534) can1 0CF00300#DF000FFF00FFFFFF
(4.630119) can1 18FF1CF3#0000000000000000
(4.631166) can1 04EF001C#5E51DD4754B1DE43
(4.633210) can1 04EF001C#3E46065034860574
(4.633938) can1 18FFDC00#62FFFFC1D72200FF
(4.635246) can1 04EF001C#7058BA3E7A98B91A
(4.638966) can1 0CF00400#FF7D80A01300FFFF
(4.639542) can1 0DF50B9B#33B80800000000FF
(4.643954) can1 0CEF0100#A020027300279122
(4.645361) can1 04EF001C#095BD8F5039BDBD1
(4.648977) can1 18FEF100#FFBC04F0FFC71FFF
(4.654441) can1 09F8021C#98FCDC4F9400FFFF
(4.655433) can1 04EF001C#845D619B8E9D62BF
(4.656452) can1 09F8011C#9CA426181C1F53C1
(4.657468) can1 19FA031C#98D2640097006500
(4.658472) can1 0DF0101C#98F03C4F40C2AA2F
(4.659048) can1 0CF00400#FF7D80801300FFFF
(4.659592) can1 18FEE81C#933A7005EF645381
(4.660599) can1 19FA041C#C0AB98FF0E01FD0C
(4.661567) can1 19FA041C#C104D8F00AFFFFFF
(4.662575) can1 19FA041C#C2FFFF02141E58CA
(4.663595) can1 19FA041C#C3AC0DFFFFFFFFFF
(4.664159) can1 0CEF0100#A020027200279122
(4.664719) can1 19FA041C#C4087805A2AD0000
(4.665515) can1 18FF1080#000000FFFFFFFC00
(4.666068) can1 04EF001C#DB40D46ED0D0D60A
(4.666644) can1 18FF1180#FD04F404FFFF00FF
(4.667496) can1 18FF1380#000000003FC0C006
(4.668068) can1 19FA041C#C5FFFFFFFFFF0A55
(4.668956) can1 0CEF1100#99C5E53D96A1684A
(4.669692) can1 19FA041C#C628CA3A0410FFFF
(4.670672) can1 19FA041C#C7FFFFFF0C1A04DA
(4.671684) can1 19FA041C#C82F0000FFFFFFFF
(4.672672) can1 19FA041C#C9FF174E0CD44968
(4.673695) can1 19FA041C#CA10FFFFFFFFFF18
(4.674251) can1 18FFDC00#80140169028B8B53
(4.674811) can1 19FA041C#CB0D02FA19740EFF
(4.675675) can1 04EF001C#99438C7D92F38E39
(4.676739) can1 19FA041C#CCFFFFFFFF19D606
(4.677746) can1 19FA041C#CD5C440000FFFFFF
(4.678746) can1 19FA041C#CEFFFF1B0D02C297
(4.679330) can1 0CF00300#DF000FFF00FFFFFF
(4.679899) can1 0CF00400#FF7D80381300FFFF
(4.680467) can1 18FFDC00#81F202B700A0FFDB
(4.681051) can1 19FA041C#CF0000FFFFFFFFFF
(4.681806) can1 19FA041C#D01C7F21D8720410
(4.682806) can1 19FA041C#D1FFFFFFFFFF1F0A
(4.683810) can1 19FA041C#D20F84803011FFFF
(4.684398) can1 09F20000#009809FFFFFFFFFF
(4.684958) can1 0CEF0100#A020026C00279122
(4.685531) can1 18FFDC00#82FFFFC1D72200FF
(4.686803) can1 04EF001C#27461F882C961DAC
(4.687863) can1 19FA041C#D3FFFFFF20963234
(4.688879) can1 19FA041C#D408F811FFFFFFFF
(4.689862) can1 19FA041C#D5FF2CB61CFC8568
(4.690418) can1 19F10D13#6782014B02670062
(4.690998) can1 19FA041C#D610FFFFFFFFFF30
(4.691882) can1 19FA041C#D7A91A308E6810FF
(4.692526) can1 19F21139#000000FFCC911000
(4.693114) can1 19FA041C#D8FFFFFFFFFFFFFF
(4.695886) can1 04EF001C#3848707E33B8727A
(4.698950) can1 0CF00400#FF7D80201300FFFF
(4.703953) can1 0CEF0100#A020026500279122
(4.705981) can1 04EF001C#2B4B7815236B7A31
(4.708961) can1 18FEF200#3600FFFFFFFF13FF
(4.716093) can1 04EF001C#B94DDE83B14DDC87
(4.718972) can1 0CF00400#FF7D80501300FFFF
(4.719517) can1 0CEF1100#61F874F3963BC641
(4.723980) can1 18FFDC00#A014016B028B8B53
(4.724541) can1 0CEF0100#A020026600279122
(4.726208) can1 04EF001C#0B51890F03D18B8B
(4.728980) can1 18FFDC00#A1F402B800A0FFDB
(4.729564) can1 0CF00300#DF000FFF00FFFFFF
(4.733936) can1 18FFDC00#A2FFFFC1D72200FF
(4.736320) can1 04EF001C#6C53FD3564B3FFD1
(4.738960) can1 0CF00400#FF7D80501300FFFF
(4.743951) can1 0CEF0100#A020026A00279122
(4.744515) can1 15FD069B#653A74FFFFFFFFFF
(4.746432) can1 04EF001C#2B56901823A692FC
(4.748964) can1 18FEF100#FFC204F0FFC71FFF
(4.749548) can1 18FF1CF3#0000000000000000
(4.756532) can1 04EF001C#B858778EB16874AA
(4.758980) can1 0CF00400#FF7D80801300FFFF
(4.763995) can1 0CEF0100#A020026C00279122
(4.765516) can1 18FF1080#000000FFFFFFFC00
(4.766480) can1 18FF1180#FD04F404FFFF00FF
(4.767032) can1 04EF001C#775BA6F57FEBA451
(4.768968) can1 0CEF1100#3FE9A9876754EE4E
(4.773936) can1 18FFDC00#C0140175028B8C53
(4.776760) can1 04EF001C#395EC280316EC0A4
(4.778580) can1 18FF1C17#0000000000000000
(4.779164) can1 0CF00300#DF000FFF00FFFFFF
(4.779736) can1 0CF00400#FF7D80B01300FFFF
(4.780312) can1 18FFDC00#C1F602BC00A0FFDB
(4.783964) can1 18FFDC00#C2FFFFC1D72200FF
(4.784552) can1 09F20000#00DC09FFFFFFFFFF
(4.785116) can1 0CEF0100#A020027200279122
(4.786875) can1 04EF001C#99419FAF91619DAB
(4.790412) can1 19F10D13#6883014B02670061
(4.792520) can1 19F21139#000000FF30921000
(4.796991) can1 04EF001C#45446D4A4D046F2E
(4.798971) can1 0CF00400#FF7D80C01300FFFF
(4.803955) can1 0CEF0100#A020027700279122
(4.807104) can1 04EF001C#054737490D67354D
(4.808968) can1 18FEF200#3700FFFFFFFF0FFF
(4.817199) can1 04EF001C#A249E57FAA49E75B
(4.818939) can1 0CF00400#FF7D80A01300FFFF
(4.819495) can1 0CEF1100#EFFC730283841D6D
(4.823935) can1 18FFDC00#E0140172028B8C53
(4.824499) can1 0CEF0100#A020027600279122
(4.827323) can1 04EF001C#854CEB528E9CEAB6
(4.828935) can1 18FFDC00#E1F702BA00A0FFDB
(4.829519) can1 0CF00300#DF000FFF00FFFFFF
(4.830103) can1 18FF1CF3#0000000000000000
(4.833971) can1 18FFDC00#E2FFFFC1D72200FF
(4.837435) can1 04EF001C#454F35514E9F34B5
(4.838963) can1 0CF00400#FF7D80681300FFFF
(4.843970) can1 0CEF0100#A020027100279122
(4.847538) can1 04EF001C#E151646FE901660B
(4.848966) can1 18FEF100#FFC904F0FFC71FFF
(4.857645) can1 04EF001C#385493A2330492C6
(4.858953) can1 0CF00400#FF7D80581300FFFF
(4.863942) can1 0CEF0100#A020026C00279122
(4.866498) can1 18FF1080#000000FFFFFFFC00
(4.867479) can1 18FF1180#FD04F404FFFF00FF
(4.868023) can1 04EF001C#F7564AA8FCB64B0C
(4.868607) can1 18FF1380#000000003FC0C006
(4.869155) can1 0CEF1100#BCECE55E73F2BE2A
(4.873939) can1 18FFDC00#0014016B028B8A53
(4.877871) can1 04EF001C#B9597ED7B2597F93
(4.878939) can1 18FFDC00#01FA02B700A0FFDB
(4.879515) can1 0CF00300#DF000EFF00FFFFFF
(4.880083) can1 0CF00400#FF7D80581300FFFF
(4.883986) can1 18FFDC00#02FFFFC1D72200FF
(4.884574) can1 09F20000#00AC09FFFFFFFFFF
(4.885134) can1 0CEF0100#A020026A00279122
(4.887978) can1 04EF001C#785C91DA733C90FE
(4.890426) can1 19F10D13#6982014B02670062
(4.892518) can1 19F21139#000000FF94921000
(4.898102) can1 04EF001C#375FC4A13C1FC5A5
(4.898974) can1 0CF00400#FF7D80501300FFFF
(4.903985) can1 18FEEF00#FFFFFF3AFFFFFFFF
(4.904545) can1 0CEF0100#A020026A00279122
(4.908221) can1 04EF001C#F741F2BFFD41F2FB
(4.908957) can1 18FEF200#3500FFFFFFFF10FF
(4.918308) can1 04EF001C#B84497D2B2B49776
(4.918936) can1 0CF00400#FF7D80501300FFFF
(4.919492) can1 0CEF1100#6FE22705AD39541F
(4.923941) can1 18FFDC00#2014016B028B8B53
(4.924501) can1 0CEF0100#A020026A00279122
(4.928425) can1 04EF001C#774746A97DB7460D
(4.929009) can1 0CF00300#DF000EFF00FFFFFF
(4.929593) can1 18FF1CF3#0000000000000000
(4.930161) can1 18FFDC00#21FD02B600A0FFDB
(4.933957) can1 18FFDC00#22FFFFC1D72200FF
(4.934537) can1 0CEF1700#018400000000FFFF
(4.938541) can1 04EF001C#374A6CA43D9A6C20
(4.939109) can1 0CF00400#FF7D80601300FFFF
(4.943965) can1 0CEF0100#A020026A00279122
(4.944541) can1 18FEF600#FFFF5410FFFFFFFF
(4.948648) can1 04EF001C#F74C9AA2FD3C9A86
(4.949216) can1 18FEF100#FFD204F0FFC71FFF
(4.958768) can1 04EF001C#B74FC0A142F83F42
(4.959344) can1 0CF00400#FF7D80801300FFFF
(4.963944) can1 0CEF0100#A020026D00279122
(4.966496) can1 18FF1080#000000FFFFFFFC00
(4.967476) can1 18FF1180#FD04F404FFFF00FF
(4.968868) can1 04EF001C#7752EEBC82C5117F
(4.969412) can1 0CEF1100#5B9173BA9A8050BE
(4.973924) can1 18FFDC00#40140171028B8C53
(4.975012) can1 18FF1C17#0000000000000000
(4.978972) can1 18FFDC00#410003B800A0FFDB
(4.979520) can1 04EF001C#3755948BC2326B88
(4.980096) can1 0CF00300#DF000EFF00FFFFFF
(4.980668) can1 0CF00400#FF7D80881300FFFF
(4.983961) can1 18FFDC00#42FFFFC1D72200FF
(4.984549) can1 09F20000#00C809FFFFFFFFFF
(4.985113) can1 0CEF0100#A020027000279122
(4.989117) can1 04EF001C#6058A93E94DF57DD
(4.990417) can1 19F10D13#6A82014B02670062
(4.992524) can1 19F21139#000000FFF8921000
(4.998932) can1 0CF00400#FF7D80881300FFFF
(4.999484) can1 04EF001C#465B960DB2FC68CE
(5.003952) can1 0CEF0100#A020027100279122
(5.008940) can1 18FEF200#3600FFFFFFFF10FF
(5.009496) can1 04EF001C#E15D043315FAFAF0
(5.018967) can1 0CF00400#FF7D80781300FFFF
(5.019511) can1 04EF001C#A240AD3656875395
(5.020059) can1 0CEF1100#9097F723EE7E11D8
(5.023955) can1 18FFDC00#6014016F028B8B53
(5.024519) can1 0CEF0100#A020027000279122
(5.028971) can1 18FFDC00#610203B700A0FFDB
(5.029547) can1 0CF00300#DF000EFF00FFFFFF
(5.030091) can1 04EF001C#8543930D71A46D8E
(5.033931) can1 18FFDC00#62FFFFC1D72200FF
(5.038931) can1 0CF00400#FF7D80701300FFFF
(5.039698) can1 04EF001C#22461930D641E753
(5.043943) can1 0CEF0100#A020026E00279122
(5.048955) can1 18FEF100#FFDA04F0FFC71FFF
